;$FILEVERSION=1.3
;$STARTTIME=45252.6797345941231
;
;   Start time: 22/11/2023 16:18:49.068.9
;   Generated by PCAN-Explorer v6.6.1.2744
;-------------------------------------------------------------------------------
;   Bus  Connection   Net Connection    Protocol  Bit rate
;   1    Connection1  CAN_USB@pcan_usb  CAN       1 Mbit/s
;-------------------------------------------------------------------------------
;   Message   Time    Bus  Type   ID    Reserved
;   Number    Offset  |    |      [hex] |   Data Length Code
;   |         [ms]    |    |      |     |   |    Data [hex] ...
;   |         |       |    |      |     |   |    |
;---+-- ------+------ +- --+-- ---+---- +- -+-- -+ -- -- -- -- -- -- --
     1)         4.367 1  Rx        0332 -  8    B5 C5 3A 8A A1 91 45 04
     2)         4.836 1  Rx        011A -  5    E3 4A A8 A5 70
     3)         5.305 1  Rx        0331 -  8    48 D2 7B CE 60 F6 AA 63
     4)         5.817 1  Rx        011B -  7    AF FE 3C 8E 63 09 E8
     5)         6.244 1  Rx        006E -  7    17 9B B8 33 25 C5 3C
     6)         6.799 1  Rx        0106 -  7    73 2B 7D 43 2F B9 9B
     7)         7.225 1  Rx        0132 -  7    60 A9 A4 2C 8F E2 40
     8)         7.695 1  Rx        0308 -  8    8D DE 5B 49 99 61 2A BE
     9)         8.121 1  Rx        0206 -  7    A1 44 E7 E6 37 2D E0
    10)         8.505 1  Rx        0212 -  7    8E 11 B0 18 95 FB D6
    11)         8.975 1  Rx        0222 -  8    93 6F 7D 5D C9 D0 14 BB
    12)         9.615 1  Rx        0459 -  8    AC DE 98 6A 09 39 D8 3C
    13)        10.169 1  Rx        0451 -  8    65 5F E7 3C AC 8F FE 9F
    14)        10.638 1  Rx        0441 -  8    62 1D C5 56 E6 09 ED B7
    15)        11.193 1  Rx    1AFB1C04 -  8    3E 00 34 6E D4 F5 CC 3F
    16)        11.748 1  Rx    1AFB1C00 -  8    52 7D EF 8D 21 45 1D 1C
    17)        12.174 1  Rx        0419 -  8    99 C0 A1 33 4D 42 48 BC
    18)        23.225 1  Rx        0332 -  8    9C C5 52 8A A7 83 DF CF
    19)        23.652 1  Rx        011A -  5    55 30 94 76 70
    20)        24.462 1  Rx        0331 -  8    33 CA F6 CE 60 F6 AA 69
    21)        24.974 1  Rx        011B -  7    8A 30 24 90 C9 09 E8
    22)        25.486 1  Rx        006E -  7    F0 9B B8 33 25 D9 3C
    23)        26.126 1  Rx        0106 -  7    BD 08 7D 52 2F B9 C8
    24)        26.681 1  Rx        0132 -  7    1A A9 74 DA 3B E2 30
    25)        27.193 1  Rx        0308 -  8    71 E7 6D 49 15 61 2A 30
    26)        27.662 1  Rx        0206 -  7    47 E0 A3 E6 1E 2D E0
    27)        27.961 1  Rx        0212 -  7    0E 11 AB 18 95 FB D6
    28)        28.388 1  Rx        0222 -  8    DF AE 7D 92 C9 A7 BF 33
    29)        28.772 1  Rx        0459 -  8    8E DE F7 18 09 39 8B 89
    30)        29.113 1  Rx        0451 -  8    90 5F 20 3C AC 0B 12 9F
    31)        29.540 1  Rx        0441 -  8    62 13 C5 83 E6 09 7A 27
    32)        30.009 1  Rx    1AFB1C04 -  8    52 00 38 6E CC F5 CC 57
    33)        30.350 1  Rx    1AFB1C00 -  8    52 7D EF 8D C1 86 1D E1
    34)        30.692 1  Rx        0419 -  8    99 C0 A1 33 44 E6 48 37
    35)        41.699 1  Rx        0332 -  8    A1 C5 7B 8A A7 83 1C CF
    36)        42.211 1  Rx        011A -  5    2E 72 1E 76 34
    37)        42.766 1  Rx        0331 -  8    33 3E D8 CE 60 7A AA 69
    38)        43.107 1  Rx        011B -  7    F7 CB 24 90 C9 09 DA
    39)        43.491 1  Rx        006E -  7    06 9B B8 AD 25 D9 97
    40)        43.875 1  Rx        0106 -  7    7E 77 B2 AC 2F AF 04
    41)        44.345 1  Rx        0132 -  7    98 A9 74 79 3B E2 30
    42)        44.729 1  Rx        0308 -  8    71 48 07 38 15 61 2A 30
    43)        45.198 1  Rx        0206 -  7    83 BD A3 00 0E 2D 2C
    44)        45.539 1  Rx        0212 -  7    0E 0F AB 18 95 F9 D6
    45)        45.795 1  Rx        0222 -  8    DF 9E 7D 92 C9 A7 63 08
    46)        46.137 1  Rx        0459 -  8    8E DE F7 18 09 39 47 C0
    47)        46.435 1  Rx        0451 -  8    90 31 77 D4 97 0B 12 7D
    48)        46.862 1  Rx        0441 -  8    6C 13 C5 70 D6 09 0A 27
    49)        47.203 1  Rx    1AFB1C04 -  8    52 00 4E 6E CC F5 CC 3D
    50)        47.502 1  Rx    1AFB1C00 -  8    52 78 3F B9 C1 B3 47 E1
    51)        47.715 1  Rx        0419 -  8    99 52 50 33 FE E6 14 37
    52)        58.254 1  Rx        033B -  8    C5 E1 E3 D1 7F CF CA 0A
    53)        58.936 1  Rx        0332 -  8    A1 CC 7B 01 CF 83 1C E2
    54)        59.491 1  Rx        0339 -  8    8F AF 79 5B F6 F3 E0 8A
    55)        59.662 1  Rx        011A -  5    51 72 9A 76 34
    56)        60.259 1  Rx        0337 -  7    A1 F9 E2 6E CD 9E D8
    57)        60.515 1  Rx        0331 -  8    33 3E 7A CE 60 7A C8 69
    58)        60.686 1  Rx        001F -  5    F7 2A 79 D4 6E
    59)        61.198 1  Rx        011B -  7    F7 CB 24 90 C9 35 45
    60)        61.368 1  Rx        0333 -  4    B0 BB B0 45
    61)        61.710 1  Rx        006E -  7    06 63 65 AD 25 D9 EC
    62)        61.966 1  Rx        0335 -  8    B4 3D 45 48 02 B8 BB 03
    63)        62.307 1  Rx        0106 -  7    7E 77 C5 98 49 CC 04
    64)        62.392 1  Rx        0121 -  4    B1 63 79 8E
    65)        62.819 1  Rx        0132 -  7    98 54 CF E5 3B C3 25
    66)        62.990 1  Rx        067F -  8    8D 35 0F 9E 95 63 4E 1C
    67)        63.331 1  Rx        0308 -  8    71 48 07 86 F1 61 CE 30
    68)        63.502 1  Rx        0681 -  8    C9 4F C9 9D 88 93 1A 52
    69)        63.843 1  Rx        0206 -  7    83 BD A3 3D 0E 2F 48
    70)        63.971 1  Rx        0309 -  8    77 15 B1 BD 35 8D 6E 75
    71)        64.355 1  Rx        0212 -  7    5E 0C 08 18 DB F9 D6
    72)        64.526 1  Rx        030A -  8    EC 02 80 72 C5 80 41 90
    73)        64.867 1  Rx        0222 -  8    DF 9E A2 6F 3D A7 63 08
    74)        64.952 1  Rx        0622 -  6    84 89 56 B0 2E B7
    75)        65.379 1  Rx        0459 -  8    8E DE FC 27 08 39 47 28
    76)        65.507 1  Rx        0413 -  6    B2 C7 2E D7 29 67
    77)        65.976 1  Rx        0451 -  8    1C FA 24 9A 1A 7E 5B 7D
    78)        66.104 1  Rx        0402 -  3    04 65 1E
    79)        66.702 1  Rx        0441 -  8    6C BC C5 E7 D6 09 0A 27
    80)        66.872 1  Rx        0739 -  8    09 77 EE 19 91 EC 33 B8
    81)        67.427 1  Rx    1AFB1C04 -  8    56 0B 4E 6E 7E F5 CC 3D
    82)        67.640 1  Rx        0411 -  8    F7 98 86 65 4B CE 9D 71
    83)        68.323 1  Rx    1AFB1C00 -  8    A5 78 3F 46 C1 86 B4 E1
    84)        68.494 1  Rx        0729 -  8    DE CC EC 3C 6E 7D D3 47
    85)        69.134 1  Rx        0419 -  8    73 EF 70 16 AD E6 14 37
    86)        69.390 1  Rx        0728 -  8    B9 ED ED CC 00 A0 DE 0A
    87)        69.987 1  Rx        0709 -  8    A9 CC E3 DD C8 80 4F 02
    88)        70.499 1  Rx        0711 -  8    EA 69 E2 93 2B 34 8D B7
    89)        80.483 1  Rx        0332 -  8    5F E1 8F 83 3B 83 1C 60
    90)        81.080 1  Rx        011A -  5    51 A5 97 2E 34
    91)        81.720 1  Rx        0331 -  8    33 3E 7A CE 60 7A 31 69
    92)        82.104 1  Rx        011B -  7    F7 CB 24 90 C9 28 F1
    93)        82.872 1  Rx        006E -  7    06 9D 0B AD 2D 2D EC
    94)        83.597 1  Rx        0106 -  7    7E 77 9F 98 31 CD 58
    95)        84.237 1  Rx        0132 -  7    98 76 CF D7 3B C1 25
    96)        84.664 1  Rx        0308 -  8    76 6E 07 15 F1 49 C9 C2
    97)        84.963 1  Rx        0206 -  7    1A BD FC DC 0E 2F 9E
    98)        85.347 1  Rx        0212 -  7    5E 68 B3 C0 D9 F7 93
    99)        85.773 1  Rx        0222 -  8    BD 8F 9A 70 3D A7 B4 AF
   100)        86.157 1  Rx        0459 -  8    8E DF FC 27 08 39 64 28
   101)        86.541 1  Rx        0451 -  8    1C FA 24 9A 1A 7E 7F 7D
   102)        86.925 1  Rx        0441 -  8    6C BC C5 E7 0C D0 0A 27
   103)        87.395 1  Rx    1AFB1C04 -  8    56 0B 4E 6E CF C2 CC E0
   104)        87.864 1  Rx    1AFB1C00 -  8    62 78 3F 46 C1 1A B4 07
   105)        88.291 1  Rx        0419 -  8    A2 2E 70 16 A8 25 14 24
   106)        89.485 1  Rx        033A -  8    B7 0F 3D 82 FF F3 6B 73
   107)        90.125 1  Rx        0336 -  8    A4 C5 ED 51 3E 39 34 1D
   108)        90.979 1  Rx        0334 -  8    04 B5 6B A9 14 AD FE AD
   109)        91.704 1  Rx        06DD -  8    8E FE C5 16 09 3D 84 08
   110)        92.216 1  Rx        0799 -  8    D3 3E 8E 4E 50 DB F2 4E
   111)        99.512 1  Rx        0332 -  8    67 22 B7 66 53 20 D9 6B
   112)        99.640 1  Rx        011A -  5    15 9E 47 D3 F2
   113)        99.768 1  Rx        0331 -  8    8F 5F 76 A2 C9 DC 6B A8
   114)        99.896 1  Rx        011B -  7    1A 3C 54 5B 1F F1 F4
   115)       100.024 1  Rx        006E -  7    59 F4 20 75 FF C9 B6
   116)       100.152 1  Rx        0106 -  7    FF E9 98 2D C4 74 A7
   117)       100.280 1  Rx        0132 -  7    F4 77 9B 8A 60 01 94
   118)       100.365 1  Rx        0308 -  8    E5 62 15 07 08 7B 1E A1
   119)       100.493 1  Rx        0206 -  7    22 64 A7 DF F7 8F 7C
   120)       100.621 1  Rx        0212 -  7    B7 F0 6F 96 A0 54 6E
   121)       100.749 1  Rx        0222 -  8    6F 94 54 89 7D 2B FA 43
   122)       100.877 1  Rx        0459 -  8    1D BC BE 26 2B 08 D3 ED
   123)       101.005 1  Rx        0451 -  8    A6 7B D0 A0 9F BC F1 FB
   124)       101.176 1  Rx        0441 -  8    28 7F 9E 89 F0 8F 7C 69
   125)       101.304 1  Rx    1AFB1C04 -  8    2F 9A 26 67 7A A2 C3 05
   126)       101.474 1  Rx    1AFB1C00 -  8    B6 4E 0F E2 19 FE BF 94
   127)       101.602 1  Rx        0419 -  8    48 96 C8 6A C2 50 59 64
   128)       111.842 1  Rx        0332 -  8    67 22 B7 66 53 81 FA 4F
   129)       112.440 1  Rx        011A -  5    15 9E A3 E9 EC
   130)       113.165 1  Rx        0331 -  8    8F 5F 04 8C C9 63 C3 A8
   131)       113.848 1  Rx        011B -  7    1A 3C F1 5B 1F F1 8F
   132)       114.402 1  Rx        006E -  7    59 51 38 FB FF DE B6
   133)       115.085 1  Rx        0106 -  7    FF 49 98 CB C4 74 7D
   134)       115.469 1  Rx        0132 -  7    A2 77 A8 8A 60 01 94
   135)       115.896 1  Rx        0308 -  8    E5 F4 28 07 96 2C 0F 25
   136)       116.322 1  Rx        0206 -  7    BF 1B A7 A4 B4 8F 7C
   137)       116.792 1  Rx        0212 -  7    B7 EA 6F 96 A0 5F 6E
   138)       117.218 1  Rx        0222 -  8    6F 94 54 89 7D 11 EE C4
   139)       117.559 1  Rx        0459 -  8    1D BC BE 26 2B 08 D3 ED
   140)       117.943 1  Rx        0451 -  8    CC 8B A1 A0 EA 47 F1 6A
   141)       118.242 1  Rx        0441 -  8    28 D4 4E E2 F0 50 7C 47
   142)       118.583 1  Rx    1AFB1C04 -  8    94 15 9B AF 7A A2 C3 05
   143)       118.967 1  Rx    1AFB1C00 -  8    12 37 4C E2 37 FE BF 94
   144)       119.223 1  Rx        0419 -  8    6D 96 C8 1E C2 EA 59 D0
   145)       130.231 1  Rx        0332 -  8    43 22 61 24 53 44 19 4F
   146)       130.615 1  Rx        011A -  5    FF 9E A3 89 EC
   147)       131.085 1  Rx        0331 -  8    8F A3 9F 8C C9 63 C4 99
   148)       131.469 1  Rx        011B -  7    1A 8D 7C 5B 1F F1 8F
   149)       131.895 1  Rx        006E -  7    31 51 AF 18 FF A9 05
   150)       132.194 1  Rx        0106 -  7    FF AF B0 1C C4 03 7D
   151)       132.450 1  Rx        0132 -  7    A2 77 5E 8A 60 D2 94
   152)       132.834 1  Rx        0308 -  8    E5 F4 72 07 E7 2C DE 25
   153)       133.175 1  Rx        0206 -  7    BF 1B A7 78 3F 8F 7C
   154)       133.602 1  Rx        0212 -  7    B7 EA 6F 2F A0 DF 6E
   155)       133.943 1  Rx        0222 -  8    6F 94 5E B7 7D B5 28 C4
   156)       134.327 1  Rx        0459 -  8    24 BC BE 26 EE 08 A7 4A
   157)       134.754 1  Rx        0451 -  8    F8 8F A1 73 EA 47 34 5D
   158)       135.138 1  Rx        0441 -  8    28 F2 2C E2 F0 EA F7 47
   159)       135.565 1  Rx    1AFB1C04 -  8    94 15 C3 F4 0A 1C 58 05
   160)       135.863 1  Rx    1AFB1C00 -  8    3E 37 CF F6 37 8C 76 94
   161)       136.162 1  Rx        0419 -  8    6D 96 74 40 C2 85 59 21
   162)       147.767 1  Rx        0332 -  8    46 FF 61 9F 53 44 19 71
   163)       148.279 1  Rx        011A -  5    C0 9E A3 89 5F
   164)       148.876 1  Rx        0331 -  8    64 A3 D1 F7 C9 88 4E 63
   165)       149.346 1  Rx        011B -  7    EE AD 7C 53 1F 11 8F
   166)       149.772 1  Rx        006E -  7    31 AB 43 18 CA C9 80
   167)       150.114 1  Rx        0106 -  7    FF 07 B0 1C 94 F1 71
   168)       150.412 1  Rx        0132 -  7    CE F9 5E 6B 51 D2 4E
   169)       150.711 1  Rx        0308 -  8    E5 F4 DD 07 E7 6B DE 25
   170)       151.010 1  Rx        0206 -  7    C2 1B 7F 7D 21 A1 7C
   171)       151.394 1  Rx        0212 -  7    B7 EA AD 80 A0 DF 6E
   172)       151.778 1  Rx        0222 -  8    6F 94 7E DD 7D B5 7B E0
   173)       152.034 1  Rx        0459 -  8    6A BC 61 AB EE C2 FC FC
   174)       152.332 1  Rx        0451 -  8    C9 8F 16 73 43 8D 0B 0B
   175)       152.674 1  Rx        0441 -  8    53 F2 1E E2 7D 16 F7 82
   176)       153.058 1  Rx    1AFB1C04 -  8    94 15 C3 0D 0A 7C 58 09
   177)       153.314 1  Rx    1AFB1C00 -  8    3E 37 AC D8 37 8C 3B 94
   178)       153.570 1  Rx        0419 -  8    E4 96 37 40 C2 66 59 A6
   179)       164.364 1  Rx        0332 -  8    46 DB E7 B4 53 AE 19 84
   180)       165.047 1  Rx        011A -  5    95 9E 67 89 5F
   181)       165.687 1  Rx        0331 -  8    91 A3 D1 D3 C9 15 53 AF
   182)       166.284 1  Rx        011B -  7    99 1F 7C 85 98 66 8F
   183)       166.711 1  Rx        006E -  7    31 AB 43 03 C9 46 80
   184)       167.137 1  Rx        0106 -  7    B6 66 B0 BA 94 10 65
   185)       167.521 1  Rx        0132 -  7    CE D4 35 0B A2 D2 98
   186)       167.991 1  Rx        0308 -  8    8F 2E 76 07 E7 27 DE 25
   187)       168.247 1  Rx        0206 -  7    C2 CE EA 48 21 A1 7C
   188)       168.631 1  Rx        0212 -  7    4A 75 1F 80 A0 DF 00
   189)       169.100 1  Rx        0222 -  8    6F B4 EC A2 46 B5 8A 59
   190)       169.399 1  Rx        0459 -  8    6A 15 61 AB EE 1C FC 52
   191)       169.697 1  Rx        0451 -  8    C9 DA 16 73 F1 3E 0B 24
   192)       169.996 1  Rx        0441 -  8    08 B2 9E A5 7D B4 EC 82
   193)       170.337 1  Rx    1AFB1C04 -  8    94 DA C3 0D F4 7C ED FD
   194)       170.679 1  Rx    1AFB1C00 -  8    3E 92 AC D8 53 D2 3B 94
   195)       171.148 1  Rx        0419 -  8    1B 96 37 80 19 B0 E5 2D
   196)       171.617 1  Rx        033B -  8    C5 74 E3 D1 7F 54 CA 0A
   197)       172.087 1  Rx        0339 -  8    8F AF 9B 99 93 F3 E0 A7
   198)       173.025 1  Rx        0337 -  7    A1 2A 66 E5 BD 16 33
   199)       173.495 1  Rx        001F -  5    7B 2A 79 37 3F
   200)       174.007 1  Rx        0333 -  4    A0 BB 9D 45
   201)       174.604 1  Rx        0335 -  8    B4 7C 45 48 02 C5 A3 03
   202)       175.073 1  Rx        0121 -  4    6B 3C 79 8E
   203)       175.543 1  Rx        067F -  8    E0 35 E5 9E 95 46 5A 1C
   204)       176.055 1  Rx        0681 -  8    C9 CB BF 2D 88 93 1A E3
   205)       176.481 1  Rx        0309 -  8    77 44 B1 BD 35 F2 6E 3E
   206)       176.951 1  Rx        030A -  8    E1 02 80 45 49 80 A9 D1
   207)       177.335 1  Rx        0622 -  6    84 C5 56 4F 3E 5B
   208)       177.804 1  Rx        0413 -  6    B2 C7 C0 6A 29 98
   209)       178.188 1  Rx        0402 -  3    04 65 1E
   210)       178.615 1  Rx        0739 -  8    0C 77 EE 19 91 EC 94 B8
   211)       179.127 1  Rx        0411 -  8    F7 D6 86 84 4B CE 9D B7
   212)       179.468 1  Rx        0729 -  8    90 CC EC 3C 1E FC D3 07
   213)       179.809 1  Rx        0728 -  8    24 E8 5B 61 00 A0 DE 0A
   214)       180.108 1  Rx        0709 -  8    18 5F D5 BB C8 80 4F B4
   215)       180.364 1  Rx        0711 -  8    EA 26 3E 06 2B BD 8D B7
   216)       181.516 1  Rx        0332 -  8    ED DB DA B4 53 99 19 91
   217)       181.814 1  Rx        011A -  5    95 F0 01 89 C0
   218)       182.113 1  Rx        0331 -  8    96 BD D1 D3 C9 DB 53 AF
   219)       182.369 1  Rx        011B -  7    99 B4 73 45 46 C1 8F
   220)       182.668 1  Rx        006E -  7    31 70 72 03 B4 6F 00
   221)       182.924 1  Rx        0106 -  7    B6 66 D8 BA 22 10 54
   222)       183.222 1  Rx        0132 -  7    1A D4 E8 0B A2 0C 98
   223)       183.521 1  Rx        0308 -  8    8F 2E CA 07 18 44 DE 00
   224)       183.862 1  Rx        0206 -  7    EA 66 9A 48 F9 F2 ED
   225)       184.161 1  Rx        0212 -  7    4A 75 1F 80 F0 DF 8B
   226)       184.502 1  Rx        0222 -  8    6F B4 39 77 F8 B5 54 EB
   227)       184.886 1  Rx        0459 -  8    3E 15 61 E2 EE 1C 2A 52
   228)       185.270 1  Rx        0451 -  8    03 DA D9 01 F1 3E 33 24
   229)       185.782 1  Rx        0441 -  8    08 B2 9E 36 EF B4 39 82
   230)       186.209 1  Rx    1AFB1C04 -  8    F0 0E C3 DC F4 64 F1 92
   231)       186.550 1  Rx    1AFB1C00 -  8    3E 06 AC 7A 53 3F 88 94
   232)       186.764 1  Rx        0419 -  8    1B 96 D7 80 19 B0 E5 57
   233)       197.558 1  Rx        0332 -  8    ED 9D 2F 45 97 91 B0 91
   234)       198.113 1  Rx        011A -  5    95 EC 01 89 ED
   235)       198.753 1  Rx        0331 -  8    C7 BD D1 22 C9 29 53 B1
   236)       199.222 1  Rx        011B -  7    93 0F 73 45 46 BD 25
   237)       199.692 1  Rx        006E -  7    DF 5B 72 03 B4 DD 00
   238)       200.076 1  Rx        0106 -  7    B6 66 D8 DF 22 40 5E
   239)       200.460 1  Rx        0132 -  7    1A D4 E8 0B A2 D9 A3
   240)       200.972 1  Rx        0308 -  8    8F FB CA 1E 18 F6 DE 00
   241)       201.313 1  Rx        0206 -  7    83 C2 CD 48 F9 7E 21
   242)       201.612 1  Rx        0212 -  7    33 75 E9 72 4D DF 8B
   243)       201.996 1  Rx        0222 -  8    33 08 39 77 2E 15 33 C4
   244)       202.337 1  Rx        0459 -  8    F4 B3 61 E2 E1 36 2A 25
   245)       202.721 1  Rx        0451 -  8    5E 69 D9 5A 05 8A 85 C2
   246)       203.062 1  Rx        0441 -  8    37 67 45 23 6B D6 39 C6
   247)       203.361 1  Rx    1AFB1C04 -  8    F0 40 C3 08 5A 64 43 92
   248)       203.702 1  Rx    1AFB1C00 -  8    A8 D0 6B 45 53 31 78 6E
   249)       203.958 1  Rx        0419 -  8    99 96 D7 3C DA B0 E5 87
   250)       215.222 1  Rx        0332 -  8    ED 9D 2F 00 6D 91 B0 49
   251)       215.947 1  Rx        011A -  5    9A EC 01 5A 4C
   252)       216.843 1  Rx        0331 -  8    9D BD D1 22 C9 65 53 B1
   253)       217.227 1  Rx        011B -  7    C7 0F 73 6D BD 89 25
   254)       217.697 1  Rx        006E -  7    94 5B 72 0E 71 65 0C
   255)       218.209 1  Rx        0106 -  7    B6 66 66 DF 22 40 F6
   256)       218.806 1  Rx        0132 -  7    1A D4 DE AF A2 8D 06
   257)       219.275 1  Rx        0308 -  8    8F 75 CA F5 18 F6 B2 00
   258)       219.787 1  Rx        0206 -  7    16 7C CD 48 73 7E 21
   259)       220.257 1  Rx        0212 -  7    33 D1 21 E7 C0 DF A2
   260)       220.811 1  Rx        0222 -  8    2B 08 39 77 42 15 33 6A
   261)       221.366 1  Rx        0459 -  8    F4 7F 91 BE 63 36 2A 83
   262)       221.750 1  Rx        0451 -  8    0D 46 44 5A C8 65 85 EE
   263)       222.347 1  Rx        0441 -  8    37 67 34 EB 6B D6 E5 AE
   264)       223.115 1  Rx    1AFB1C04 -  8    58 40 E7 08 96 9F 43 92
   265)       223.755 1  Rx    1AFB1C00 -  8    A8 EF DA CC EC 31 95 6E
   266)       224.096 1  Rx        0419 -  8    68 81 D7 83 DA F6 51 87
   267)       235.659 1  Rx        0332 -  8    52 9D 62 98 6D 3E B0 49
   268)       236.214 1  Rx        011A -  5    9A B7 01 29 4C
   269)       236.768 1  Rx        0331 -  8    9D BD D1 22 C9 65 53 B1
   270)       237.195 1  Rx        011B -  7    C7 B3 73 0B BD 89 25
   271)       237.792 1  Rx        006E -  7    54 5B 72 DC 2E 7D B4
   272)       238.219 1  Rx        0106 -  7    E7 88 66 AE 22 40 A9
   273)       238.774 1  Rx        0132 -  7    1A 7C DE AC 6B 8D 06
   274)       239.243 1  Rx        0308 -  8    8F 6A 8F F5 18 F6 B2 88
   275)       239.840 1  Rx        0206 -  7    60 7C CD B2 73 AE 21
   276)       240.438 1  Rx        0212 -  7    33 23 21 E7 E1 A2 A2
   277)       241.163 1  Rx        0222 -  8    2B 3B 64 C3 08 AF 24 21
   278)       241.803 1  Rx        0459 -  8    0A 7F 04 B4 63 36 8F 95
   279)       242.230 1  Rx        0451 -  8    0E 0E 44 5A C8 42 85 EE
   280)       242.528 1  Rx        0441 -  8    37 A1 B0 EB 6B D6 39 AE
   281)       242.870 1  Rx    1AFB1C04 -  8    9A 40 E7 08 6D 3B 75 20
   282)       243.339 1  Rx    1AFB1C00 -  8    A8 EF DA EB 6C BA 02 DA
   283)       243.680 1  Rx        0419 -  8    68 66 D7 71 DA F6 51 B5
   284)       255.029 1  Rx        0332 -  8    52 9D 3B A8 6D 3E B0 49
   285)       255.541 1  Rx        011A -  5    9A 39 01 29 4C
   286)       256.181 1  Rx        0331 -  8    AA BD 78 6D C9 65 06 BF
   287)       256.992 1  Rx        011B -  7    C7 B3 07 0B E4 F5 C7
   288)       257.547 1  Rx        006E -  7    71 6D 72 DC 2E C2 BE
   289)       258.315 1  Rx        0106 -  7    74 EB 66 29 14 40 A9
   290)       258.955 1  Rx        0132 -  7    1A A1 75 AC 6B 8D 06
   291)       259.552 1  Rx        0308 -  8    8F 66 8F F5 C9 3B B2 88
   292)       260.107 1  Rx        0206 -  7    60 7C 72 B2 73 6C 21
   293)       260.619 1  Rx        0212 -  7    A6 23 C9 FC 7C A2 A2
   294)       261.003 1  Rx        0222 -  8    33 3B 64 C3 08 AF 24 5A
   295)       261.557 1  Rx        0459 -  8    91 56 04 F2 95 B8 7D D6
   296)       261.984 1  Rx        0451 -  8    0E 87 44 9C C8 42 85 EE
   297)       262.453 1  Rx        0441 -  8    C1 C2 A3 82 6B 48 4B AE
   298)       262.880 1  Rx    1AFB1C04 -  8    ED 94 69 08 6D 3B 30 20
   299)       263.307 1  Rx    1AFB1C00 -  8    A8 EF 69 5F 6C BA 02 36
   300)       263.776 1  Rx        0419 -  8    8F 66 52 91 DA FA 51 75
   301)       275.125 1  Rx        0332 -  8    73 28 38 63 F8 71 1E 2C
   302)       275.253 1  Rx        011A -  5    79 FD 38 BB 9D
   303)       275.424 1  Rx        0331 -  8    84 11 CF 3E AC A6 D1 78
   304)       275.552 1  Rx        011B -  7    45 8A 5D 04 D7 C9 E0
   305)       275.680 1  Rx        006E -  7    66 00 0B E8 1A 45 A0
   306)       275.808 1  Rx        0106 -  7    63 FF 6D BE 23 78 35
   307)       275.936 1  Rx        0132 -  7    13 C2 B7 01 E0 8F 7E
   308)       276.064 1  Rx        0308 -  8    E3 E2 A3 F6 78 F5 5E 7B
   309)       276.192 1  Rx        0206 -  7    82 1D CA CC 62 2D 6B
   310)       276.320 1  Rx        0212 -  7    25 A9 DB B5 5B 9D D3
   311)       276.448 1  Rx        0222 -  8    30 B7 84 E6 6D 0B 9A E9
   312)       276.576 1  Rx        0459 -  8    BC 74 28 9A 5F E9 26 57
   313)       276.704 1  Rx        0451 -  8    C8 0A 6D 61 7C 74 A2 6F
   314)       276.832 1  Rx        0441 -  8    26 56 C8 4B ED 3B B5 F1
   315)       277.002 1  Rx    1AFB1C04 -  8    07 7A B5 C3 C7 F8 BC 8C
   316)       277.130 1  Rx    1AFB1C00 -  8    BD 6A F8 F2 4D 6C B2 09
   317)       277.258 1  Rx        0419 -  8    36 1E F3 61 E1 AF A0 BC
   318)       281.482 1  Rx        033B -  8    C5 40 E3 D1 7F 54 CA 77
   319)       281.909 1  Rx        0339 -  8    09 AF 9B 99 9D F3 55 A7
   320)       282.336 1  Rx        0337 -  7    BF 80 2D 92 BD 16 33
   321)       282.762 1  Rx        001F -  5    7B 2A 41 E0 E3
   322)       283.189 1  Rx        0333 -  4    EC 3D 9D 45
   323)       283.701 1  Rx        0335 -  8    B6 CB 71 55 02 11 21 3F
   324)       284.042 1  Rx        0121 -  4    FF 82 97 8E
   325)       284.512 1  Rx        067F -  8    C2 28 69 9E 95 46 62 1C
   326)       284.938 1  Rx        0681 -  8    C9 06 10 05 24 93 1A E0
   327)       285.365 1  Rx        0309 -  8    53 44 AD 89 35 F2 A5 39
   328)       285.834 1  Rx        030A -  8    4F 02 E2 8B 82 A8 99 FA
   329)       286.261 1  Rx        0622 -  6    16 54 56 4F 86 06
   330)       286.645 1  Rx        0413 -  6    B2 C7 C0 6A DA 98
   331)       286.986 1  Rx        0402 -  3    04 65 4B
   332)       287.882 1  Rx        0739 -  8    AA C2 A6 19 91 EC 94 9C
   333)       288.181 1  Rx        0332 -  8    4D FE 38 63 74 CA 42 2C
   334)       288.607 1  Rx        0411 -  8    DF D2 86 84 C0 B0 6A F3
   335)       289.119 1  Rx        011A -  5    79 15 38 BB 9D
   336)       289.759 1  Rx        0729 -  8    0B CC EC 09 E4 C2 D3 07
   337)       290.271 1  Rx        0331 -  8    84 BB CF 19 41 86 D1 78
   338)       290.442 1  Rx        0728 -  8    24 CE C0 28 00 A0 83 0A
   339)       290.911 1  Rx        011B -  7    9D 8A 5D 04 71 C9 E0
   340)       291.082 1  Rx        0709 -  8    18 13 20 BB C8 80 E3 B4
   341)       291.466 1  Rx        006E -  7    66 00 81 B9 1A 45 30
   342)       291.722 1  Rx        0711 -  8    EA E5 3E 06 F6 BD 59 B7
   343)       291.978 1  Rx        0106 -  7    63 FF 6D 05 A9 CE 35
   344)       292.319 1  Rx        0132 -  7    13 C2 9E 01 E0 F6 FA
   345)       292.703 1  Rx        0308 -  8    35 E2 5E F6 7C F5 5E 7B
   346)       293.173 1  Rx        0206 -  7    82 BB B0 84 92 3F 6B
   347)       293.557 1  Rx        0212 -  7    73 9E DB B5 C3 C3 52
   348)       293.983 1  Rx        0222 -  8    30 9F 84 32 6D 0B 9A E9
   349)       294.410 1  Rx        0459 -  8    7C 0D 0E 9A 26 E9 26 57
   350)       294.837 1  Rx        0451 -  8    C8 78 6D 8C E3 74 C5 6F
   351)       295.221 1  Rx        0441 -  8    26 5F 15 B8 ED 3B B5 26
   352)       295.733 1  Rx    1AFB1C04 -  8    E7 7A A3 16 C7 F8 BC 8C
   353)       296.159 1  Rx    1AFB1C00 -  8    BD 94 F8 F2 15 EE B2 A6
   354)       296.629 1  Rx        0419 -  8    36 8B 5B 37 E1 98 4B BC
   355)       307.637 1  Rx        0332 -  8    83 FE 38 63 11 C6 42 73
   356)       308.277 1  Rx        011A -  5    67 6B C5 07 D5
   357)       308.874 1  Rx        0331 -  8    84 67 CF 19 67 86 7E 78
   358)       309.300 1  Rx        011B -  7    9D 80 7E 04 71 C9 5C
   359)       309.812 1  Rx        006E -  7    5E A2 81 A8 1A 43 A6
   360)       310.282 1  Rx        0106 -  7    63 D6 06 05 A9 CE 35
   361)       310.751 1  Rx        0132 -  7    1D C2 83 AC E0 F6 7B
   362)       311.220 1  Rx        0308 -  8    8D E2 5E F6 7C F5 5E 4B
   363)       311.562 1  Rx        0206 -  7    2D 64 B0 84 92 3F 45
   364)       311.903 1  Rx        0212 -  7    DC 19 E6 B5 C3 C3 22
   365)       312.244 1  Rx        0222 -  8    30 9F 79 32 6D F6 9A 6F
   366)       312.543 1  Rx        0459 -  8    F7 DD 24 9A 3D 75 26 57
   367)       312.884 1  Rx        0451 -  8    C6 CF 6D 1E 5F 23 44 1B
   368)       313.183 1  Rx        0441 -  8    26 5F 15 06 ED 31 B5 7E
   369)       313.524 1  Rx    1AFB1C04 -  8    E7 C8 47 D9 C7 F8 BC 6E
   370)       313.823 1  Rx    1AFB1C00 -  8    0A 94 29 05 15 EE B2 C3
   371)       314.122 1  Rx        0419 -  8    36 DD 5B CE E1 98 4B BC
   372)       325.386 1  Rx        0332 -  8    83 B4 52 24 11 D0 42 01
   373)       325.898 1  Rx        011A -  5    67 6E 3E 07 D5
   374)       326.580 1  Rx        0331 -  8    84 67 8E D2 67 86 6B 78
   375)       327.092 1  Rx        011B -  7    9D F0 7E 5C 12 6A 5C
   376)       327.519 1  Rx        006E -  7    0F A2 31 A8 F8 43 A5
   377)       327.946 1  Rx        0106 -  7    80 D6 06 05 99 5B 26
   378)       328.330 1  Rx        0132 -  7    AA C2 19 AC 64 F6 7B
   379)       328.671 1  Rx        0308 -  8    47 3C 6C F6 57 9B 5E 4B
   380)       328.970 1  Rx        0206 -  7    7B BC 35 26 92 3F 45
   381)       329.226 1  Rx        0212 -  7    DC 19 E6 8E C3 C3 22
   382)       329.610 1  Rx        0222 -  8    F7 80 E7 32 6D B8 9A 72
   383)       330.079 1  Rx        0459 -  8    F7 F8 24 9A 3D E2 83 57
   384)       330.505 1  Rx        0451 -  8    C6 FE F0 1E 5F A7 44 08
   385)       330.932 1  Rx        0441 -  8    4F 5F 51 64 E6 31 B5 7E
   386)       331.273 1  Rx    1AFB1C04 -  8    5A 79 47 83 09 F8 31 E7
   387)       331.572 1  Rx    1AFB1C00 -  8    0A 94 08 05 15 EE B2 F5
   388)       331.828 1  Rx        0419 -  8    FE DD 66 38 43 98 76 BC
   389)       343.220 1  Rx        0332 -  8    83 B4 EC 10 11 0F 79 6E
   390)       343.945 1  Rx        011A -  5    67 6E AF 57 D5
   391)       344.585 1  Rx        0331 -  8    84 67 2F A3 8B 20 A4 E1
   392)       345.012 1  Rx        011B -  7    9F DF 7E 5C 9B 86 5C
   393)       345.396 1  Rx        006E -  7    0F A2 31 DE FC 43 77
   394)       345.780 1  Rx        0106 -  7    80 D6 58 05 99 5B 26
   395)       346.121 1  Rx        0132 -  7    AA C2 C9 AC 86 F6 7B
   396)       346.505 1  Rx        0308 -  8    A9 1C 6C F6 22 9B A5 4B
   397)       346.889 1  Rx        0206 -  7    20 13 20 26 68 7A 7F
   398)       347.316 1  Rx        0212 -  7    DC FE 44 8E F5 C3 24
   399)       347.743 1  Rx        0222 -  8    F7 80 D8 32 6D 34 9A 82
   400)       348.212 1  Rx        0459 -  8    F7 2F 24 9A 3D 35 83 34
   401)       348.724 1  Rx        0451 -  8    C6 0C F0 75 15 4A C5 E2
   402)       349.108 1  Rx        0441 -  8    4F D9 51 42 05 31 B5 7E
   403)       349.535 1  Rx    1AFB1C04 -  8    5A 79 47 5C CB 33 31 E7
   404)       349.961 1  Rx    1AFB1C00 -  8    9C 18 35 58 15 FF 2B 45
   405)       350.260 1  Rx        0419 -  8    03 DD AD AB 43 F9 81 E1
   406)       361.609 1  Rx        0332 -  8    83 B4 FE 98 20 0F 79 47
   407)       361.950 1  Rx        011A -  5    67 6D AF 57 D5
   408)       362.420 1  Rx        0331 -  8    84 6C 2F A3 14 BE A4 E1
   409)       362.804 1  Rx        011B -  7    E5 DF 7E 85 9B 86 94
   410)       363.102 1  Rx        006E -  7    0F 4F 1D DE FC C3 9C
   411)       363.444 1  Rx        0106 -  7    2C 4A 8D 91 C3 5B DA
   412)       363.742 1  Rx        0132 -  7    B3 C2 3E AC 86 84 03
   413)       364.084 1  Rx        0308 -  8    2D E0 6C 27 7B 9B 33 4B
   414)       364.382 1  Rx        0206 -  7    20 38 6A 7A 6F 52 7F
   415)       364.681 1  Rx        0212 -  7    DC 6B 38 8E F5 C3 57
   416)       365.108 1  Rx        0222 -  8    C9 80 D8 6F B8 9F 9A 96
   417)       365.449 1  Rx        0459 -  8    A0 E6 24 22 3E 35 D0 34
   418)       365.833 1  Rx        0451 -  8    83 0C E8 75 15 FB C5 A9
   419)       366.260 1  Rx        0441 -  8    FC D9 51 42 E5 3B 7A E5
   420)       366.601 1  Rx    1AFB1C04 -  8    5A 79 47 5C CB F6 85 E7
   421)       366.985 1  Rx    1AFB1C00 -  8    9C 18 F4 C3 47 FF A8 43
   422)       367.284 1  Rx        0419 -  8    3F DD AD AB 43 F9 A5 7E
   423)       378.206 1  Rx        0332 -  8    5B B4 ED 83 31 0F 45 B8
   424)       378.803 1  Rx        011A -  5    82 6D AF B5 D5
   425)       379.273 1  Rx        0331 -  8    E0 6C 2F 4C 14 BE 25 67
   426)       379.742 1  Rx        011B -  7    5B DF 11 85 6E 86 72
   427)       380.169 1  Rx        006E -  7    A7 EB 8F AD F3 23 9C
   428)       380.553 1  Rx        0106 -  7    04 B9 01 91 94 5B DA
   429)       380.937 1  Rx        0132 -  7    B3 C2 8F AC EA D2 F5
   430)       381.278 1  Rx        0308 -  8    82 61 6C B1 7B 9B 33 4B
   431)       381.619 1  Rx        0206 -  7    20 06 76 3D 21 52 7F
   432)       381.875 1  Rx        0212 -  7    C8 AD 38 8E F5 E0 5D
   433)       382.217 1  Rx        0222 -  8    B3 80 F1 6F B8 69 9A ED
   434)       382.601 1  Rx        0459 -  8    16 8E 24 22 3E 35 D0 34
   435)       383.070 1  Rx        0451 -  8    83 16 E8 75 05 A2 C5 A9
   436)       383.369 1  Rx        0441 -  8    9E D9 CE 42 E5 3B 7A E5
   437)       383.838 1  Rx    1AFB1C04 -  8    5A B6 3F 5C CB 44 85 F0
   438)       384.265 1  Rx    1AFB1C00 -  8    8D 18 6F C3 47 9F A8 C1
   439)       384.606 1  Rx        0419 -  8    37 3F D3 C4 43 F9 6F 4F
   440)       392.755 1  Rx        033B -  8    C5 50 E3 D1 7F 51 96 3F
   441)       393.139 1  Rx        0339 -  8    09 F5 9B 99 AE EE 15 AA
   442)       393.566 1  Rx        0337 -  7    EF E3 5A 92 2E 16 C4
   443)       393.822 1  Rx        001F -  5    7B AD DE E0 E3
   444)       394.078 1  Rx        0333 -  4    68 3D 2C 16
   445)       394.462 1  Rx        0335 -  8    B6 CB 71 55 02 6E 21 CA
   446)       394.632 1  Rx        0121 -  4    7B 82 97 26
   447)       394.974 1  Rx        067F -  8    C2 28 B0 45 95 46 B8 8C
   448)       395.528 1  Rx        0681 -  8    D3 ED 05 05 2C 93 1A AF
   449)       395.656 1  Rx        0332 -  8    5B B4 ED 83 31 A0 45 B8
   450)       395.955 1  Rx        0309 -  8    EB 47 AD B7 35 8C FF 39
   451)       396.083 1  Rx        011A -  5    81 6D AF B5 E1
   452)       396.467 1  Rx        030A -  8    06 02 24 54 3A F4 99 B7
   453)       396.595 1  Rx        0331 -  8    97 84 D1 32 14 BE 25 67
   454)       396.851 1  Rx        0622 -  6    16 F1 A3 4F 86 06
   455)       397.064 1  Rx        011B -  7    47 B0 41 27 6E 74 93
   456)       397.235 1  Rx        0413 -  6    B2 C7 C0 6A DA 98
   457)       397.619 1  Rx        006E -  7    A7 EB 8F AD 83 23 DC
   458)       397.704 1  Rx        0402 -  3    23 B8 4B
   459)       398.216 1  Rx        0106 -  7    04 7D 01 91 7A 00 DA
   460)       398.344 1  Rx        0739 -  8    AA 80 4F 71 30 EC B8 9C
   461)       398.728 1  Rx        0132 -  7    B3 C2 8F BA F5 D2 F5
   462)       398.899 1  Rx        0411 -  8    DF D2 3D 84 C0 1C 6A F3
   463)       399.240 1  Rx        0308 -  8    82 61 81 86 2F 9B 33 C6
   464)       399.368 1  Rx        0729 -  8    DD B2 37 09 E4 B2 B4 07
   465)       399.838 1  Rx        0206 -  7    20 91 C2 22 21 52 7F
   466)       400.008 1  Rx        0728 -  8    24 CE C0 28 00 A0 83 32
   467)       400.350 1  Rx        0212 -  7    78 4B D4 8E F5 E0 5D
   468)       400.520 1  Rx        0709 -  8    6F 73 B2 C0 C8 80 E3 B4
   469)       400.862 1  Rx        0222 -  8    3D 22 F1 A1 5A 1B 99 ED
   470)       400.990 1  Rx        0711 -  8    EA E5 3E 06 C6 B0 15 B7
   471)       401.288 1  Rx        0459 -  8    46 8E B1 A9 5C 35 D0 F0
   472)       401.672 1  Rx        0451 -  8    83 16 E8 75 A2 A2 C5 A4
   473)       402.056 1  Rx        0441 -  8    6D 95 CE 43 B0 AE 1B E5
   474)       402.398 1  Rx    1AFB1C04 -  8    5A B6 3F 7B CB 44 6E EE
   475)       402.739 1  Rx    1AFB1C00 -  8    8D 18 6F C3 C0 9F A8 C1
   476)       403.123 1  Rx        0419 -  8    E1 3F 89 C4 43 F9 08 29
   477)       414.600 1  Rx        0332 -  8    5B B4 6A 8E D2 A0 98 9F
   478)       414.984 1  Rx        011A -  5    28 6D 3A 67 E1
   479)       415.496 1  Rx        0331 -  8    97 84 78 F1 F0 EA 25 CE
   480)       415.837 1  Rx        011B -  7    F9 B0 41 27 D3 74 93
   481)       416.307 1  Rx        006E -  7    78 EB A7 51 D2 1F DC
   482)       416.563 1  Rx        0106 -  7    04 7D 01 91 4C 00 DA
   483)       416.861 1  Rx        0132 -  7    B3 4F E3 9C F5 EF F5
   484)       417.160 1  Rx        0308 -  8    95 61 02 09 2F 9B 33 66
   485)       417.459 1  Rx        0206 -  7    20 91 C2 22 21 52 55
   486)       417.757 1  Rx        0212 -  7    78 1F D4 19 DA C8 5D
   487)       418.056 1  Rx        0222 -  8    92 C5 F1 54 88 1B 86 1A
   488)       418.397 1  Rx        0459 -  8    58 8E 0C A9 5C 35 E8 F0
   489)       418.739 1  Rx        0451 -  8    83 59 AF 7F 01 A2 73 B1
   490)       419.080 1  Rx        0441 -  8    6D 87 CE 43 B0 AE 6D A1
   491)       419.464 1  Rx    1AFB1C04 -  8    8E B6 75 60 CB 31 C7 74
   492)       419.763 1  Rx    1AFB1C00 -  8    8D 3E 6F C3 C0 6C E0 EA
   493)       420.104 1  Rx        0419 -  8    32 27 6D C4 43 F9 08 AC
   494)       431.027 1  Rx        0332 -  8    5B 25 17 D9 D2 51 98 9F
   495)       431.411 1  Rx        011A -  5    28 34 3A 65 81
   496)       431.965 1  Rx        0331 -  8    97 44 EA BC 4F EA 25 CE
   497)       432.435 1  Rx        011B -  7    5A 2A 22 F4 B8 74 50
   498)       432.861 1  Rx        006E -  7    D4 EB A7 8E D2 B3 DC
   499)       433.117 1  Rx        0106 -  7    04 7D EC A6 4C 00 2B
   500)       433.459 1  Rx        0132 -  7    B3 4F E3 9C 20 EF F5
   501)       433.757 1  Rx        0308 -  8    95 F0 67 09 2F B0 9F 66
   502)       434.099 1  Rx        0206 -  7    5F 45 7C 22 21 52 5F
   503)       434.397 1  Rx        0212 -  7    78 1F D1 6D 00 C8 C9
   504)       434.781 1  Rx        0222 -  8    75 AC F1 54 88 5C 2E 6E
   505)       435.080 1  Rx        0459 -  8    58 20 0C 16 5C 86 E8 F0
   506)       435.379 1  Rx        0451 -  8    83 57 AF 7F 01 55 73 B1
   507)       435.677 1  Rx        0441 -  8    65 87 26 43 B0 AE 6D A1
   508)       436.061 1  Rx    1AFB1C04 -  8    8E F8 75 24 8C 31 C7 74
   509)       436.445 1  Rx    1AFB1C00 -  8    DE 3E 6F 66 1D 39 FB 1C
   510)       436.744 1  Rx        0419 -  8    32 96 6D EB 8C B7 9D AC
   511)       447.325 1  Rx        0332 -  8    31 80 8D 99 97 F5 21 2B
   512)       447.453 1  Rx        011A -  5    AF B4 A6 C7 2B
   513)       447.581 1  Rx        0331 -  8    2C 72 DF 0C 8D B7 22 70
   514)       447.709 1  Rx        011B -  7    CA 71 E1 A6 82 45 F0
   515)       447.837 1  Rx        006E -  7    57 CB 2E C8 F9 B3 26
   516)       447.922 1  Rx        0106 -  7    B7 E5 9D 42 01 CB EC
   517)       448.050 1  Rx        0132 -  7    2D 26 67 DA C9 4B 3C
   518)       448.178 1  Rx        0308 -  8    E0 BF 4D A5 DF 7D 5C 90
   519)       448.306 1  Rx        0206 -  7    1A A3 8D 67 1F 6A C8
   520)       448.434 1  Rx        0212 -  7    C4 24 6D 26 1B E1 B5
   521)       448.562 1  Rx        0222 -  8    E1 CB 72 5A 02 C9 E8 CD
   522)       448.690 1  Rx        0459 -  8    69 70 70 C1 E8 35 50 E8
   523)       448.818 1  Rx        0451 -  8    58 98 37 EF A9 50 AC 79
   524)       448.989 1  Rx        0441 -  8    35 E4 BC 3D 1F C8 8A 8C
   525)       449.117 1  Rx    1AFB1C04 -  8    CC 0C B6 B4 39 E8 2D E3
   526)       449.288 1  Rx    1AFB1C00 -  8    56 C5 F8 14 3C 95 1D D6
   527)       449.416 1  Rx        0419 -  8    72 CD 52 D4 A9 59 B3 81
   528)       459.485 1  Rx        0332 -  8    7E 80 8D 2C 6E F5 21 2B
   529)       459.954 1  Rx        011A -  5    AF B4 E6 1A 2B
   530)       460.423 1  Rx        0331 -  8    2C 72 24 5E 8D EE 22 55
   531)       460.807 1  Rx        011B -  7    CA EF E1 09 82 6D F0
   532)       461.191 1  Rx        006E -  7    57 CB 51 ED 0B 1B FE
   533)       461.575 1  Rx        0106 -  7    E4 C9 9D 42 83 CB F0
   534)       461.959 1  Rx        0132 -  7    2D 26 67 DA D4 86 77
   535)       462.301 1  Rx        0308 -  8    E0 BF 4D A5 7B 75 5C 90
   536)       462.599 1  Rx        0206 -  7    1A A3 8D 6C 1F 6A A9
   537)       462.941 1  Rx        0212 -  7    C4 D2 4C 64 15 FB 40
   538)       463.239 1  Rx        0222 -  8    E1 CB 72 8D A6 C9 E8 6C
   539)       463.581 1  Rx        0459 -  8    69 70 70 C1 E8 67 50 60
   540)       464.050 1  Rx        0451 -  8    01 98 37 96 A9 50 AC 79
   541)       464.477 1  Rx        0441 -  8    E0 84 BC 6B 1F 35 1B D8
   542)       464.861 1  Rx    1AFB1C04 -  8    B0 87 3C 42 39 E8 CF E3
   543)       465.202 1  Rx    1AFB1C00 -  8    FE B7 C4 8D 99 95 1D D6
   544)       465.501 1  Rx        0419 -  8    2E CD 52 D4 A9 F8 96 81
   545)       477.021 1  Rx        0332 -  8    7E E4 8D 0D 6E 68 27 88
   546)       477.618 1  Rx        011A -  5    C8 EF E6 6E 2B
   547)       478.173 1  Rx        0331 -  8    60 92 74 E5 CE 61 22 47
   548)       478.599 1  Rx        011B -  7    CA 69 8B 09 E6 6D 89
   549)       479.026 1  Rx        006E -  7    01 44 51 ED 0B 6A A4
   550)       479.367 1  Rx        0106 -  7    E4 FF 9D FE 4E CB F0
   551)       479.666 1  Rx        0132 -  7    46 B5 0B DA 0D 86 36
   552)       479.964 1  Rx        0308 -  8    E0 BF 4D 0B 7B 75 5C 6A
   553)       480.263 1  Rx        0206 -  7    1A A3 8D A5 75 6A A9
   554)       480.562 1  Rx        0212 -  7    FA ED 2A DD CF 50 40
   555)       480.903 1  Rx        0222 -  8    57 CB B5 32 A6 4C CB 20
   556)       481.202 1  Rx        0459 -  8    B3 70 66 C1 D2 86 50 45
   557)       481.500 1  Rx        0451 -  8    77 98 9E 96 A9 50 AC E4
   558)       481.884 1  Rx        0441 -  8    E0 DC 87 EC 56 24 86 D8
   559)       482.226 1  Rx    1AFB1C04 -  8    B0 87 3C 92 39 E8 CF E3
   560)       482.567 1  Rx    1AFB1C00 -  8    1F DC 8E 8D 99 95 1D D6
   561)       482.866 1  Rx        0419 -  8    2E 5F 52 D4 C3 F8 96 47
   562)       493.746 1  Rx        0332 -  8    7E 52 8D 0D 6E 0A D9 D3
   563)       494.215 1  Rx        011A -  5    82 EF 5F 1B 2B
   564)       494.898 1  Rx        0331 -  8    62 92 74 99 A3 86 8B 47
   565)       495.324 1  Rx        011B -  7    BC 69 A9 40 2B 6D 89
   566)       495.666 1  Rx        006E -  7    49 44 C2 ED C4 6A C5
   567)       495.964 1  Rx        0106 -  7    E4 FF 9D FE 4E EF F0
   568)       496.306 1  Rx        0132 -  7    46 B5 0B DA 5B 45 7C
   569)       496.604 1  Rx        0308 -  8    E0 BF 4D 0B 7B 75 5C B6
   570)       496.903 1  Rx        0206 -  7    59 AD 8D A5 75 6A A8
   571)       497.159 1  Rx        0212 -  7    FA 26 2A DD CF 50 40
   572)       497.500 1  Rx        0222 -  8    57 03 B5 E4 A6 DC CB 20
   573)       497.756 1  Rx        0459 -  8    B3 70 47 C1 D2 01 D5 45
   574)       498.098 1  Rx        0451 -  8    77 98 AB 96 A9 50 90 E4
   575)       498.396 1  Rx        0441 -  8    BE DC 87 EC 56 24 86 D8
   576)       498.823 1  Rx    1AFB1C04 -  8    CD 2C 02 44 39 4C CF E3
   577)       499.207 1  Rx    1AFB1C00 -  8    58 6E 8E 8D CE 95 E1 BD
   578)       499.506 1  Rx        0419 -  8    10 5F D6 63 D1 B5 59 B9
   579)       502.023 1  Rx        033B -  8    B7 AC 79 E7 C4 B1 4C 62
   580)       502.151 1  Rx        0339 -  8    6E 33 88 14 EC C3 B9 E7
   581)       502.279 1  Rx        0337 -  7    E4 77 C8 DE D6 F1 61
   582)       502.364 1  Rx        001F -  5    84 03 3A 5F C1
   583)       502.492 1  Rx        0333 -  4    4B B1 44 B6
   584)       502.620 1  Rx        0335 -  8    BA 3F 87 D0 72 80 18 EC
   585)       502.705 1  Rx        0121 -  4    B1 CB 76 AA
   586)       502.833 1  Rx        067F -  8    60 9C 54 B1 14 1E 0D 00
   587)       502.961 1  Rx        0681 -  8    89 BF 2A 75 1E A1 2F 50
   588)       503.089 1  Rx        0309 -  8    B2 96 A9 B2 A6 74 85 77
   589)       503.217 1  Rx        030A -  8    6C 6C ED A4 49 1D E2 DD
   590)       503.345 1  Rx        0622 -  6    A8 82 C1 F4 6B EB
   591)       503.473 1  Rx        0413 -  6    20 01 E6 4F 1C F7
   592)       503.559 1  Rx        0402 -  3    C1 79 97
   593)       503.687 1  Rx        0739 -  8    AB 93 74 20 5C 7C 58 5A
   594)       503.815 1  Rx        0411 -  8    DD 21 8D F0 8F 7E AA 07
   595)       503.943 1  Rx        0729 -  8    31 4B 9F 68 8F 86 E6 C2
   596)       504.071 1  Rx        0728 -  8    C1 7C 86 88 C2 05 2B 23
   597)       504.199 1  Rx        0709 -  8    85 DC 26 6A 23 49 86 64
   598)       504.327 1  Rx        0711 -  8    5E 09 6E C5 66 BC 27 1A
   599)       510.343 1  Rx        0332 -  8    76 52 91 0F B2 7A D9 CF
   600)       510.940 1  Rx        011A -  5    80 EF E6 C6 1F
   601)       511.367 1  Rx        0331 -  8    D0 92 74 C5 0B 29 8B 47
   602)       511.879 1  Rx        011B -  7    BC D2 1D 40 2B 6D 89
   603)       512.177 1  Rx        006E -  7    E9 93 C2 50 C4 65 C5
   604)       512.519 1  Rx        0106 -  7    E4 FF B6 FE 4E EF 3C
   605)       512.817 1  Rx        0132 -  7    46 B5 2C CE 5B 45 A0
   606)       513.073 1  Rx        0308 -  8    E0 BF 4D C7 7B 75 5C B6
   607)       513.415 1  Rx        0206 -  7    59 AD 79 B3 75 FE F2
   608)       513.713 1  Rx        0212 -  7    2E 2D 76 A5 6A 50 40
   609)       514.055 1  Rx        0222 -  8    0D 03 67 8F F9 DC 93 32
   610)       514.396 1  Rx        0459 -  8    8A 04 4E 45 D2 A3 D5 45
   611)       514.737 1  Rx        0451 -  8    77 98 6A 96 24 2D 60 E4
   612)       515.036 1  Rx        0441 -  8    DD DC 87 90 EE 24 86 2E
   613)       515.420 1  Rx    1AFB1C04 -  8    55 2C 02 44 39 CA 15 E3
   614)       515.719 1  Rx    1AFB1C00 -  8    58 6E 8E 8D CE 95 A1 62
   615)       516.060 1  Rx        0419 -  8    C0 5F D6 85 BD B5 59 D1
   616)       526.897 1  Rx        0332 -  8    81 52 91 3A 2E D6 CE CF
   617)       527.494 1  Rx        011A -  5    91 EA D1 67 1F
   618)       527.921 1  Rx        0331 -  8    E6 E3 96 C5 0B D2 96 47
   619)       528.220 1  Rx        011B -  7    BC 1F 26 40 2B 28 89
   620)       528.561 1  Rx        006E -  7    E9 93 05 D2 C4 9F C5
   621)       528.945 1  Rx        0106 -  7    3E F9 99 FE 4E FA 08
   622)       529.286 1  Rx        0132 -  7    96 53 61 CE 8B 45 A0
   623)       529.585 1  Rx        0308 -  8    86 62 4D C7 1D F2 5C B6
   624)       529.926 1  Rx        0206 -  7    A4 C8 79 B3 75 C9 BB
   625)       530.268 1  Rx        0212 -  7    D7 7F 76 0F 6A BD 40
   626)       530.524 1  Rx        0222 -  8    E5 C8 67 8F EF DC AC 32
   627)       530.865 1  Rx        0459 -  8    AB 04 4E 45 88 49 D5 45
   628)       531.164 1  Rx        0451 -  8    77 BE 6A 9E 3A 2D 90 BA
   629)       531.462 1  Rx        0441 -  8    DD DC 87 90 EE 4C 03 DD
   630)       531.846 1  Rx    1AFB1C04 -  8    A6 2C 76 44 EF CA B4 21
   631)       532.230 1  Rx    1AFB1C00 -  8    EF 6E 0E 8D CE 95 AC 62
   632)       532.529 1  Rx        0419 -  8    CA CB C0 85 BD B5 3C 8D
   633)       543.750 1  Rx        0332 -  8    FB 52 91 3A 2E 70 45 D6
   634)       544.219 1  Rx        011A -  5    1C AF 2D 67 1F
   635)       544.774 1  Rx        0331 -  8    49 04 96 C5 DD D2 94 D5
   636)       545.073 1  Rx        011B -  7    BC 1F 26 40 2B 03 89
   637)       545.499 1  Rx        006E -  7    E9 D8 DF 6F 91 B5 C5
   638)       545.926 1  Rx        0106 -  7    1F 81 27 FE 4E 7C DF
   639)       546.225 1  Rx        0132 -  7    67 A1 61 CE 8B 2D A0
   640)       546.651 1  Rx        0308 -  8    A7 62 58 92 1D F4 3E 81
   641)       547.035 1  Rx        0206 -  7    DE C8 79 4F 75 C9 BB
   642)       547.377 1  Rx        0212 -  7    D7 7F C4 0F F6 BD 40
   643)       547.718 1  Rx        0222 -  8    EE C8 67 42 DD DC EA 78
   644)       548.230 1  Rx        0459 -  8    C9 83 AB 45 7A 49 73 55
   645)       548.699 1  Rx        0451 -  8    77 BE 6A 9E 3A D2 DA BA
   646)       549.083 1  Rx        0441 -  8    DD DC 87 90 F0 16 86 57
   647)       549.766 1  Rx    1AFB1C04 -  8    A6 26 63 10 EF 64 B8 6F
   648)       550.278 1  Rx    1AFB1C00 -  8    EF 78 29 8D CE 22 3F 62
   649)       550.790 1  Rx        0419 -  8    85 8F C0 43 BD B5 31 8D
   650)       561.713 1  Rx        0332 -  8    FB 52 9D 51 5A 6B E7 FD
   651)       562.267 1  Rx        011A -  5    F3 2A 2D F5 BB
   652)       562.950 1  Rx        0331 -  8    49 04 96 DA 0D DC 1B FB
   653)       563.377 1  Rx        011B -  7    56 1F 79 40 2B F8 89
   654)       563.718 1  Rx        006E -  7    20 0A DF 6F A3 B5 C7
   655)       563.974 1  Rx        0106 -  7    1F 01 F1 88 4E 7C DF
   656)       564.273 1  Rx        0132 -  7    7C 65 61 CE 8B 2D A0
   657)       564.614 1  Rx        0308 -  8    A7 62 58 2F 1D F4 83 81
   658)       564.827 1  Rx        0206 -  7    DE F5 22 4F 75 C9 E3
   659)       565.168 1  Rx        0212 -  7    AA 7F C4 0F F6 E9 86
   660)       565.552 1  Rx        0222 -  8    EE A4 57 1A 97 26 62 1F
   661)       565.851 1  Rx        0459 -  8    C9 83 A0 45 7A 10 AC 75
   662)       566.150 1  Rx        0451 -  8    19 1B 6A A2 CD AA D0 86
   663)       566.448 1  Rx        0441 -  8    50 DC 43 90 D0 16 86 57
   664)       566.918 1  Rx    1AFB1C04 -  8    A6 56 63 10 F5 38 B8 FF
   665)       567.259 1  Rx    1AFB1C00 -  8    EF B6 96 5A CE 22 08 62
   666)       567.686 1  Rx        0419 -  8    85 8F C0 43 D4 B5 86 8D
   667)       578.779 1  Rx        0332 -  8    FB A1 C0 51 5A 6B E7 84
   668)       579.462 1  Rx        011A -  5    F3 2A 2D 34 BB
   669)       580.144 1  Rx        0331 -  8    49 0C 96 B7 0D F3 34 1D
   670)       580.827 1  Rx        011B -  7    56 1F 79 40 2B 37 D9
   671)       581.467 1  Rx        006E -  7    20 E1 80 6F 94 2C C7
   672)       582.064 1  Rx        0106 -  7    6B 3E 44 86 33 D6 DF
   673)       582.619 1  Rx        0132 -  7    7C 65 61 EA 91 2D 32
   674)       583.046 1  Rx        0308 -  8    5E 06 8D B1 F6 F4 83 28
   675)       583.302 1  Rx        0206 -  7    DE F5 05 4F 75 C9 CC
   676)       583.643 1  Rx        0212 -  7    AA F4 B1 0F 8B 51 86
   677)       583.984 1  Rx        0222 -  8    26 A4 57 1A 97 7B 19 A3
   678)       584.326 1  Rx        0459 -  8    C9 83 45 2B A7 5B 77 75
   679)       584.624 1  Rx        0451 -  8    19 1B A8 A2 2E 65 B7 F2
   680)       584.923 1  Rx        0441 -  8    50 DC 05 85 D0 26 80 1B
   681)       585.222 1  Rx    1AFB1C04 -  8    A6 EC 63 10 F5 65 B8 FF
   682)       585.606 1  Rx    1AFB1C00 -  8    A6 29 96 E4 3E 22 A0 55
   683)       585.862 1  Rx        0419 -  8    85 8F C0 F9 D4 CE 86 8D
   684)       593.243 1  Rx        033A -  8    B7 F6 73 45 74 F3 6B 73
   685)       593.840 1  Rx        0336 -  8    F4 0B 3A 51 21 F4 34 DD
   686)       594.480 1  Rx        0334 -  8    89 B5 6B 9F 33 84 F7 C9
   687)       595.077 1  Rx        06DD -  8    30 FE 6E 16 47 3D EE 16
   688)       595.675 1  Rx        0799 -  8    1A 46 8B A7 50 DB 77 1F
   689)       597.125 1  Rx        0332 -  8    37 A1 88 D6 5A 6B E7 3F
   690)       597.424 1  Rx        011A -  5    F3 5E 2D 34 BB
   691)       597.851 1  Rx        0331 -  8    49 0C EA B7 1A 81 34 B2
   692)       598.320 1  Rx        011B -  7    56 1F 79 40 2B 7C 84
   693)       598.576 1  Rx        006E -  7    20 5C 80 9C 94 37 8A
   694)       598.875 1  Rx        0106 -  7    6B 00 CB 86 ED 61 DF
   695)       599.131 1  Rx        0132 -  7    7C 65 61 EA 47 2D D5
   696)       599.429 1  Rx        0308 -  8    5E 06 F4 8B F6 6B 83 28
   697)       599.685 1  Rx        0206 -  7    DE E8 05 4F 75 C0 A4
   698)       599.984 1  Rx        0212 -  7    AA 4D 0F CA 0E 51 86
   699)       600.283 1  Rx        0222 -  8    26 A6 57 1A 8C CD 5B 61
   700)       600.581 1  Rx        0459 -  8    C9 72 9F D1 A7 DA 64 75
   701)       600.837 1  Rx        0451 -  8    19 1B 70 A2 2E 65 89 F2
   702)       601.179 1  Rx        0441 -  8    44 3D B5 10 D0 26 C2 7B
   703)       601.520 1  Rx    1AFB1C04 -  8    A6 91 63 10 A7 43 B8 FF
   704)       601.819 1  Rx    1AFB1C00 -  8    E5 33 15 05 3E FD A0 C0
   705)       602.117 1  Rx        0419 -  8    85 8F 5F 64 61 8B 86 8D
   706)       604.464 1  Rx        033B -  8    B7 AC 79 F3 4C B1 4D AC
   707)       604.891 1  Rx        0339 -  8    6E 33 A3 14 48 2A EA E7
   708)       605.317 1  Rx        0337 -  7    E4 77 C8 44 BB F1 3C
   709)       605.701 1  Rx        001F -  5    84 03 3A 69 C1
   710)       606.213 1  Rx        0333 -  4    0D B1 44 A4
   711)       606.640 1  Rx        0335 -  8    BA 17 36 D0 EB 80 18 C1
   712)       606.981 1  Rx        0121 -  4    B1 CB 76 AA
   713)       607.451 1  Rx        067F -  8    60 9C 54 70 B8 1E 3C 00
   714)       607.706 1  Rx        0681 -  8    12 74 2A 75 5C AD 2F 50
   715)       608.005 1  Rx        0309 -  8    B2 96 1C 31 A6 6F 63 7C
   716)       608.261 1  Rx        030A -  8    6C DA ED A4 49 1D E2 11
   717)       608.560 1  Rx        0622 -  6    A8 82 C1 F4 B4 AF
   718)       608.944 1  Rx        0413 -  6    D9 01 E6 4F 1C F7
   719)       609.157 1  Rx        0402 -  3    C1 79 97
   720)       609.541 1  Rx        0739 -  8    AB 93 BF 20 D1 55 1B 3C
   721)       609.840 1  Rx        0411 -  8    66 21 8D 23 8F 02 A8 6C
   722)       610.138 1  Rx        0729 -  8    31 4B 9F 68 0F 86 B4 04
   723)       610.480 1  Rx        0728 -  8    C1 4C 2F 88 06 33 A3 82
   724)       610.821 1  Rx        0709 -  8    85 6D 26 C2 23 49 6E 64
   725)       611.120 1  Rx        0711 -  8    2E 7C 3D 3C 66 50 F1 1A
   726)       612.784 1  Rx        0332 -  8    8C 72 51 C3 3A 2E F9 6D
   727)       612.912 1  Rx        011A -  5    DC 72 FE 98 B0
   728)       613.040 1  Rx        0331 -  8    8F 86 CA EA 4F 5D DC 4E
   729)       613.168 1  Rx        011B -  7    A5 DD 38 7D A3 5C B2
   730)       613.296 1  Rx        006E -  7    21 52 77 1D 57 94 95
   731)       613.424 1  Rx        0106 -  7    B8 DF B8 89 56 FB 70
   732)       613.552 1  Rx        0132 -  7    71 C8 12 AF F8 69 27
   733)       613.680 1  Rx        0308 -  8    71 80 FE 1B FA 68 07 55
   734)       613.808 1  Rx        0206 -  7    C1 26 3B 22 F0 54 1C
   735)       613.936 1  Rx        0212 -  7    80 18 12 B6 EC F4 18
   736)       614.064 1  Rx        0222 -  8    CE 74 B0 E2 85 C7 96 7A
   737)       614.192 1  Rx        0459 -  8    8C 89 DF B7 3F C7 E2 A4
   738)       614.320 1  Rx        0451 -  8    1F 95 52 89 07 E0 F7 B1
   739)       614.448 1  Rx        0441 -  8    04 28 A9 89 27 19 CC 7D
   740)       614.618 1  Rx    1AFB1C04 -  8    0D 59 9C C1 F8 54 DC 75
   741)       614.746 1  Rx    1AFB1C00 -  8    F3 8C E0 47 07 7F 57 DF
   742)       614.917 1  Rx        0419 -  8    62 1E 50 F9 AD FD 8E C5
   743)       625.754 1  Rx        0332 -  8    4B 72 EC D7 3A 2E F9 62
   744)       626.394 1  Rx        011A -  5    DC 6A FE 98 A3
   745)       626.992 1  Rx        0331 -  8    8F 86 10 EA DF 5D 0E A0
   746)       627.461 1  Rx        011B -  7    A5 57 38 7D 8C 1E AD
   747)       627.973 1  Rx        006E -  7    21 9E 77 24 57 C0 FE
   748)       628.314 1  Rx        0106 -  7    49 BE B8 89 5A FB 03
   749)       628.656 1  Rx        0132 -  7    71 CE CB AF 77 69 27
   750)       628.997 1  Rx        0308 -  8    12 0D 46 25 72 68 07 55
   751)       629.466 1  Rx        0206 -  7    E1 26 3B 69 44 24 D8
   752)       629.807 1  Rx        0212 -  7    51 18 12 B6 EC F4 18
   753)       630.191 1  Rx        0222 -  8    C3 74 75 38 85 C2 30 F5
   754)       630.575 1  Rx        0459 -  8    8C 89 DF B7 D3 BE 1C 59
   755)       631.215 1  Rx        0451 -  8    1F 95 52 89 E2 FD 2E B1
   756)       631.855 1  Rx        0441 -  8    04 9F A9 07 27 19 62 06
   757)       632.367 1  Rx    1AFB1C04 -  8    0D 0C 96 B8 F8 4B 85 75
   758)       632.837 1  Rx    1AFB1C00 -  8    20 C1 E5 47 07 7F 57 8B
   759)       633.306 1  Rx        0419 -  8    62 1E 50 F9 AD FD 4B C5
   760)       644.527 1  Rx        0332 -  8    4B 93 EC D7 9F 41 F9 62
   761)       644.911 1  Rx        011A -  5    DC 69 6B 98 A3
   762)       645.381 1  Rx        0331 -  8    8F 86 10 EA DF EE 0E F8
   763)       645.850 1  Rx        011B -  7    BF 09 38 7D 8C 1E AD
   764)       646.234 1  Rx        006E -  7    82 D7 77 24 02 89 FE
   765)       646.575 1  Rx        0106 -  7    8A BE B8 89 5A FB 91
   766)       646.917 1  Rx        0132 -  7    20 8C FB 3B 77 69 4C
   767)       647.258 1  Rx        0308 -  8    3F 57 58 25 8F 68 3A 55
   768)       647.642 1  Rx        0206 -  7    E1 1B 4D 69 44 AB D8
   769)       647.941 1  Rx        0212 -  7    5D 18 12 B6 EC F4 18
   770)       648.282 1  Rx        0222 -  8    C3 D8 75 C9 BC C2 30 F5
   771)       648.666 1  Rx        0459 -  8    8C 8E DF B7 D3 BE A3 DA
   772)       649.050 1  Rx        0451 -  8    AC 95 52 65 4A FD 2E 04
   773)       649.477 1  Rx        0441 -  8    36 A0 17 07 27 19 62 06
   774)       649.861 1  Rx    1AFB1C04 -  8    6C 89 F4 E0 33 4B 54 E6
   775)       650.287 1  Rx    1AFB1C00 -  8    20 C1 85 47 07 B2 57 F1
   776)       650.756 1  Rx        0419 -  8    62 46 50 7B C1 FD 93 C5
   777)       662.447 1  Rx        0332 -  8    4B 93 56 D7 9F 41 38 89
   778)       663.044 1  Rx        011A -  5    DC 78 6B 98 A3
   779)       663.684 1  Rx        0331 -  8    68 86 96 EA 8D 78 26 F8
   780)       664.410 1  Rx        011B -  7    BF A0 38 C6 8C 1E AD
   781)       664.922 1  Rx        006E -  7    82 60 14 1A 02 89 FE
   782)       665.391 1  Rx        0106 -  7    8A BE B8 4F 5A FB 35
   783)       665.860 1  Rx        0132 -  7    20 8C FB 3D B6 7D 4C
   784)       666.159 1  Rx        0308 -  8    3F 2B 58 25 8F 68 3A 55
   785)       666.500 1  Rx        0206 -  7    7A 59 4D 73 44 96 4B
   786)       666.842 1  Rx        0212 -  7    10 4A 12 B6 22 F4 D9
   787)       667.311 1  Rx        0222 -  8    43 D8 36 C9 D1 DE 30 D5
   788)       667.652 1  Rx        0459 -  8    67 8E 4D B7 D3 54 AD C8
   789)       667.994 1  Rx        0451 -  8    EF 95 15 65 4A FD 2E 04
   790)       668.292 1  Rx        0441 -  8    36 9D 85 30 56 19 62 5D
   791)       668.591 1  Rx    1AFB1C04 -  8    40 89 F4 C6 71 4B 54 E6
   792)       668.932 1  Rx    1AFB1C00 -  8    45 C1 85 EF 98 FB 57 F1
   793)       669.231 1  Rx        0419 -  8    B3 46 50 7B C1 B2 93 54
   794)       680.964 1  Rx        0332 -  8    4B 93 56 D7 9F CE BD B5
   795)       681.561 1  Rx        011A -  5    7F 5B 6B 98 A3
   796)       682.287 1  Rx        0331 -  8    68 86 96 2B 8D 64 26 F8
   797)       682.756 1  Rx        011B -  7    0F A0 F7 C6 21 1E E0
   798)       683.311 1  Rx        006E -  7    09 81 14 1A D1 F1 EB
   799)       683.737 1  Rx        0106 -  7    8A BE B8 4F 5A FB 81
   800)       684.249 1  Rx        0132 -  7    20 48 0E 3F 00 7D 4C
   801)       684.719 1  Rx        0308 -  8    3F 2B 58 0D 79 7A 3A 55
   802)       685.060 1  Rx        0206 -  7    7A 09 1D C0 44 1F 4B
   803)       685.316 1  Rx        0212 -  7    10 4A 6C 52 7B F4 4A
   804)       685.657 1  Rx        0222 -  8    43 7A 07 C9 D1 DE 72 2A
   805)       686.041 1  Rx        0459 -  8    67 83 4D 98 1F 54 1C C8
   806)       686.340 1  Rx        0451 -  8    EF B6 15 21 95 FD 2E 04
   807)       686.639 1  Rx        0441 -  8    F2 DF EC 30 AC 19 E1 BA
   808)       686.980 1  Rx    1AFB1C04 -  8    C5 89 F4 69 71 A9 63 E6
   809)       687.321 1  Rx    1AFB1C00 -  8    45 C1 A1 EF 82 3B 57 67
   810)       687.791 1  Rx        0419 -  8    3F 1C 34 59 C1 B2 CC 54
   811)       699.481 1  Rx        0332 -  8    34 E7 6D 67 CE CE BD 49
   812)       700.206 1  Rx        011A -  5    82 C7 6B 0E A3
   813)       700.804 1  Rx        0331 -  8    68 86 96 3E 8D 64 A0 66
   814)       701.358 1  Rx        011B -  7    4E 34 F7 03 60 82 88
   815)       701.956 1  Rx        006E -  7    09 F9 F1 40 D1 F1 EB
   816)       702.254 1  Rx        0106 -  7    8A BE 80 86 5A 2F 81
   817)       702.553 1  Rx        0132 -  7    9B 48 94 3F 34 7D 4C
   818)       702.894 1  Rx        0308 -  8    3F 2B D8 0D 7F 7A 3A 55
   819)       703.193 1  Rx        0206 -  7    8D 09 06 C0 88 FF 4B
   820)       703.492 1  Rx        0212 -  7    16 D3 6C 92 7B 31 4A
   821)       703.876 1  Rx        0222 -  8    43 14 07 8E D1 A0 72 8F
   822)       704.217 1  Rx        0459 -  8    D6 83 A3 7E 1F 73 1C C8
   823)       704.601 1  Rx        0451 -  8    EF B6 D6 D7 95 10 2E F4
   824)       704.985 1  Rx        0441 -  8    C4 52 7A 65 FA 7D 56 CC
   825)       705.582 1  Rx    1AFB1C04 -  8    C5 6C F4 A8 9D 3C E0 79
   826)       706.308 1  Rx    1AFB1C00 -  8    A5 23 A1 43 82 75 57 FF
   827)       706.649 1  Rx        0419 -  8    3F 1C 34 13 64 44 14 C4
   828)       712.110 1  Rx        033B -  8    B7 AC 73 F3 4C B1 A1 EE
   829)       712.580 1  Rx        0339 -  8    6E B3 A3 77 76 56 EA E7
   830)       712.878 1  Rx        0337 -  7    E4 D0 71 CF BB 3A 3C
   831)       713.177 1  Rx        001F -  5    84 80 3A E2 C1
   832)       713.433 1  Rx        0333 -  4    0D B1 AA 83
   833)       713.817 1  Rx        0335 -  8    BA C3 36 54 EB EF BF C1
   834)       714.030 1  Rx        0121 -  4    B1 97 76 AA
   835)       714.329 1  Rx        067F -  8    60 61 BC 70 B8 51 E3 7A
   836)       714.713 1  Rx        0681 -  8    3B C9 2A F9 88 AD 2F 50
   837)       715.054 1  Rx        0309 -  8    B2 96 1C 31 A6 6F 7F 0E
   838)       715.438 1  Rx        030A -  8    6C E1 ED 7B 49 37 E2 B5
   839)       715.694 1  Rx        0622 -  6    7D F3 41 F4 B4 83
   840)       716.035 1  Rx        0413 -  6    28 14 B5 4F 7D FA
   841)       716.334 1  Rx        0402 -  3    25 79 97
   842)       716.633 1  Rx        0739 -  8    AB 22 BD A6 B2 24 1B 3C
   843)       716.974 1  Rx        0411 -  8    D9 4A 8D 23 8F 91 2F E0
   844)       717.315 1  Rx        0729 -  8    31 4B 4D 68 EC 86 B4 04
   845)       717.614 1  Rx        0332 -  8    34 2B 6D 67 CE 71 BD 7E
   846)       717.742 1  Rx        0728 -  8    C1 B7 CE 88 7E 33 D0 8A
   847)       717.998 1  Rx        011A -  5    C7 C7 6B AD 31
   848)       718.126 1  Rx        0709 -  8    34 E3 26 F2 B4 DC 86 12
   849)       718.425 1  Rx        0331 -  8    D6 36 96 9E 3A E4 56 9B
   850)       718.553 1  Rx        0711 -  8    DB 7C 3D 3C 66 E2 BA 41
   851)       718.723 1  Rx        011B -  7    1E 34 F7 03 1A 82 88
   852)       718.979 1  Rx        006E -  7    09 F9 39 40 FA 88 A3
   853)       719.278 1  Rx        0106 -  7    8A AC C3 C2 58 C2 81
   854)       719.534 1  Rx        0132 -  7    DB 08 55 3F 34 7D 6C
   855)       719.918 1  Rx        0308 -  8    3F F1 D8 9C 51 7A C2 55
   856)       720.217 1  Rx        0206 -  7    31 09 1C 0B 88 FF 4B
   857)       720.558 1  Rx        0212 -  7    3E F1 B1 92 3A 31 4A
   858)       720.899 1  Rx        0222 -  8    4C FB A5 97 AE BA 40 CD
   859)       721.283 1  Rx        0459 -  8    D6 83 A3 D9 3A C2 1C C8
   860)       721.710 1  Rx        0451 -  8    EF B6 D6 1F 45 8C 73 F4
   861)       722.478 1  Rx        0441 -  8    C4 52 EB 02 FA 7D 56 CC
   862)       722.947 1  Rx    1AFB1C04 -  8    C5 6C 49 A8 E5 F1 B8 73
   863)       723.459 1  Rx    1AFB1C00 -  8    A5 C9 A1 F2 78 54 16 FF
   864)       723.801 1  Rx        0419 -  8    3F 1C CB 13 64 44 A0 C4
   865)       735.065 1  Rx        0332 -  8    E6 31 6D 62 C1 F6 F4 BD
   866)       735.662 1  Rx        011A -  5    C7 96 8C C5 31
   867)       736.259 1  Rx        0331 -  8    D6 43 5E 9E 3A E4 6B 71
   868)       736.771 1  Rx        011B -  7    21 34 8F 6E 39 B7 AA
   869)       737.240 1  Rx        006E -  7    09 F8 39 BE 8F 88 A3
   870)       737.880 1  Rx        0106 -  7    8A AC 31 C2 E6 06 AB
   871)       738.350 1  Rx        0132 -  7    DB 35 D9 3F 34 7D 14
   872)       738.862 1  Rx        0308 -  8    EF 37 A8 9C 51 89 ED 55
   873)       739.502 1  Rx        0206 -  7    1D CD E0 23 48 E7 BF
   874)       739.928 1  Rx        0212 -  7    3E F1 15 04 3A 31 4A
   875)       740.782 1  Rx        0222 -  8    4C FB 63 CF F2 BA 40 E6
   876)       741.422 1  Rx        0459 -  8    D6 B1 A3 D9 3A 09 58 B2
   877)       742.104 1  Rx        0451 -  8    EF B6 D6 1F 45 8C 21 F4
   878)       742.616 1  Rx        0441 -  8    C4 69 EB 02 3A 37 56 CC
   879)       743.384 1  Rx    1AFB1C04 -  8    78 A7 49 A8 E5 F1 C2 E5
   880)       744.024 1  Rx    1AFB1C00 -  8    A5 D4 05 F2 78 3E 6D 77
   881)       744.494 1  Rx        0419 -  8    38 1C CB FA 48 F6 A0 49
   882)       755.715 1  Rx        0332 -  8    68 31 6D 13 C1 F6 B1 BD
   883)       756.440 1  Rx        011A -  5    98 96 8B C5 31
   884)       757.293 1  Rx        0331 -  8    D6 43 5E 9E 71 38 B7 71
   885)       757.976 1  Rx        011B -  7    21 34 8F 6E 13 A5 AA
   886)       758.573 1  Rx        006E -  7    09 E0 39 BE 8F 88 FF
   887)       759.299 1  Rx        0106 -  7    5F 72 31 C2 53 8A 34
   888)       759.853 1  Rx        0132 -  7    DB 35 D9 4F 34 7D 82
   889)       760.323 1  Rx        0308 -  8    EF 43 A8 3F 51 89 ED 7D
   890)       760.707 1  Rx        0206 -  7    1D D6 E0 23 75 E7 6A
   891)       761.304 1  Rx        0212 -  7    3E 22 23 04 3C 28 71
   892)       761.816 1  Rx        0222 -  8    08 FB 63 CF BF 6F BB DE
   893)       762.243 1  Rx        0459 -  8    D6 17 A3 35 3A BD 58 E6
   894)       762.755 1  Rx        0451 -  8    67 AC D6 71 45 8C 59 F4
   895)       763.224 1  Rx        0441 -  8    80 69 A3 02 3A B8 56 EB
   896)       763.736 1  Rx    1AFB1C04 -  8    0D 8E 49 8E E5 F1 0C 3B
   897)       764.333 1  Rx    1AFB1C00 -  8    A5 D4 01 F2 78 3E 6D 77
   898)       764.717 1  Rx        0419 -  8    38 1C CB E1 7F 30 1A 49
   899)       775.981 1  Rx        0332 -  8    7E D5 6D 13 D4 F6 B1 47
   900)       776.493 1  Rx        011A -  5    CC DE 8B C5 5A
   901)       777.219 1  Rx        0331 -  8    D4 E3 5E 9E 71 1A B7 71
   902)       777.645 1  Rx        011B -  7    C8 34 8F 6E 46 55 AA
   903)       778.243 1  Rx        006E -  7    09 42 B6 04 8F D9 FF
   904)       778.669 1  Rx        0106 -  7    98 72 31 12 53 8A 34
   905)       779.053 1  Rx        0132 -  7    DB 88 D9 4F 4E 7D 82
   906)       779.480 1  Rx        0308 -  8    EF 00 A8 5D 51 97 ED D2
   907)       779.778 1  Rx        0206 -  7    3F D6 C5 6F 75 4D 6A
   908)       780.077 1  Rx        0212 -  7    3E 12 23 04 AB BB 71
   909)       780.418 1  Rx        0222 -  8    08 16 63 CF BF 17 BB DE
   910)       780.760 1  Rx        0459 -  8    28 17 A3 5C 3A 8E 9E E6
   911)       781.144 1  Rx        0451 -  8    67 A7 8F 71 A3 8C 20 9E
   912)       781.528 1  Rx        0441 -  8    80 2E 8A 69 3A 53 56 30
   913)       781.912 1  Rx    1AFB1C04 -  8    F3 8E 42 8E 37 99 0C 43
   914)       782.424 1  Rx    1AFB1C00 -  8    A5 D4 BB F2 78 3E 82 B9
   915)       782.808 1  Rx        0419 -  8    38 1C EF BD 7F 30 1A 86
   916)       793.218 1  Rx        0332 -  8    0A 89 CE C4 80 4C D2 C6
   917)       793.346 1  Rx        011A -  5    98 68 95 90 4F
   918)       793.474 1  Rx        0331 -  8    E6 34 8E 05 D5 FF 35 9D
   919)       793.602 1  Rx        011B -  7    E0 08 89 16 99 32 45
   920)       793.730 1  Rx        006E -  7    A2 22 01 C9 71 D0 D1
   921)       793.858 1  Rx        0106 -  7    A4 0F 1C A8 CB 14 AA
   922)       793.944 1  Rx        0132 -  7    63 76 43 28 6D 54 38
   923)       794.114 1  Rx        0308 -  8    D6 8E CF 58 CA 79 68 F9
   924)       794.242 1  Rx        0206 -  7    45 74 23 89 0C FE 8E
   925)       794.328 1  Rx        0212 -  7    B5 84 3F 67 D9 8E E6
   926)       794.456 1  Rx        0222 -  8    0E A5 90 9B 16 AE BB 0D
   927)       794.584 1  Rx        0459 -  8    C7 D0 84 8C 58 BD DD B5
   928)       794.754 1  Rx        0451 -  8    E8 8A F8 4C 79 18 78 A5
   929)       794.882 1  Rx        0441 -  8    FB 54 17 AA B7 38 D1 F8
   930)       795.010 1  Rx    1AFB1C04 -  8    2D D5 7C 10 4A 6A 71 43
   931)       795.181 1  Rx    1AFB1C00 -  8    E8 0F 2C 97 1D 51 C7 09
   932)       795.309 1  Rx        0419 -  8    64 EB 8E 1B D5 32 62 5F
   933)       805.933 1  Rx        0332 -  8    20 DD CE A8 E9 4C D2 76
   934)       806.573 1  Rx        011A -  5    CD 68 4B 90 4F
   935)       807.042 1  Rx        0331 -  8    E6 34 FE 05 38 FF 35 9D
   936)       807.554 1  Rx        011B -  7    DB 08 89 01 9B 32 45
   937)       808.151 1  Rx        006E -  7    A0 22 01 C9 A9 D0 F0
   938)       808.535 1  Rx        0106 -  7    F6 7F 3C E9 CB 8A 98
   939)       808.919 1  Rx        0132 -  7    63 76 43 88 80 C0 38
   940)       809.303 1  Rx        0308 -  8    DA 4E CF AC CA C1 77 F9
   941)       809.815 1  Rx        0206 -  7    45 74 42 15 0C FE 8E
   942)       810.114 1  Rx        0212 -  7    F9 84 3F F3 03 AE 2C
   943)       810.455 1  Rx        0222 -  8    DB C6 C9 43 AD EB 65 C8
   944)       810.754 1  Rx        0459 -  8    C7 D0 84 76 58 BD DD B5
   945)       811.053 1  Rx        0451 -  8    E8 87 79 4C 79 18 78 A5
   946)       811.351 1  Rx        0441 -  8    34 F9 A3 AA B7 0D 83 F8
   947)       811.650 1  Rx    1AFB1C04 -  8    3F D6 44 B6 4A 6A 13 03
   948)       811.949 1  Rx    1AFB1C00 -  8    0D 0F 2C 97 1D A9 BE 09
   949)       812.247 1  Rx        0419 -  8    FD EB 2C 1B D5 4E 62 16
   950)       819.714 1  Rx        033B -  8    52 7E 73 F3 45 83 A1 D6
   951)       820.226 1  Rx        0339 -  8    6E B3 BF 77 97 56 DF E7
   952)       820.781 1  Rx        0337 -  7    E4 D0 C1 CF 2F F3 5C
   953)       821.292 1  Rx        001F -  5    18 58 76 E2 5B
   954)       821.719 1  Rx        0333 -  4    0D 71 3C 83
   955)       822.231 1  Rx        0335 -  8    BA C3 36 54 5C EF BF 67
   956)       822.828 1  Rx        0121 -  4    0F 97 76 E3
   957)       823.852 1  Rx        067F -  8    60 61 E3 70 B8 9F 89 BD
   958)       824.023 1  Rx        0332 -  8    17 F5 07 A8 D2 4C D2 76
   959)       824.876 1  Rx        0681 -  8    E4 6C 2A 64 5E AD 2F F4
   960)       825.090 1  Rx        011A -  5    03 68 68 90 4F
   961)       825.644 1  Rx        0309 -  8    B2 36 F6 31 A6 A8 7F FE
   962)       825.815 1  Rx        0331 -  8    BB 34 FE 05 38 3A 1E 8B
   963)       826.156 1  Rx        030A -  8    8F 41 D6 7B 49 37 E2 B5
   964)       826.242 1  Rx        011B -  7    1A 08 89 01 9B 32 45
   965)       826.412 1  Rx        0622 -  6    9B F3 41 A4 28 2E
   966)       826.668 1  Rx        006E -  7    A0 22 01 73 26 A4 8D
   967)       826.796 1  Rx        0413 -  6    B4 3E DC 4F 94 4F
   968)       827.052 1  Rx        0106 -  7    71 E5 3C C5 97 8A 98
   969)       827.138 1  Rx        0402 -  3    13 79 06
   970)       827.479 1  Rx        0132 -  7    4D E0 43 88 9D EF 38
   971)       827.607 1  Rx        0739 -  8    AB 22 BD 41 5E 17 1B 3C
   972)       827.906 1  Rx        0308 -  8    DA AA CF AC CE C1 66 F9
   973)       828.076 1  Rx        0411 -  8    D9 21 6E 59 46 91 2F 36
   974)       828.290 1  Rx        0206 -  7    C4 20 42 AF B0 5F 8E
   975)       828.418 1  Rx        0729 -  8    1D BB 4D 68 EC E4 B4 8A
   976)       828.759 1  Rx        0212 -  7    7A 84 31 F3 03 8C 51
   977)       828.930 1  Rx        0728 -  8    CF B7 A0 31 41 E8 5A C0
   978)       829.228 1  Rx        0222 -  8    DB C6 C9 06 76 9E 65 60
   979)       829.356 1  Rx        0709 -  8    21 E3 26 F2 A2 DC 20 12
   980)       829.698 1  Rx        0459 -  8    C7 22 84 76 01 BD DD B5
   981)       829.868 1  Rx        0711 -  8    DB 2D 6B 3C 5A E2 BA 12
   982)       830.082 1  Rx        0451 -  8    E8 87 60 4C EB 18 4E 5B
   983)       830.338 1  Rx        0441 -  8    34 9F D2 AA B5 0D 36 88
   984)       830.636 1  Rx    1AFB1C04 -  8    11 D6 3F B6 90 6A 13 9F
   985)       830.935 1  Rx    1AFB1C00 -  8    BD C8 2C 04 1D A9 6F 09
   986)       831.191 1  Rx        0419 -  8    FC EB 2C C8 75 E9 02 4E
   987)       842.357 1  Rx        0332 -  8    53 DD 8B 6D D2 4C 98 DF
   988)       843.039 1  Rx        011A -  5    03 68 68 9C E5
   989)       843.765 1  Rx        0331 -  8    6C 34 FE 05 38 6C 61 8B
   990)       844.447 1  Rx        011B -  7    1A 01 AE 01 9B 9C 45
   991)       845.045 1  Rx        006E -  7    A0 F0 1B FA BE 2C DF
   992)       845.642 1  Rx        0106 -  7    1B C7 3C 89 C3 8A 6B
   993)       846.154 1  Rx        0132 -  7    4D E0 43 88 9D EF 38
   994)       846.581 1  Rx        0308 -  8    D1 AA CF 93 CE C1 83 F9
   995)       847.050 1  Rx        0206 -  7    C4 37 A7 AF 37 5F 8E
   996)       847.349 1  Rx        0212 -  7    7A BA 31 DF 03 8C 92
   997)       847.861 1  Rx        0222 -  8    12 C6 3B 06 76 83 DD B3
   998)       848.117 1  Rx        0459 -  8    C7 5A 84 76 01 BD A8 B5
   999)       848.415 1  Rx        0451 -  8    AC 87 60 29 A1 96 4E 0C
  1000)       848.757 1  Rx        0441 -  8    6E 9F D2 D1 22 E7 76 2E
  1001)       849.183 1  Rx    1AFB1C04 -  8    11 8B 3F DC 3F 6A 4D 33
  1002)       849.482 1  Rx    1AFB1C00 -  8    BD BA FE 2E 1D A9 4C 09
  1003)       849.823 1  Rx        0419 -  8    50 EB D1 FD 9F E9 AC 4E
  1004)       860.959 1  Rx        0332 -  8    53 DD 8B 4E D2 4C 98 DF
  1005)       861.386 1  Rx        011A -  5    83 A7 E9 1A 1F
  1006)       862.026 1  Rx        0331 -  8    4D 24 F1 05 38 6C 27 35
  1007)       862.367 1  Rx        011B -  7    1A E2 7A BD C8 82 84
  1008)       862.794 1  Rx        006E -  7    45 F0 1F 4C BE 2C DF
  1009)       863.093 1  Rx        0106 -  7    E3 C7 6C AD B4 8A 2B
  1010)       863.349 1  Rx        0132 -  7    8A EC 43 88 99 EF 38
  1011)       863.690 1  Rx        0308 -  8    D1 AA CF 3B CE E5 83 59
  1012)       863.988 1  Rx        0206 -  7    87 37 59 6D 37 5F 8E
  1013)       864.287 1  Rx        0212 -  7    7A BA C0 DF AA 8C 92
  1014)       864.628 1  Rx        0222 -  8    12 4E 3B 06 E1 83 F7 B3
  1015)       864.884 1  Rx        0459 -  8    6E 66 7E 76 01 BD 37 93
  1016)       865.311 1  Rx        0451 -  8    AC 87 60 29 A1 A3 79 3A
  1017)       865.738 1  Rx        0441 -  8    6B 3C D2 E7 7A 81 76 2E
  1018)       866.335 1  Rx    1AFB1C04 -  8    AF 8B 3F DC 3F 97 07 33
  1019)       866.762 1  Rx    1AFB1C00 -  8    BD 21 91 2E 1D A9 4C 09
  1020)       867.146 1  Rx        0419 -  8    50 EB D1 10 14 77 66 4E
  1021)       877.898 1  Rx        0332 -  8    53 C4 8B A8 0A F1 98 DF
  1022)       878.495 1  Rx        011A -  5    83 AC E9 11 1F
  1023)       879.178 1  Rx        0331 -  8    35 F2 80 05 38 6C 5E 35
  1024)       879.775 1  Rx        011B -  7    63 60 08 BD 46 A9 84
  1025)       880.159 1  Rx        006E -  7    45 5F 1F 4C BE 65 04
  1026)       880.500 1  Rx        0106 -  7    E3 C7 CD AD B4 5A 2B
  1027)       880.970 1  Rx        0132 -  7    8A E8 43 88 DC AC 47
  1028)       881.439 1  Rx        0308 -  8    C1 B6 CF 6E 05 7F 83 8B
  1029)       881.823 1  Rx        0206 -  7    C5 19 59 88 26 5F 78
  1030)       882.164 1  Rx        0212 -  7    FE C7 C0 DF B6 29 56
  1031)       882.548 1  Rx        0222 -  8    8B 4E 73 35 42 26 6D B3
  1032)       882.975 1  Rx        0459 -  8    FA 86 7E 21 01 BD 6B 93
  1033)       883.316 1  Rx        0451 -  8    AC BF BF 29 A1 A3 79 7E
  1034)       883.615 1  Rx        0441 -  8    6B 3C D1 DE 7A 81 BF 2E
  1035)       883.956 1  Rx    1AFB1C04 -  8    E9 7E 05 1E 3F D8 CC 33
  1036)       884.255 1  Rx    1AFB1C00 -  8    22 21 98 2E C6 A9 4C 10
  1037)       884.511 1  Rx        0419 -  8    50 EB D1 3F 14 CE A0 4E
  1038)       895.775 1  Rx        0332 -  8    E9 C4 FA DC BC DC 49 DF
  1039)       896.287 1  Rx        011A -  5    E7 1B E9 75 EC
  1040)       896.969 1  Rx        0331 -  8    B8 44 80 05 38 6C F5 D4
  1041)       897.311 1  Rx        011B -  7    2A 76 08 32 5E A9 1F
  1042)       897.652 1  Rx        006E -  7    45 5F 1F 6A 13 6C 02
  1043)       897.951 1  Rx        0106 -  7    E3 C0 B2 AD B4 8C FE
  1044)       898.207 1  Rx        0132 -  7    96 6A 43 88 36 AC 1E
  1045)       898.505 1  Rx        0308 -  8    CC A0 6A 6E 17 E1 70 8B
  1046)       898.761 1  Rx        0206 -  7    B7 E0 9A 26 26 5F 8D
  1047)       899.060 1  Rx        0212 -  7    FE C7 C0 32 B6 DD 56
  1048)       899.359 1  Rx        0222 -  8    C0 2D 05 35 53 2D 6D B3
  1049)       899.700 1  Rx        0459 -  8    FA 86 72 6A 0F BD 6B 93
  1050)       900.084 1  Rx        0451 -  8    AC 5A BF 29 B2 F4 2D 7E
  1051)       900.383 1  Rx        0441 -  8    E4 C0 D1 DE C7 81 BF 2E
  1052)       900.895 1  Rx    1AFB1C04 -  8    E6 77 7D B8 D7 C9 CC 33
  1053)       901.364 1  Rx    1AFB1C00 -  8    22 E8 E2 2E 6F A9 4C 9A
  1054)       901.748 1  Rx        0419 -  8    EB 3E D1 3F 4F CE A0 18
  1055)       913.353 1  Rx        0332 -  8    E9 59 D6 CB BC E2 49 24
  1056)       913.950 1  Rx        011A -  5    E7 0B A2 75 7E
  1057)       914.505 1  Rx        0331 -  8    7B 44 A9 05 38 6C 0E 51
  1058)       914.932 1  Rx        011B -  7    2A 6E F9 32 46 A9 04
  1059)       915.444 1  Rx        006E -  7    45 A1 6D 6A D8 2B 02
  1060)       915.913 1  Rx        0106 -  7    E3 7B 2B AB B4 2D 29
  1061)       916.212 1  Rx        0132 -  7    96 6A A8 E7 08 65 0D
  1062)       916.553 1  Rx        0308 -  8    FE 83 2F 71 FE E1 70 47
  1063)       916.766 1  Rx        0206 -  7    FD E0 9A 26 26 7E 8D
  1064)       917.065 1  Rx        0212 -  7    FE 1D C0 08 A4 DD 0E
  1065)       917.364 1  Rx        0222 -  8    C0 2D E0 8E 53 E1 4D 3D
  1066)       917.705 1  Rx        0459 -  8    FA 3E E5 6A 75 BD AD 93
  1067)       918.132 1  Rx        0451 -  8    AC 5A BF A2 C0 DD 37 5B
  1068)       918.430 1  Rx        0441 -  8    E4 DE 81 98 6D AB C4 2E
  1069)       918.729 1  Rx    1AFB1C04 -  8    E6 77 7D 44 D8 C9 33 6F
  1070)       919.070 1  Rx    1AFB1C00 -  8    F1 E8 E2 2E FA 9F 4C 14
  1071)       919.326 1  Rx        0419 -  8    CC 3E D1 3F 4F F5 A0 48
  1072)       931.059 1  Rx        033B -  8    52 7E 25 F3 45 1B 31 A8
  1073)       931.187 1  Rx        0332 -  8    26 32 D6 CC D5 E2 30 24
  1074)       931.657 1  Rx        0339 -  8    12 09 22 77 97 56 DF E7
  1075)       932.382 1  Rx        011A -  5    86 0B A2 ED 4E
  1076)       932.595 1  Rx        0337 -  7    97 D0 3B 66 2F F3 5C
  1077)       933.107 1  Rx        0331 -  8    94 44 A9 05 38 91 FE 3A
  1078)       933.321 1  Rx        001F -  5    18 58 20 FF 4D
  1079)       933.747 1  Rx        0333 -  4    0D 11 3C 3A
  1080)       934.003 1  Rx        011B -  7    2A BF FC 18 51 A9 54
  1081)       934.387 1  Rx        0335 -  8    28 31 3B 85 F1 EF BF E6
  1082)       934.558 1  Rx        006E -  7    D2 A1 6D 6A C5 2B 02
  1083)       934.814 1  Rx        0121 -  4    18 97 76 13
  1084)       935.027 1  Rx        0106 -  7    08 75 7B AB 67 2D 29
  1085)       935.326 1  Rx        067F -  8    60 61 BC 82 B8 15 7B BD
  1086)       935.454 1  Rx        0132 -  7    96 75 74 CB 08 8A 0D
  1087)       935.881 1  Rx        0681 -  8    E4 6C 2A 64 0F F7 C0 F4
  1088)       936.009 1  Rx        0308 -  8    E9 83 16 71 FE 45 9B 47
  1089)       936.307 1  Rx        0309 -  8    F5 8F F6 0F A6 A8 7F BF
  1090)       936.435 1  Rx        0206 -  7    2A E0 9A 81 90 87 8D
  1091)       936.734 1  Rx        030A -  8    8F BF EB 79 49 37 E2 B5
  1092)       936.862 1  Rx        0212 -  7    FE 1D 7C 08 BA DD 0E
  1093)       937.118 1  Rx        0622 -  6    D6 F3 A0 A4 A7 BB
  1094)       937.246 1  Rx        0222 -  8    48 9B FA 22 53 DD ED 3D
  1095)       937.545 1  Rx        0413 -  6    B4 45 DC F6 94 DC
  1096)       937.929 1  Rx        0459 -  8    69 3E 77 6A 75 80 8A 93
  1097)       938.057 1  Rx        0402 -  3    87 2F 17
  1098)       938.526 1  Rx        0451 -  8    5C 5F BF 29 C0 DD 6D 5B
  1099)       938.697 1  Rx        0739 -  8    B5 B5 31 41 5E 61 E3 3C
  1100)       939.209 1  Rx        0441 -  8    E4 DE 7B 98 8C AB C4 DC
  1101)       939.422 1  Rx        0411 -  8    D9 72 6E 6C 46 B9 35 44
  1102)       939.806 1  Rx    1AFB1C04 -  8    E6 77 D4 44 D8 A5 33 6F
  1103)       939.977 1  Rx        0729 -  8    1D 97 D1 68 EC E4 7E 10
  1104)       940.361 1  Rx    1AFB1C00 -  8    1C 7B 8C 06 36 9F 31 14
  1105)       940.489 1  Rx        0728 -  8    C8 B7 69 81 41 53 6A 30
  1106)       940.873 1  Rx        0419 -  8    C1 6F 96 3F 8F F5 A0 A0
  1107)       941.001 1  Rx        0709 -  8    DD E3 CE 28 A2 DE EE 12
  1108)       941.257 1  Rx        0711 -  8    A8 15 6B 9F 5A E2 BA 4D
  1109)       952.307 1  Rx        0332 -  8    26 32 D6 CC D5 35 3E 24
  1110)       952.904 1  Rx        011A -  5    86 0B CB ED 53
  1111)       953.715 1  Rx        0331 -  8    A7 44 4A 2D 38 D1 FE 97
  1112)       954.270 1  Rx        011B -  7    2A C4 FC 18 B8 AF 54
  1113)       954.782 1  Rx        006E -  7    29 71 3F CF C5 22 E1
  1114)       955.336 1  Rx        0106 -  7    71 75 7B 89 67 2D 9F
  1115)       955.976 1  Rx        0132 -  7    96 75 5E CB D8 8A 47
  1116)       956.830 1  Rx        0308 -  8    39 83 16 87 FE BA 9B 47
  1117)       957.512 1  Rx        0206 -  7    2A E6 9A 33 2C 87 8D
  1118)       957.939 1  Rx        0212 -  7    C9 C5 7C 08 BA 3F 19
  1119)       958.366 1  Rx        0222 -  8    36 51 FA 22 FC 11 ED 8B
  1120)       958.707 1  Rx        0459 -  8    73 3E 77 18 81 AB 8A 93
  1121)       959.091 1  Rx        0451 -  8    F1 D6 B3 0A 81 DD 7E CB
  1122)       959.390 1  Rx        0441 -  8    E4 DE 7B 98 8C AB E5 DC
  1123)       959.859 1  Rx    1AFB1C04 -  8    E6 77 D4 44 D8 A5 F4 EE
  1124)       960.158 1  Rx    1AFB1C00 -  8    1C 7B 8C D8 36 9F 31 DB
  1125)       960.499 1  Rx        0419 -  8    C1 D6 96 3F 8F F5 0F 01
  1126)       971.251 1  Rx        0332 -  8    2F 13 F4 30 C8 F9 24 82
  1127)       971.421 1  Rx        011A -  5    39 FD 46 2C 14
  1128)       971.549 1  Rx        0331 -  8    B3 0C D5 B4 A0 64 4B 7B
  1129)       971.677 1  Rx        011B -  7    DE 7A B5 41 42 AD 2B
  1130)       971.805 1  Rx        006E -  7    9B E2 5E 1E 9B 16 85
  1131)       971.933 1  Rx        0106 -  7    9A C6 B1 59 6A E0 E1
  1132)       972.061 1  Rx        0132 -  7    A8 25 9A E9 CD 0B 86
  1133)       972.189 1  Rx        0308 -  8    CA B2 91 85 D9 2F 98 93
  1134)       972.403 1  Rx        0206 -  7    62 36 02 5C FD EA F8
  1135)       972.531 1  Rx        0212 -  7    C6 64 D8 DC 0F 87 A8
  1136)       972.744 1  Rx        0222 -  8    71 6A D2 BD 56 D2 71 37
  1137)       972.957 1  Rx        0459 -  8    CB 18 C4 41 8B 42 D1 54
  1138)       973.085 1  Rx        0451 -  8    04 40 F0 18 1F 2D 39 99
  1139)       973.213 1  Rx        0441 -  8    7F FB 1E 3A A4 E4 4A E3
  1140)       973.384 1  Rx    1AFB1C04 -  8    23 87 B5 CA 8F 8A 6A 66
  1141)       973.512 1  Rx    1AFB1C00 -  8    1D 4D D4 9D 6D C1 11 80
  1142)       973.640 1  Rx        0419 -  8    A3 51 68 A6 0D CC BB E7
  1143)       984.733 1  Rx        0332 -  8    2F 8A 26 30 C8 F9 24 82
  1144)       985.288 1  Rx        011A -  5    C8 FD 46 F8 92
  1145)       986.013 1  Rx        0331 -  8    B3 34 47 18 35 64 4B 03
  1146)       986.781 1  Rx        011B -  7    B8 7A B5 36 42 AD 38
  1147)       987.464 1  Rx        006E -  7    9B E2 5E 1E 62 16 85
  1148)       987.933 1  Rx        0106 -  7    03 C6 B1 59 B2 32 E1
  1149)       988.531 1  Rx        0132 -  7    A8 29 C8 E9 CD A8 7C
  1150)       989.171 1  Rx        0308 -  8    CA C0 91 6B D8 2F 98 93
  1151)       989.768 1  Rx        0206 -  7    62 36 75 E8 C0 E2 F8
  1152)       990.365 1  Rx        0212 -  7    B9 80 2C 66 0F 4F 7B
  1153)       991.133 1  Rx        0222 -  8    1E 93 D2 F0 00 D2 A7 D6
  1154)       991.645 1  Rx        0459 -  8    CB 05 5F 41 8B 42 D1 54
  1155)       992.370 1  Rx        0451 -  8    6D 57 2B 89 1F EE 72 99
  1156)       992.712 1  Rx        0441 -  8    7F 56 6D D7 1D 61 13 E3
  1157)       993.053 1  Rx    1AFB1C04 -  8    23 CA 45 CA 8F 55 6A 66
  1158)       993.522 1  Rx    1AFB1C00 -  8    24 1E C8 16 6D 3F 68 E6
  1159)       994.077 1  Rx        0419 -  8    A3 8D 68 EE 03 74 BB E7
  1160)      1005.042 1  Rx        0332 -  8    F0 BA 26 4F C8 2F D5 B0
  1161)      1005.512 1  Rx        011A -  5    A8 FD 43 2C AF
  1162)      1006.152 1  Rx        0331 -  8    03 33 47 18 35 64 10 03
  1163)      1007.133 1  Rx        011B -  7    B8 2F B1 F3 42 4B 38
  1164)      1007.901 1  Rx        006E -  7    9B E2 16 69 62 F3 85
  1165)      1008.626 1  Rx        0106 -  7    96 C6 02 59 B2 3F AB
  1166)      1009.266 1  Rx        0132 -  7    A8 29 C8 E9 CD 4D 7C
  1167)      1009.949 1  Rx        0308 -  8    91 C0 73 55 4A BD 47 93
  1168)      1010.504 1  Rx        0206 -  7    06 36 14 FE C0 E2 F8
  1169)      1010.973 1  Rx        0212 -  7    D8 80 2C B3 0F 4F 7B
  1170)      1011.485 1  Rx        0222 -  8    1E 93 66 F0 00 CE A7 39
  1171)      1011.869 1  Rx        0459 -  8    CB 2A AF 08 8B 42 D1 54
  1172)      1012.338 1  Rx        0451 -  8    6D 57 C1 1E 1F 22 2E 99
  1173)      1012.680 1  Rx        0441 -  8    7F B4 6D D7 B7 37 13 12
  1174)      1013.149 1  Rx    1AFB1C04 -  8    27 08 01 CA 8F F3 5F 45
  1175)      1013.447 1  Rx    1AFB1C00 -  8    EB A9 C8 16 32 87 68 5F
  1176)      1013.746 1  Rx        0419 -  8    A3 2E 27 EE 03 D0 98 6C
  1177)      1024.413 1  Rx        0332 -  8    F0 BA 6F E4 C8 2F D5 B0
  1178)      1024.925 1  Rx        011A -  5    DA FD E1 21 AF
  1179)      1025.607 1  Rx        0331 -  8    03 E3 BC 7C 8D 64 91 1A
  1180)      1026.205 1  Rx        011B -  7    3D 91 B1 F3 42 4B FF
  1181)      1026.887 1  Rx        006E -  7    9B 9D 16 88 62 DD 3C
  1182)      1027.655 1  Rx        0106 -  7    96 CE 02 B8 B2 3F 4D
  1183)      1028.338 1  Rx        0132 -  7    D8 E4 C8 E9 40 2D 7C
  1184)      1028.935 1  Rx        0308 -  8    91 AE 1D 2E 4A BD F2 93
  1185)      1029.575 1  Rx        0206 -  7    06 36 BE FE C0 AE F8
  1186)      1030.002 1  Rx        0212 -  7    01 80 2C 7E 57 5C 1A
  1187)      1030.599 1  Rx        0222 -  8    1E 93 46 F0 00 39 EB 85
  1188)      1031.410 1  Rx        0459 -  8    3E 2A AF 08 8B 21 D1 19
  1189)      1032.093 1  Rx        0451 -  8    52 57 94 1E 1F 3F AE 99
  1190)      1032.562 1  Rx        0441 -  8    7F B4 6D 4C B7 37 13 12
  1191)      1033.074 1  Rx    1AFB1C04 -  8    27 45 B6 CA 8F C3 9D 45
  1192)      1033.543 1  Rx    1AFB1C00 -  8    6E FE C8 39 32 87 68 E4
  1193)      1033.970 1  Rx        0419 -  8    A3 46 27 EE 03 DF 98 6C
  1194)      1042.204 1  Rx        033B -  8    52 7E 22 F2 45 A1 54 D3
  1195)      1042.930 1  Rx        0339 -  8    72 35 A2 77 97 24 DF E7
  1196)      1043.356 1  Rx        0337 -  7    97 11 3B 94 2F 61 04
  1197)      1043.826 1  Rx        001F -  5    5E 2C 20 28 4D
  1198)      1044.124 1  Rx        0333 -  4    95 BE 3C 4B
  1199)      1044.807 1  Rx        0335 -  8    31 91 EB 32 D2 A6 BF E6
  1200)      1044.978 1  Rx        0332 -  8    88 BA 92 7E C8 2F D5 0B
  1201)      1045.532 1  Rx        0121 -  4    0C B7 76 13
  1202)      1045.618 1  Rx        011A -  5    DA FD E1 21 AF
  1203)      1046.215 1  Rx        067F -  8    E4 61 BC 82 B8 15 7B 23
  1204)      1046.471 1  Rx        0331 -  8    03 E3 3B DB D6 C0 10 1A
  1205)      1046.940 1  Rx        0681 -  8    5B 4E 2A 64 0F F7 C1 D7
  1206)      1047.068 1  Rx        011B -  7    20 91 B1 80 42 4B FF
  1207)      1047.751 1  Rx        0309 -  8    4A 50 27 43 F5 A8 1C 4A
  1208)      1047.922 1  Rx        006E -  7    81 3E 16 D0 38 DD D3
  1209)      1048.519 1  Rx        030A -  8    76 AF EB 79 7A 37 E2 AC
  1210)      1048.732 1  Rx        0106 -  7    96 58 02 B8 B2 CF 4D
  1211)      1049.330 1  Rx        0622 -  6    03 F3 39 A4 97 BB
  1212)      1049.586 1  Rx        0132 -  7    D8 E4 C8 26 40 2D 7C
  1213)      1050.098 1  Rx        0413 -  6    F9 45 ED 86 94 BA
  1214)      1050.354 1  Rx        0308 -  8    F9 AE 5D B0 D2 BD FC 93
  1215)      1050.567 1  Rx        0402 -  3    78 2F 17
  1216)      1050.738 1  Rx        0206 -  7    06 36 E8 FE D9 AE 03
  1217)      1051.036 1  Rx        0739 -  8    EF B5 56 41 5E 61 79 3C
  1218)      1051.164 1  Rx        0212 -  7    01 80 2C 7E E6 5C 1A
  1219)      1051.420 1  Rx        0411 -  8    F7 72 6E 6C 05 3D 9D 44
  1220)      1051.591 1  Rx        0222 -  8    1E 04 46 F0 3D 39 69 85
  1221)      1052.188 1  Rx        0729 -  8    8F 97 D1 91 EC 36 DA 10
  1222)      1052.444 1  Rx        0459 -  8    3E 2A 57 08 62 C7 4C EB
  1223)      1053.084 1  Rx        0728 -  8    C8 B7 6F 81 BA F0 67 71
  1224)      1053.255 1  Rx        0451 -  8    05 2D 98 51 47 3F B2 99
  1225)      1053.852 1  Rx        0709 -  8    DD E3 CE 28 A2 9B 96 97
  1226)      1053.980 1  Rx        0441 -  8    7F 05 6D 11 63 37 D6 12
  1227)      1054.492 1  Rx        0711 -  8    5A 15 5C 9F 53 43 BA 4D
  1228)      1054.663 1  Rx    1AFB1C04 -  8    5B CA 8F 4B 12 C3 95 E9
  1229)      1055.090 1  Rx    1AFB1C00 -  8    6E 26 C8 39 E2 D1 1A E4
  1230)      1055.772 1  Rx        0419 -  8    85 46 27 41 03 A1 98 94
  1231)      1066.993 1  Rx        0332 -  8    88 7D 92 7E C8 2F B1 0B
  1232)      1067.548 1  Rx        011A -  5    DA FD B1 3D AF
  1233)      1067.889 1  Rx        0331 -  8    03 56 3B 90 64 33 43 7E
  1234)      1068.231 1  Rx        011B -  7    BA 91 0E 80 42 4B AD
  1235)      1068.572 1  Rx        006E -  7    1A B3 16 D0 EC 08 D3
  1236)      1068.871 1  Rx        0106 -  7    2E 58 02 B8 BA 1D 4D
  1237)      1069.212 1  Rx        0132 -  7    7E E4 C8 26 57 2D 7C
  1238)      1069.511 1  Rx        0308 -  8    B6 AE 5D 4E D2 01 FC A6
  1239)      1069.895 1  Rx        0206 -  7    7C 79 0E 95 D9 AE B4
  1240)      1070.151 1  Rx        0212 -  7    01 80 2C 7E 1A 5C 26
  1241)      1070.407 1  Rx        0222 -  8    1E 3D 73 F0 6E 39 69 66
  1242)      1070.705 1  Rx        0459 -  8    3E 2A E3 08 62 C7 59 A5
  1243)      1071.089 1  Rx        0451 -  8    05 2D 0A C8 47 3F D0 99
  1244)      1071.559 1  Rx        0441 -  8    7F 1E 7B A0 11 37 D6 12
  1245)      1072.156 1  Rx    1AFB1C04 -  8    5B CA 8F DF 12 C0 F5 4B
  1246)      1072.668 1  Rx    1AFB1C00 -  8    B2 26 6D 97 47 D1 1A E4
  1247)      1073.180 1  Rx        0419 -  8    DC D0 27 41 03 75 1B 94
  1248)      1084.188 1  Rx        0332 -  8    0C AE A2 9F C8 F2 25 C7
  1249)      1084.742 1  Rx        011A -  5    DA 03 46 3D AF
  1250)      1085.382 1  Rx        0331 -  8    AD 56 50 90 64 33 43 7E
  1251)      1085.937 1  Rx        011B -  7    5C CA 0E 96 22 C2 D8
  1252)      1086.236 1  Rx        006E -  7    1A 25 CF 8E 70 08 5D
  1253)      1086.577 1  Rx        0106 -  7    2E 58 50 B8 6A 1D 4D
  1254)      1086.876 1  Rx        0132 -  7    7E A3 9A 51 57 6D 7C
  1255)      1087.217 1  Rx        0308 -  8    B6 AE 5D 4E D2 DC 0C 42
  1256)      1087.601 1  Rx        0206 -  7    7C 12 0E 7B 43 AE B4
  1257)      1088.070 1  Rx        0212 -  7    01 CC CE 5F B6 5C F8
  1258)      1088.625 1  Rx        0222 -  8    F8 8E 73 B6 6E E2 69 66
  1259)      1089.308 1  Rx        0459 -  8    3E 50 31 36 AF 47 16 A5
  1260)      1089.862 1  Rx        0451 -  8    FC 31 45 EC 65 F5 D0 86
  1261)      1090.246 1  Rx        0441 -  8    7F 1A 35 FB 79 C5 D6 12
  1262)      1090.588 1  Rx    1AFB1C04 -  8    1B 5C 8F 08 12 36 F5 67
  1263)      1090.886 1  Rx    1AFB1C00 -  8    B2 26 6D 97 A8 D1 1A E4
  1264)      1091.142 1  Rx        0419 -  8    DC D0 CB F4 BF CC 1B A3
  1265)      1096.433 1  Rx        033A -  8    B7 A5 9E 99 74 F3 DE 47
  1266)      1096.988 1  Rx        0336 -  8    9E 0B 2F 51 21 F4 48 F5
  1267)      1097.329 1  Rx        0334 -  8    E8 C5 6B 9F 33 C5 D3 27
  1268)      1097.713 1  Rx        06DD -  8    30 C7 6E 2E 47 C2 EE 16
  1269)      1098.054 1  Rx        0799 -  8    1A 46 8B 71 50 F9 96 1F
  1270)      1102.449 1  Rx        0332 -  8    0C 0C 4A 60 C8 F2 25 5F
  1271)      1102.790 1  Rx        011A -  5    DA 03 46 02 47
  1272)      1103.089 1  Rx        0331 -  8    16 56 D1 90 64 33 E0 7E
  1273)      1103.345 1  Rx        011B -  7    5C CA A8 96 22 C2 AE
  1274)      1103.643 1  Rx        006E -  7    1A 25 CF 7E 3F 08 5D
  1275)      1103.857 1  Rx        0106 -  7    2E 58 CF FA 6A 1D 8B
  1276)      1104.326 1  Rx        0132 -  7    7E 68 9A FA 9C 61 89
  1277)      1104.667 1  Rx        0308 -  8    B6 B2 FE CD D2 CB 0C 71
  1278)      1105.094 1  Rx        0206 -  7    7C BB 0E 59 43 AE 62
  1279)      1105.563 1  Rx        0212 -  7    BE D7 CE F1 B6 5C 2F
  1280)      1106.033 1  Rx        0222 -  8    F8 8E 73 24 6E E2 69 30
  1281)      1106.630 1  Rx        0459 -  8    92 E5 7C 38 AF 47 16 A5
  1282)      1106.971 1  Rx        0451 -  8    56 B1 45 EC 65 EA D0 57
  1283)      1107.483 1  Rx        0441 -  8    7F 11 32 30 90 C5 C6 07
  1284)      1107.910 1  Rx    1AFB1C04 -  8    1B 63 8F DB 95 36 F5 67
  1285)      1108.379 1  Rx    1AFB1C00 -  8    B2 26 53 59 A8 D1 1A E4
  1286)      1108.763 1  Rx        0419 -  8    DC 78 CB 61 BF CC 1B A3
  1287)      1120.155 1  Rx        0332 -  8    39 0C 63 34 C8 D1 32 5F
  1288)      1120.667 1  Rx        011A -  5    EF 03 46 D6 47
  1289)      1121.392 1  Rx        0331 -  8    16 56 FB 90 64 46 E0 7E
  1290)      1122.032 1  Rx        011B -  7    61 CA 4C 96 E8 C2 A7
  1291)      1123.142 1  Rx        006E -  7    1A AD 78 35 3F 08 09
  1292)      1123.782 1  Rx        0106 -  7    2E 58 CF FA 23 1D 32
  1293)      1124.208 1  Rx        0132 -  7    35 68 F1 FA 28 61 E7
  1294)      1124.592 1  Rx        0308 -  8    C6 B2 F9 CD C7 5A 06 71
  1295)      1125.232 1  Rx        0206 -  7    7C BB 60 03 49 AE 62
  1296)      1125.744 1  Rx        0212 -  7    69 8E E8 F1 BE 0A 2F
  1297)      1126.128 1  Rx        0222 -  8    CA A7 73 2A 6E E2 69 30
  1298)      1126.512 1  Rx        0459 -  8    F4 6C 55 38 CC 47 16 A1
  1299)      1126.854 1  Rx        0451 -  8    56 17 45 EC 9E 68 D5 57
  1300)      1127.110 1  Rx        0441 -  8    B0 30 C2 30 90 2D C6 74
  1301)      1127.451 1  Rx    1AFB1C04 -  8    1B 2A 8F DB 75 36 F5 B7
  1302)      1127.707 1  Rx    1AFB1C00 -  8    B2 08 53 50 A8 B6 8A 9A
  1303)      1128.006 1  Rx        0419 -  8    DC E4 CB 61 BF CC F1 A3
  1304)      1139.952 1  Rx        0332 -  8    BC F7 9E 58 C8 CA 4E B0
  1305)      1140.550 1  Rx        011A -  5    EF 2C 46 38 47
  1306)      1141.189 1  Rx        0331 -  8    16 3A FB FC 64 BC E0 C7
  1307)      1141.701 1  Rx        011B -  7    61 53 4C 96 E8 C2 A7
  1308)      1142.256 1  Rx        006E -  7    B5 AD E8 28 99 08 09
  1309)      1142.725 1  Rx        0106 -  7    2E 81 AD FA 43 39 E7
  1310)      1142.939 1  Rx        0132 -  7    ED 68 F1 C4 28 61 E7
  1311)      1143.408 1  Rx        0308 -  8    95 B2 03 CD C6 5A 06 14
  1312)      1143.621 1  Rx        0206 -  7    EF BB 60 03 49 AE 62
  1313)      1143.877 1  Rx        0212 -  7    E3 5B E8 2A BE 47 2F
  1314)      1144.176 1  Rx        0222 -  8    CA A7 45 0C 6E E2 0E 14
  1315)      1144.560 1  Rx        0459 -  8    36 6C 55 38 52 47 5A A1
  1316)      1144.987 1  Rx        0451 -  8    C5 7C 40 EC 9E 68 D5 57
  1317)      1145.243 1  Rx        0441 -  8    D9 30 C2 30 8D 98 F7 15
  1318)      1145.541 1  Rx    1AFB1C04 -  8    E3 2A 8F DB 5B 36 F5 D0
  1319)      1145.797 1  Rx    1AFB1C00 -  8    B2 08 53 50 D0 B6 44 9A
  1320)      1146.096 1  Rx        0419 -  8    DC EA CB 13 13 2D AE 17
  1321)      1155.525 1  Rx        033B -  8    52 7E 22 F2 45 A1 C9 D3
  1322)      1155.995 1  Rx        0339 -  8    72 35 8C 53 97 24 DF CA
  1323)      1156.336 1  Rx        0332 -  8    B3 03 64 C1 5A 5F 80 B8
  1324)      1156.464 1  Rx        011A -  5    E2 08 FF 95 54
  1325)      1156.592 1  Rx        0331 -  8    03 BF A2 24 A2 FC A4 B6
  1326)      1156.720 1  Rx        011B -  7    A7 DC 7D EF 14 C6 F5
  1327)      1156.848 1  Rx        006E -  7    93 B9 88 EE 0D 6B E0
  1328)      1156.976 1  Rx        0106 -  7    FD 13 A8 5E 40 D5 BE
  1329)      1157.104 1  Rx        0132 -  7    4D 2B 0F C7 25 B5 DC
  1330)      1157.232 1  Rx        0308 -  8    E2 FE 84 24 B6 69 EE E9
  1331)      1157.360 1  Rx        0206 -  7    7D 66 35 A1 C9 A9 A7
  1332)      1157.744 1  Rx        0212 -  7    8C 94 33 99 71 6B F1
  1333)      1157.872 1  Rx        0222 -  8    5C 76 5C 76 A5 AE 13 20
  1334)      1158.000 1  Rx        0459 -  8    43 64 88 A1 C0 7D 3E B1
  1335)      1158.128 1  Rx        0451 -  8    C9 39 2D 7F A9 42 48 85
  1336)      1158.256 1  Rx        0337 -  7    15 B1 3B 9A 2F 61 3F
  1337)      1158.384 1  Rx        0441 -  8    B7 E7 AD 32 E4 36 79 49
  1338)      1158.555 1  Rx    1AFB1C04 -  8    9C 70 A8 51 C3 EA 08 2D
  1339)      1158.683 1  Rx    1AFB1C00 -  8    F5 EC 90 07 20 B6 08 7F
  1340)      1158.811 1  Rx        0419 -  8    D8 3D C1 69 9E 95 2D AD
  1341)      1158.939 1  Rx        001F -  5    E5 2D D4 13 4D
  1342)      1159.024 1  Rx        0333 -  4    18 A0 D3 C9
  1343)      1159.152 1  Rx        0335 -  8    5A 3F EB 32 D2 F4 BF E6
  1344)      1159.280 1  Rx        0121 -  4    F0 B7 76 FF
  1345)      1159.579 1  Rx        067F -  8    13 61 B1 3E 9E F2 7B DC
  1346)      1159.920 1  Rx        0681 -  8    5B BF EF 64 0F EA EE D7
  1347)      1160.219 1  Rx        0309 -  8    4A 50 03 09 67 A8 08 7C
  1348)      1160.517 1  Rx        030A -  8    E9 9E D2 79 7A 37 34 AC
  1349)      1160.773 1  Rx        0622 -  6    03 B1 58 80 97 BB
  1350)      1161.029 1  Rx        0413 -  6    52 8F ED 86 23 5D
  1351)      1161.243 1  Rx        0402 -  3    78 2F 17
  1352)      1161.499 1  Rx        0739 -  8    EF BD C1 36 5E 61 79 D2
  1353)      1161.840 1  Rx        0411 -  8    F7 E0 6E C0 46 3D EF 44
  1354)      1162.096 1  Rx        0729 -  8    8F 0A 0B 91 7F 0E DA 10
  1355)      1162.309 1  Rx        0728 -  8    03 B7 6F 81 BA F0 67 A9
  1356)      1162.565 1  Rx        0709 -  8    F6 E3 CE 28 B2 9B 71 A8
  1357)      1162.864 1  Rx        0711 -  8    5A 15 B0 1E 6B 43 BA C5
  1358)      1168.922 1  Rx        0332 -  8    2C BB 64 79 AD 12 7D B8
  1359)      1169.349 1  Rx        011A -  5    7F 08 FF 95 54
  1360)      1169.946 1  Rx        0331 -  8    C4 BF 3E 24 A2 3D C2 B6
  1361)      1170.288 1  Rx        011B -  7    B5 84 7D EF A7 B6 23
  1362)      1170.757 1  Rx        006E -  7    6A B9 32 E4 17 6B E0
  1363)      1171.226 1  Rx        0106 -  7    FD 13 2F CA 40 47 27
  1364)      1171.824 1  Rx        0132 -  7    4D B0 30 10 28 B5 F6
  1365)      1172.506 1  Rx        0308 -  8    AC FE 54 24 B6 EC 61 E9
  1366)      1172.976 1  Rx        0206 -  7    7D 72 35 F7 A4 89 BF
  1367)      1173.402 1  Rx        0212 -  7    77 35 45 99 BB 6B F1
  1368)      1173.872 1  Rx        0222 -  8    D6 E2 61 76 44 85 13 17
  1369)      1174.170 1  Rx        0459 -  8    43 64 88 16 C0 C4 3E B1
  1370)      1174.512 1  Rx        0451 -  8    05 39 2D 3F A9 42 5E 85
  1371)      1174.853 1  Rx        0441 -  8    B7 E4 AD 32 98 47 79 49
  1372)      1175.194 1  Rx    1AFB1C04 -  8    9C 70 A5 51 09 C1 B0 E8
  1373)      1175.536 1  Rx    1AFB1C00 -  8    E7 22 CA 07 81 B6 41 7F
  1374)      1175.877 1  Rx        0419 -  8    D8 75 C1 69 9E F0 C3 AD
  1375)      1187.653 1  Rx        0332 -  8    6B 03 50 09 AD 4E 17 B8
  1376)      1188.122 1  Rx        011A -  5    7F 76 FF 95 A6
  1377)      1188.847 1  Rx        0331 -  8    2D BF 58 24 A2 3D 65 B6
  1378)      1189.487 1  Rx        011B -  7    D0 A9 93 71 A7 08 5B
  1379)      1190.085 1  Rx        006E -  7    6A 52 78 7C 17 6B E0
  1380)      1190.469 1  Rx        0106 -  7    FD 13 C7 CA 36 FE 27
  1381)      1190.853 1  Rx        0132 -  7    4D B0 30 10 90 72 F6
  1382)      1191.194 1  Rx        0308 -  8    D5 57 54 24 9C EC 61 81
  1383)      1191.578 1  Rx        0206 -  7    74 72 5E F7 A4 89 F5
  1384)      1191.962 1  Rx        0212 -  7    77 35 45 54 BB F3 20
  1385)      1192.303 1  Rx        0222 -  8    29 E2 5B 76 4C 85 C8 17
  1386)      1192.602 1  Rx        0459 -  8    AC 64 13 16 C0 C4 3E B1
  1387)      1193.029 1  Rx        0451 -  8    EC B8 5C B6 66 87 5E 5A
  1388)      1193.413 1  Rx        0441 -  8    AB E4 AD D5 98 28 11 5F
  1389)      1193.754 1  Rx    1AFB1C04 -  8    9C 92 A0 DA 09 C1 3F E8
  1390)      1194.095 1  Rx    1AFB1C00 -  8    CB A0 CA 07 85 B6 41 7F
  1391)      1194.309 1  Rx        0419 -  8    6B FD 89 69 9E F0 A9 AD
  1392)      1204.847 1  Rx        0332 -  8    6B 47 6C 39 2F 4E 17 80
  1393)      1205.487 1  Rx        011A -  5    7F 76 C5 95 17
  1394)      1206.127 1  Rx        0331 -  8    2D A6 58 24 A2 3D 65 B6
  1395)      1206.767 1  Rx        011B -  7    2E 5F 93 89 A7 6D 5B
  1396)      1207.279 1  Rx        006E -  7    58 B4 78 F8 4A 9D EB
  1397)      1207.748 1  Rx        0106 -  7    AF 3B C7 D2 9A E5 27
  1398)      1208.260 1  Rx        0132 -  7    1D C7 AF FB FF 44 77
  1399)      1208.559 1  Rx        0308 -  8    42 49 54 24 9C EC 61 AF
  1400)      1208.858 1  Rx        0206 -  7    74 72 5E F7 77 49 9E
  1401)      1209.199 1  Rx        0212 -  7    77 1F E2 01 86 54 20
  1402)      1209.498 1  Rx        0222 -  8    29 60 5B 37 39 85 C8 17
  1403)      1209.839 1  Rx        0459 -  8    79 64 13 16 C0 C4 05 B1
  1404)      1210.138 1  Rx        0451 -  8    E4 E5 5C B6 66 87 17 A2
  1405)      1210.522 1  Rx        0441 -  8    7F F0 34 43 98 F7 6B 49
  1406)      1210.906 1  Rx    1AFB1C04 -  8    9C DE A0 33 09 C1 A0 E8
  1407)      1211.247 1  Rx    1AFB1C00 -  8    CB C1 CA 07 85 19 41 7F
  1408)      1211.631 1  Rx        0419 -  8    6B FD 89 E9 9E F0 A9 14
  1409)      1223.236 1  Rx        0332 -  8    6B 47 6C 39 28 4E 17 FC
  1410)      1223.962 1  Rx        011A -  5    3E 76 C5 CA 9D
  1411)      1224.559 1  Rx        0331 -  8    2D A6 D5 24 A2 3D 65 CE
  1412)      1225.327 1  Rx        011B -  7    78 3B 93 CD A7 25 75
  1413)      1225.754 1  Rx        006E -  7    6E B4 3B ED EB 9D BA
  1414)      1226.180 1  Rx        0106 -  7    2E 53 C1 3B 9A E5 7A
