;$FILEVERSION=1.3
;$STARTTIME=45022.447523185343
;
;   Start time: 06/04/2023 10:44:26.003.2
;   Generated by PCAN-Explorer v6.6.1.2744
;-------------------------------------------------------------------------------
;   Bus  Connection   Net Connection    Protocol  Bit rate
;   1    Connection1  Rexroth@pcan_usb  CAN       1 Mbit/s
;-------------------------------------------------------------------------------
;   Message   Time    Bus  Type   ID    Reserved
;   Number    Offset  |    |      [hex] |   Data Length Code
;   |         [ms]    |    |      |     |   |    Data [hex] ...
;   |         |       |    |      |     |   |    |
;---+-- ------+------ +- --+-- ---+---- +- -+-- -+ -- -- -- -- -- -- --
     1)      8856.001 1  Rx        0332 -  8    C1 FB 2A 53 75 E3 FA 60
     2)      8856.257 1  Rx        011A -  5    DA 03 EC F9 84
     3)      8856.427 1  Rx        0331 -  8    BB 31 7A 55 A7 24 E6 0F
     4)      8856.555 1  Rx        011B -  7    98 48 CB 45 E6 DB 28
     5)      8857.110 1  Rx        033B -  8    BC 1F D3 1F BD 73 A0 08
     6)      8857.238 1  Rx        006E -  7    6D 9F 59 B8 13 A0 BF
     7)      8858.006 1  Rx        033A -  8    F0 FC AF A7 C5 00 99 D1
     8)      8858.134 1  Rx        0106 -  7    D3 C5 A2 62 4E 83 D7
     9)      8858.262 1  Rx        0132 -  7    FC 98 6F CF 5E B3 48
    10)      8858.390 1  Rx        0308 -  8    1E 9B 95 E6 CF D6 F4 3C
    11)      8858.518 1  Rx        0336 -  8    02 30 32 7B 74 55 83 A4
    12)      8858.646 1  Rx        0339 -  8    9B FC 95 49 35 4D 57 52
    13)      8858.774 1  Rx        0206 -  7    E9 55 01 70 76 3D 5A
    14)      8858.902 1  Rx        0334 -  8    69 E4 7E EB DC 56 84 70
    15)      8859.073 1  Rx        06DD -  8    E7 EC 0C 54 25 75 AB E9
    16)      8859.201 1  Rx        0799 -  8    9F 6B FE 0B 92 02 71 08
    17)      8859.286 1  Rx        0212 -  7    2C 8C 4B D5 2B 15 CA
    18)      8859.414 1  Rx        0337 -  7    E3 DA 48 44 ED 50 5A
    19)      8859.542 1  Rx        001F -  5    51 D8 5C E8 9A
    20)      8859.627 1  Rx        0333 -  4    AA 1A 09 71
    21)      8859.755 1  Rx        0222 -  8    28 33 78 5C 8F 7C 59 AA
    22)      8860.139 1  Rx        0335 -  8    29 38 F9 01 E0 9F 5D ED
    23)      8860.267 1  Rx        0459 -  8    DD 48 A0 8D 9F 7A CE 17
    24)      8860.353 1  Rx        0121 -  4    F4 4E 4F 87
    25)      8860.523 1  Rx        0451 -  8    48 ED 32 65 AF 01 8A 73
    26)      8860.822 1  Rx        0441 -  8    AF DC 77 AE 67 BF DB F3
    27)      8860.950 1  Rx        067F -  8    FB 05 F8 5F 77 38 22 A5
    28)      8861.078 1  Rx        0681 -  8    28 B6 FE 45 31 6F 0D B5
    29)      8861.206 1  Rx    1AFB1C04 -  8    FD C5 BB 2D 77 48 0D CD
    30)      8861.334 1  Rx        0309 -  8    8B E1 E7 69 C9 D7 17 1E
    31)      8861.505 1  Rx    1AFB1C00 -  8    CC 0D 10 4F 29 59 75 A9
    32)      8861.633 1  Rx        030A -  8    4E 33 77 35 75 BD 2C B1
    33)      8861.761 1  Rx        0419 -  8    C1 F9 7A AC E0 22 04 72
    34)      8861.889 1  Rx        0622 -  6    28 5A 35 60 82 C6
    35)      8861.974 1  Rx        0413 -  6    62 52 BD 51 A1 54
    36)      8862.145 1  Rx        0411 -  8    F7 CA 9D 27 D6 FB 7F F6
    37)      8862.230 1  Rx        0402 -  3    CB 60 48
    38)      8862.358 1  Rx        0739 -  8    48 08 52 E4 46 F9 06 04
    39)      8862.486 1  Rx        0729 -  8    28 4F 2C 0D C0 CF C8 F4
    40)      8862.614 1  Rx        0728 -  8    3D BA 93 BD 6D 18 4C 48
    41)      8862.742 1  Rx        0709 -  8    D4 9A 83 77 02 0B F6 52
    42)      8862.870 1  Rx        0711 -  8    CF 06 D1 1E 50 4B C0 7F
    43)      8873.152 1  Rx        0332 -  8    A8 41 75 24 09 EB DD 92
    44)      8873.280 1  Rx        011A -  5    2E 6E BF 7C 85
    45)      8873.451 1  Rx        0331 -  8    26 00 21 72 B0 D0 89 EB
    46)      8873.579 1  Rx        011B -  7    8A FF EB 4D 2B 54 8A
    47)      8873.707 1  Rx        006E -  7    EA 86 5A B1 B9 AA EC
    48)      8873.835 1  Rx        0106 -  7    28 04 8C 46 EA 31 2B
    49)      8873.963 1  Rx        0132 -  7    6B 51 3F 89 EC 1B C2
    50)      8874.091 1  Rx        0308 -  8    D7 83 D6 05 F5 65 35 08
    51)      8874.219 1  Rx        0206 -  7    5F AD B6 83 88 F9 B7
    52)      8874.347 1  Rx        0212 -  7    6E 9B D5 7F FB ED 10
    53)      8874.475 1  Rx        0222 -  8    66 69 FB 3D E1 54 AE DB
    54)      8874.603 1  Rx        0459 -  8    9D 5E 15 CC CB 56 1F 91
    55)      8874.731 1  Rx        0451 -  8    4F B0 8F 6B F0 1B 74 0F
    56)      8874.859 1  Rx        0441 -  8    25 19 7A DA DE E4 ED D6
    57)      8875.030 1  Rx    1AFB1C04 -  8    91 BB D7 09 77 80 04 EC
    58)      8875.158 1  Rx    1AFB1C00 -  8    FC 50 CB C9 35 FF 11 80
    59)      8875.328 1  Rx        0419 -  8    3E DE A9 03 FB D8 AD F9
    60)      8875.456 1  Rx        0411 -  8    B2 2A EB A4 6B A7 B7 E3
    61)      8884.758 1  Rx        0332 -  8    E7 87 6F D4 52 E6 32 A5
    62)      8884.843 1  Rx        011A -  5    ED 03 71 62 DE
    63)      8884.971 1  Rx        0331 -  8    DE E0 B5 9D 05 41 30 04
    64)      8885.099 1  Rx        011B -  7    8F 35 95 87 BC B6 61
    65)      8885.227 1  Rx        006E -  7    10 3B 0D F9 FE 79 08
    66)      8885.355 1  Rx        0106 -  7    CB 14 3D C1 6B 5E C0
    67)      8885.483 1  Rx        0132 -  7    F7 0C 26 1A 31 A2 FA
    68)      8885.611 1  Rx        0308 -  8    B1 8A F4 CF E9 00 AB 02
    69)      8885.739 1  Rx        0206 -  7    D1 C5 D4 D2 60 30 45
    70)      8885.867 1  Rx        0212 -  7    F7 66 5E 2C 81 27 BA
    71)      8885.995 1  Rx        0222 -  8    96 C1 E6 89 16 B3 85 35
    72)      8886.123 1  Rx        0459 -  8    F9 47 EF BC 53 E6 3A 63
    73)      8886.251 1  Rx        0451 -  8    2B C3 51 12 E6 55 6B A3
    74)      8886.379 1  Rx        0441 -  8    C9 E9 9E 66 54 85 3C A2
    75)      8886.550 1  Rx    1AFB1C04 -  8    E1 5A 1A CE F5 35 73 5B
    76)      8886.678 1  Rx    1AFB1C00 -  8    1E 65 72 0D 2C 23 E1 12
    77)      8886.806 1  Rx        0419 -  8    03 0A FD 88 8D 03 F5 D9
    78)      8886.976 1  Rx        0411 -  8    FD 48 AC 6B 9B 86 6C 56
    79)      8896.533 1  Rx        0332 -  8    E8 F0 23 9F AF 05 F7 34
    80)      8896.619 1  Rx        011A -  5    0B 50 F1 4F 17
    81)      8896.747 1  Rx        0331 -  8    85 B5 BE 89 3E 2A 01 5F
    82)      8896.875 1  Rx        011B -  7    F3 48 93 3B 2F 71 9B
    83)      8897.003 1  Rx        006E -  7    BE 36 FB 1B CB FB 88
    84)      8897.131 1  Rx        0106 -  7    97 2B B6 D0 41 71 46
    85)      8897.259 1  Rx        0132 -  7    17 8D 62 E9 87 C4 E2
    86)      8897.387 1  Rx        0308 -  8    F4 A9 F3 39 BD 95 F4 6B
    87)      8897.515 1  Rx        0206 -  7    EE F8 23 36 7D 30 63
    88)      8897.643 1  Rx        0212 -  7    E2 1E 11 C2 C2 6C F8
    89)      8897.771 1  Rx        0222 -  8    5B 35 0D 45 63 3F 69 CA
    90)      8897.899 1  Rx        0459 -  8    26 D0 BC 70 1E C0 FE 01
    91)      8898.027 1  Rx        0451 -  8    AB 73 31 8C B6 0D 5F 10
    92)      8898.155 1  Rx        0441 -  8    F7 C0 C1 90 BD E1 F1 54
    93)      8898.325 1  Rx    1AFB1C04 -  8    AE 50 C7 81 83 BB 71 C4
    94)      8898.496 1  Rx    1AFB1C00 -  8    22 1E 09 E8 AA 7D 6B CF
    95)      8898.624 1  Rx        0419 -  8    A5 BC F0 8A F1 A3 14 05
    96)      8898.752 1  Rx        0411 -  8    CA 90 AA DB 85 B8 A1 DC
    97)      8908.181 1  Rx        0332 -  8    19 0E 8C D9 40 76 2D 26
    98)      8908.309 1  Rx        011A -  5    F6 FC 9C D3 E9
    99)      8908.437 1  Rx        0331 -  8    45 71 2C 8F BF E0 63 F6
   100)      8908.565 1  Rx        011B -  7    23 34 7F 11 DE 06 D5
   101)      8908.693 1  Rx        006E -  7    86 0F E1 76 F5 3C 24
   102)      8908.821 1  Rx        0106 -  7    09 36 8D 1F 81 92 D3
   103)      8908.949 1  Rx        0132 -  7    C2 F5 41 6D 0C 4D F8
   104)      8909.077 1  Rx        0308 -  8    F0 82 5A CF 44 8F 94 E4
   105)      8909.205 1  Rx        0206 -  7    72 FD 16 37 64 24 DE
   106)      8909.333 1  Rx        0212 -  7    6A 5A F7 24 E4 4F 40
   107)      8909.461 1  Rx        0222 -  8    75 F8 A0 A6 E0 C3 47 DE
   108)      8909.589 1  Rx        0459 -  8    66 07 57 7E 37 65 C7 D8
   109)      8909.717 1  Rx        0451 -  8    29 9C 50 A8 7D AE EB 4A
   110)      8909.845 1  Rx        0441 -  8    43 9D 30 30 CC E0 6D B5
   111)      8910.016 1  Rx    1AFB1C04 -  8    B7 7C 11 D9 3E 72 98 0E
   112)      8910.186 1  Rx    1AFB1C00 -  8    27 0F CF 2D AB 4D 0A 43
   113)      8910.314 1  Rx        0419 -  8    D5 AC D0 8B 4F 9F 50 76
   114)      8910.442 1  Rx        0411 -  8    6D 67 17 94 A4 1B FB 8E
   115)      8919.872 1  Rx        0332 -  8    B8 15 DF E6 F3 0B AD 22
   116)      8920.000 1  Rx        011A -  5    36 22 88 CE CD
   117)      8920.128 1  Rx        0331 -  8    E6 5D 3B B4 29 93 CA C3
   118)      8920.256 1  Rx        011B -  7    5D 77 F2 D0 08 63 7E
   119)      8920.384 1  Rx        006E -  7    F3 24 2A B4 7F 78 E4
   120)      8920.512 1  Rx        0106 -  7    93 51 88 AA CC 3F FC
   121)      8920.640 1  Rx        0132 -  7    BD EF 7D 85 90 F9 EA
   122)      8920.768 1  Rx        0308 -  8    4F FF A2 19 E0 34 27 A8
   123)      8920.896 1  Rx        0206 -  7    1B A5 FE AE 62 91 67
   124)      8921.024 1  Rx        0212 -  7    96 E1 1B 96 CB DC E1
   125)      8921.152 1  Rx        0222 -  8    49 C8 41 86 73 A3 AA 4F
   126)      8921.280 1  Rx        0459 -  8    58 4E 60 99 1C 5B 3C FA
   127)      8921.408 1  Rx        0451 -  8    D2 C0 AB 08 9C D1 B7 A5
   128)      8921.536 1  Rx        0441 -  8    9E F0 FB 50 2F D6 A6 22
   129)      8921.664 1  Rx    1AFB1C04 -  8    74 9D 20 F8 00 90 91 AD
   130)      8921.834 1  Rx    1AFB1C00 -  8    43 B1 1A EC E4 E2 40 7B
   131)      8921.962 1  Rx        0419 -  8    69 79 DA 01 15 BC 1B 19
   132)      8922.090 1  Rx        0411 -  8    D4 9D 8E 09 8A 4E D7 1B
   133)      8931.903 1  Rx        0332 -  8    BA A8 AA 84 FA 4C 66 44
   134)      8931.989 1  Rx        011A -  5    5A 95 4C CC 69
   135)      8932.117 1  Rx        0331 -  8    19 B8 01 86 09 3B FC BD
   136)      8932.245 1  Rx        011B -  7    53 53 DF C6 56 F1 62
   137)      8932.373 1  Rx        006E -  7    AA 4E 73 0B 92 10 9B
   138)      8932.501 1  Rx        0106 -  7    27 43 C5 10 2B 20 C7
   139)      8932.629 1  Rx        0132 -  7    BF 5D 69 A3 3E D7 CF
   140)      8932.757 1  Rx        0308 -  8    F0 42 75 9C 50 00 25 89
   141)      8932.885 1  Rx        0206 -  7    A8 B8 27 E7 9E 09 87
   142)      8933.013 1  Rx        0212 -  7    0F 7A CA 04 B3 1D 73
   143)      8933.141 1  Rx        0222 -  8    80 07 60 58 FE 8B 3A 68
   144)      8933.269 1  Rx        0459 -  8    38 E2 0D B6 AF 97 30 30
   145)      8933.439 1  Rx        0451 -  8    92 0B EB 6F 12 EB EB D5
   146)      8933.567 1  Rx        0441 -  8    D8 AE 37 C4 97 C6 97 BC
   147)      8933.695 1  Rx    1AFB1C04 -  8    D9 92 9F 71 68 DC 4C 35
   148)      8933.866 1  Rx    1AFB1C00 -  8    7A 45 BE BA 25 C3 DF CE
   149)      8933.994 1  Rx        0419 -  8    1E 3D FE B4 2F 36 FC E7
   150)      8934.122 1  Rx        0411 -  8    78 AC 32 C6 F5 99 94 A1
   151)      8943.594 1  Rx        0332 -  8    B1 68 B8 2B 71 D0 2E A1
   152)      8943.679 1  Rx        011A -  5    52 57 14 0A 66
   153)      8943.807 1  Rx        0331 -  8    83 AB D5 03 77 4E 98 37
   154)      8943.935 1  Rx        011B -  7    FB DB 59 03 F7 76 2C
   155)      8944.063 1  Rx        006E -  7    65 D4 DA 01 1E DA A5
   156)      8944.191 1  Rx        0106 -  7    D4 CE 30 1A 89 2B AF
   157)      8944.319 1  Rx        0132 -  7    62 E2 60 6B 59 A7 F6
   158)      8944.447 1  Rx        0308 -  8    3E 84 AE 2D DE 15 4D 5A
   159)      8944.575 1  Rx        0206 -  7    25 A4 8E E7 03 8B F3
   160)      8944.703 1  Rx        0212 -  7    DF 22 D0 2F 65 AF 7C
   161)      8944.831 1  Rx        0222 -  8    0B 4C 9A F5 06 7B 28 60
   162)      8944.959 1  Rx        0459 -  8    BE CD A0 95 38 1C C5 B6
   163)      8945.087 1  Rx        0451 -  8    89 ED 6D 10 7A 7A F6 B9
   164)      8945.215 1  Rx        0441 -  8    8D C8 BC C1 40 DF B9 60
   165)      8945.386 1  Rx    1AFB1C04 -  8    98 68 56 FC DC FC F4 25
   166)      8945.557 1  Rx    1AFB1C00 -  8    F8 BF 72 B6 36 3E 8E AB
   167)      8945.685 1  Rx        0419 -  8    57 12 AA 65 68 B3 CD 1E
   168)      8945.813 1  Rx        0411 -  8    8D 52 EA 4A 86 61 7B 70
   169)      8955.114 1  Rx        0332 -  8    1B C5 A3 12 D9 02 60 2B
   170)      8955.242 1  Rx        011A -  5    2C 25 54 3D 3D
   171)      8955.412 1  Rx        0331 -  8    C0 B0 86 1A E4 AA 4C CF
   172)      8955.540 1  Rx        011B -  7    D2 7A 41 95 8F 4C DE
   173)      8955.626 1  Rx        006E -  7    4C 5C D2 AC BC 49 07
   174)      8955.754 1  Rx        0106 -  7    75 9D 0A 9F B1 D9 F8
   175)      8955.882 1  Rx        0132 -  7    7E 79 5A 59 37 79 57
   176)      8956.052 1  Rx        0308 -  8    DA 86 4E D7 A6 A2 C3 3F
   177)      8956.138 1  Rx        0206 -  7    84 9C 62 BF 3D AB 42
   178)      8956.266 1  Rx        0212 -  7    56 F2 81 72 3A 8F 7D
   179)      8956.394 1  Rx        0222 -  8    CD 02 F3 5B D8 42 8A 45
   180)      8956.564 1  Rx        0459 -  8    F0 5A 1F 8E D5 EC ED 4F
   181)      8956.692 1  Rx        0451 -  8    79 00 5B 04 D2 5B A3 93
   182)      8956.820 1  Rx        0441 -  8    CD 63 EA 03 4E 4C 83 93
   183)      8956.948 1  Rx    1AFB1C04 -  8    D9 86 A0 1F C4 6B C0 8A
   184)      8957.119 1  Rx    1AFB1C00 -  8    D4 E7 44 FE B6 9B 72 23
   185)      8957.247 1  Rx        0419 -  8    C7 AE BD 2C 75 DB 67 AF
   186)      8957.375 1  Rx        0411 -  8    E0 C3 7E CC A0 A7 84 A8
   187)      8962.836 1  Rx        033B -  8    61 1D C5 CD F9 BC 65 90
   188)      8962.964 1  Rx        0339 -  8    AE 71 0E F6 7B 9F F5 E7
   189)      8963.050 1  Rx        0337 -  7    37 3A EF 35 8D 01 50
   190)      8963.178 1  Rx        001F -  5    C7 B1 75 41 12
   191)      8963.263 1  Rx        0333 -  4    3C 0C FC BF
   192)      8963.391 1  Rx        0335 -  8    2F 2C FA D8 AE F6 2C 66
   193)      8963.519 1  Rx        0121 -  4    0B 65 D1 4A
   194)      8964.031 1  Rx        067F -  8    92 F4 5E E4 82 F7 FA 73
   195)      8964.159 1  Rx        0681 -  8    C5 E3 A3 02 90 CE 5C E3
   196)      8964.330 1  Rx        0309 -  8    47 6E 62 CD 3B D7 4A CA
   197)      8964.458 1  Rx        030A -  8    C2 10 50 C2 1E 54 91 5E
   198)      8964.543 1  Rx        0622 -  6    C5 E0 DB 1A 00 E7
   199)      8964.671 1  Rx        0413 -  6    CB DC 8A AA E6 2E
   200)      8964.756 1  Rx        0402 -  3    FB CE D7
   201)      8964.884 1  Rx        0739 -  8    3C B8 E9 A6 25 B3 BB 3B
   202)      8965.055 1  Rx        0729 -  8    8D 68 ED CD CC 9B 91 03
   203)      8965.183 1  Rx        0728 -  8    8F A7 0D 5F 22 05 3F C7
   204)      8965.311 1  Rx        0709 -  8    DC D4 AA 90 29 EA AE 49
   205)      8965.439 1  Rx        0711 -  8    63 DF 82 22 A3 1E 3A 43
   206)      8966.591 1  Rx        0332 -  8    E9 FD 42 54 03 0F EE 58
   207)      8966.676 1  Rx        011A -  5    95 3D 58 3C 45
   208)      8966.804 1  Rx        0331 -  8    6E 47 3B 16 8D B4 32 07
   209)      8966.932 1  Rx        011B -  7    28 06 F2 F4 E1 1E 5C
   210)      8967.060 1  Rx        006E -  7    4B 61 DA 9E DA B7 EB
   211)      8967.188 1  Rx        0106 -  7    E2 F4 A9 1B 6A CC 79
   212)      8967.316 1  Rx        0132 -  7    93 39 0B A3 CD 05 09
   213)      8967.444 1  Rx        0308 -  8    77 81 88 EF F8 F5 46 9D
   214)      8967.572 1  Rx        0206 -  7    D5 10 3B 28 FA 8A CE
   215)      8968.127 1  Rx        0212 -  7    5D 82 CF 29 8E 2A A3
   216)      8968.255 1  Rx        0222 -  8    3A 0B 3B 3F 46 25 7E 1D
   217)      8968.383 1  Rx        0459 -  8    29 9D 5E 2A 1C 8D DA 4E
   218)      8968.511 1  Rx        0451 -  8    89 0D 68 42 BA 93 88 4F
   219)      8968.639 1  Rx        0441 -  8    FB 3C EC 65 D6 43 B0 3D
   220)      8968.810 1  Rx    1AFB1C04 -  8    3B 19 F7 CA 45 DD AB 83
   221)      8968.938 1  Rx    1AFB1C00 -  8    06 D4 1A B4 98 04 33 A8
   222)      8969.108 1  Rx        0419 -  8    89 99 EB 18 E4 D7 22 C2
   223)      8969.236 1  Rx        0411 -  8    C0 6C DC C7 DA 43 0A 3D
   224)      8978.452 1  Rx        0332 -  8    E8 29 FE 5D F0 6F B0 16
   225)      8978.623 1  Rx        011A -  5    4F 3F 31 EC 1B
   226)      8978.751 1  Rx        0331 -  8    26 EA 20 55 B5 53 37 38
   227)      8978.879 1  Rx        011B -  7    DC 5A 34 13 85 1A 5A
   228)      8979.007 1  Rx        006E -  7    49 CA 4D 97 FA B3 81
   229)      8979.135 1  Rx        0106 -  7    CB 89 DA E0 95 04 FA
   230)      8979.263 1  Rx        0132 -  7    92 AA AE 75 D5 E7 36
   231)      8979.391 1  Rx        0308 -  8    A9 75 D4 19 F5 2C 43 66
   232)      8979.519 1  Rx        0206 -  7    C8 05 17 F9 6E 50 F0
   233)      8979.647 1  Rx        0212 -  7    FB F9 3C A3 3F 40 B8
   234)      8979.775 1  Rx        0222 -  8    82 AD 3D DA A7 01 ED CA
   235)      8979.903 1  Rx        0459 -  8    5F FF 4C 5B 16 99 A3 2C
   236)      8980.031 1  Rx        0451 -  8    23 C4 AC 8F 8B C6 A2 67
   237)      8980.159 1  Rx        0441 -  8    0E F0 7B 62 A7 FA 75 13
   238)      8980.329 1  Rx    1AFB1C04 -  8    17 AB B9 8D 27 0F 63 85
   239)      8980.457 1  Rx    1AFB1C00 -  8    A8 92 42 67 3E 20 D7 6E
   240)      8980.585 1  Rx        0419 -  8    25 16 D3 A1 C9 F9 0D BD
   241)      8980.713 1  Rx        0411 -  8    8D 01 B3 4C 4B 7B 8F E3
   242)      8990.100 1  Rx        0332 -  8    11 5F C1 5D E7 D2 E4 71
   243)      8990.185 1  Rx        011A -  5    E4 5F 98 D0 5C
   244)      8990.399 1  Rx        0331 -  8    4F EA B5 AE 10 24 FB AD
   245)      8990.527 1  Rx        011B -  7    6B FE 7E C5 90 58 30
   246)      8990.655 1  Rx        006E -  7    C2 4D 32 1F C6 FE 3D
   247)      8990.783 1  Rx        0106 -  7    C2 3E 18 08 17 5E F8
   248)      8990.911 1  Rx        0132 -  7    1B 56 D3 DD 34 1F D1
   249)      8991.039 1  Rx        0308 -  8    D7 86 6D 3D 2C F9 5B 8B
   250)      8991.167 1  Rx        0206 -  7    32 D6 2D B3 85 D6 F2
   251)      8991.252 1  Rx        0212 -  7    76 2A 72 80 7C 00 1D
   252)      8991.380 1  Rx        0222 -  8    62 57 7C FB 47 CB 0E E4
   253)      8991.551 1  Rx        0459 -  8    08 05 D8 0B 2B 40 25 6C
   254)      8991.679 1  Rx        0451 -  8    8A 68 39 24 0B 86 93 B7
   255)      8991.807 1  Rx        0441 -  8    33 43 C7 C4 25 C5 81 F4
   256)      8991.935 1  Rx    1AFB1C04 -  8    59 0E 08 4D 69 59 87 31
   257)      8992.105 1  Rx    1AFB1C00 -  8    34 E2 DC 47 35 0B 7C 71
   258)      8992.233 1  Rx        0419 -  8    50 57 D5 CF 90 73 C0 D1
   259)      8992.361 1  Rx        0411 -  8    38 DE F0 5B 4C F6 97 C1
   260)      9001.748 1  Rx        0332 -  8    74 FE E1 97 C4 47 01 65
   261)      9001.833 1  Rx        011A -  5    07 D7 D2 9C E5
   262)      9001.961 1  Rx        0331 -  8    D7 68 F2 BD BB 6E 6D 85
   263)      9002.089 1  Rx        011B -  7    98 FA 26 83 D1 E4 04
   264)      9002.217 1  Rx        006E -  7    3B A7 47 87 42 BE 27
   265)      9002.345 1  Rx        0106 -  7    90 52 7A 70 90 8C 5E
   266)      9002.473 1  Rx        0132 -  7    F9 E6 D8 E6 8C 6F 78
   267)      9002.601 1  Rx        0308 -  8    0E 8D 64 F8 F0 E5 23 C7
   268)      9002.729 1  Rx        0206 -  7    F6 BB 9E 9D ED 3C 93
   269)      9002.857 1  Rx        0212 -  7    7C E9 45 50 42 06 C3
   270)      9002.985 1  Rx        0222 -  8    14 3F F1 42 85 D3 2C A0
   271)      9003.113 1  Rx        0459 -  8    E0 02 E5 0F 15 C5 27 6B
   272)      9003.241 1  Rx        0451 -  8    9B 8A 89 8B B7 58 9F 07
   273)      9003.369 1  Rx        0441 -  8    32 58 12 CB F4 37 E7 23
   274)      9003.540 1  Rx    1AFB1C04 -  8    92 D1 C5 9A 9C A8 69 38
   275)      9003.668 1  Rx    1AFB1C00 -  8    91 F9 D5 8B CE 78 C6 2C
   276)      9003.796 1  Rx        0419 -  8    3E 5A 44 34 D0 7D E5 02
   277)      9003.924 1  Rx        0411 -  8    31 47 B8 E7 ED A2 CC B0
   278)      9013.609 1  Rx        0332 -  8    54 46 EA AA CA 29 ED 2A
   279)      9013.737 1  Rx        011A -  5    77 E0 43 F0 ED
   280)      9013.865 1  Rx        0331 -  8    61 5D 7D EB 9A 73 CD 0F
   281)      9013.993 1  Rx        011B -  7    AF 92 2F FA 89 A2 41
   282)      9014.121 1  Rx        006E -  7    0D 85 C5 04 2B FA 44
   283)      9014.249 1  Rx        0106 -  7    0E 56 4E 7A B2 F7 AC
   284)      9014.377 1  Rx        0132 -  7    9B 72 9F 41 66 0F 2F
   285)      9014.505 1  Rx        0308 -  8    32 35 4B B4 FD 51 91 99
   286)      9014.633 1  Rx        0206 -  7    08 32 AE 31 42 63 0F
   287)      9014.761 1  Rx        0212 -  7    C7 60 16 74 F9 86 B0
   288)      9014.889 1  Rx        0222 -  8    A1 7F 1D B0 9D 31 F0 CD
   289)      9015.017 1  Rx        0459 -  8    D6 8B CF CC 3E 4B 7E 8A
   290)      9015.145 1  Rx        0451 -  8    6C B2 80 22 A9 AB ED D1
   291)      9015.273 1  Rx        0441 -  8    46 EB 42 4F A1 FF DB BB
   292)      9015.444 1  Rx    1AFB1C04 -  8    6C 64 D0 93 8C 81 06 B6
   293)      9015.614 1  Rx    1AFB1C00 -  8    A1 2D 69 56 94 B3 83 7E
   294)      9015.742 1  Rx        0419 -  8    56 6D 70 C5 D9 9F F8 07
   295)      9015.870 1  Rx        0411 -  8    14 CD 80 80 6F F6 6A 38
   296)      9025.299 1  Rx        0332 -  8    80 42 7F 6C B1 33 27 0C
   297)      9025.427 1  Rx        011A -  5    F6 E0 D7 CA 09
   298)      9025.555 1  Rx        0331 -  8    78 96 96 E0 FC 76 0F 19
   299)      9025.683 1  Rx        011B -  7    2A BE 7A DB 9E 98 79
   300)      9025.811 1  Rx        006E -  7    A7 62 3E 59 B7 AE BC
   301)      9025.939 1  Rx        0106 -  7    20 22 0F DE 0B B1 01
   302)      9026.025 1  Rx        0132 -  7    5C 67 4F DF 58 A4 86
   303)      9026.153 1  Rx        0308 -  8    AD 71 92 7A 44 FC 27 35
   304)      9026.281 1  Rx        0206 -  7    61 DF C2 84 A4 AA 70
   305)      9026.409 1  Rx        0212 -  7    DF 2F F3 2F 95 EF 81
   306)      9026.537 1  Rx        0222 -  8    71 2D B0 5E 22 78 87 19
   307)      9026.665 1  Rx        0459 -  8    55 18 9C 99 A5 72 A6 4E
   308)      9026.793 1  Rx        0451 -  8    4A 2E 7C 88 50 A9 D2 C9
   309)      9026.921 1  Rx        0441 -  8    7D 62 B6 8A 1B 40 15 E2
   310)      9027.091 1  Rx    1AFB1C04 -  8    A5 8C 61 7A 36 29 54 25
   311)      9027.219 1  Rx    1AFB1C00 -  8    36 8C 5D 0D 8E 71 8C A9
   312)      9027.390 1  Rx        0419 -  8    AF 43 61 D6 00 0A B0 D5
   313)      9027.518 1  Rx        0411 -  8    26 66 D4 5E 7C 28 51 BB
   314)      9037.160 1  Rx        0332 -  8    3E F6 DA 6E 22 9E 74 52
   315)      9037.246 1  Rx        011A -  5    9A B9 1A D4 5A
   316)      9037.416 1  Rx        0331 -  8    02 AC 7C B4 1F 40 85 C9
   317)      9037.502 1  Rx        011B -  7    42 CB 2D 40 F1 8B 78
   318)      9037.630 1  Rx        006E -  7    3F 8E FF 92 8A 6E E0
   319)      9037.758 1  Rx        0106 -  7    E6 7F 2C 59 2B B8 48
   320)      9037.886 1  Rx        0132 -  7    65 42 A2 A5 E2 72 67
   321)      9038.014 1  Rx        0308 -  8    00 04 00 BA D5 57 8B 44
   322)      9038.142 1  Rx        0206 -  7    37 85 97 6B 16 66 37
   323)      9038.270 1  Rx        0212 -  7    3D 5E 48 B1 89 D0 32
   324)      9038.398 1  Rx        0222 -  8    D8 56 00 F6 12 F7 D0 A6
   325)      9038.526 1  Rx        0459 -  8    BD 85 9B B9 22 72 E2 37
   326)      9038.654 1  Rx        0451 -  8    38 7F D8 5E 7A C1 D1 0B
   327)      9038.824 1  Rx        0441 -  8    81 3F FE 18 E0 6B AE CE
   328)      9038.952 1  Rx    1AFB1C04 -  8    13 84 2C 13 D9 0F 59 B4
   329)      9039.123 1  Rx    1AFB1C00 -  8    AC BD 9D 1E D2 A7 75 C5
   330)      9039.251 1  Rx        0419 -  8    FF 8A 56 17 C2 13 F4 E4
   331)      9039.379 1  Rx        0411 -  8    4F 2D CB 47 5A 5C CF 47
   332)      9049.022 1  Rx        0332 -  8    F2 04 C5 62 F0 AE 9E 00
   333)      9049.150 1  Rx        011A -  5    C2 83 05 AF DE
   334)      9049.278 1  Rx        0331 -  8    56 A3 BB 61 F7 07 66 1C
   335)      9049.406 1  Rx        011B -  7    5F 78 01 E5 0E 94 51
   336)      9049.534 1  Rx        006E -  7    0E D0 D3 A8 3B FA 40
   337)      9049.662 1  Rx        0106 -  7    CF F4 D6 DB 48 E8 E7
   338)      9049.790 1  Rx        0132 -  7    B1 2F C3 03 71 1C 11
   339)      9049.918 1  Rx        0308 -  8    60 59 DB C3 19 38 66 6B
   340)      9050.088 1  Rx        0206 -  7    49 9C 75 57 CF 45 34
   341)      9050.216 1  Rx        0212 -  7    F6 E5 24 07 A7 96 CD
   342)      9050.344 1  Rx        0222 -  8    A2 84 89 9A E8 69 33 9A
   343)      9050.472 1  Rx        0459 -  8    61 61 3B 04 F5 E4 C1 49
   344)      9050.600 1  Rx        0451 -  8    D0 F8 EE 1A DA CF F4 CE
   345)      9050.728 1  Rx        0441 -  8    50 9C C7 8E 3B 6E B6 B8
   346)      9050.899 1  Rx    1AFB1C04 -  8    5F AF 5B 3A 5C 81 23 89
   347)      9051.027 1  Rx    1AFB1C00 -  8    17 34 73 00 C6 62 9A 21
   348)      9051.198 1  Rx        0419 -  8    7C E1 0D 07 03 80 1F E0
   349)      9051.326 1  Rx        0411 -  8    BB 98 62 29 82 6C AF 1D
   350)      9060.840 1  Rx        0332 -  8    49 22 BB 47 B8 69 C3 79
   351)      9061.011 1  Rx        011A -  5    EA A7 D3 EF 16
   352)      9061.139 1  Rx        0331 -  8    79 1B 31 C7 5E 14 B1 59
   353)      9061.267 1  Rx        011B -  7    63 22 FC 17 A1 C9 5A
   354)      9061.395 1  Rx        006E -  7    0A 1A 54 E1 E1 F6 4E
   355)      9061.523 1  Rx        0106 -  7    21 82 FE 2D 11 FA 73
   356)      9061.651 1  Rx        0132 -  7    DA 2F 1A 82 5E 16 C2
   357)      9061.779 1  Rx        0308 -  8    DE CB CA D6 73 42 22 4D
   358)      9061.907 1  Rx        0206 -  7    D3 FE 22 B4 E9 20 1E
   359)      9062.035 1  Rx        0212 -  7    39 FD D9 9B 1D 0D 37
   360)      9062.163 1  Rx        0222 -  8    F6 5F 23 15 B4 11 88 37
   361)      9062.291 1  Rx        0459 -  8    82 86 C4 B8 26 B3 E3 08
   362)      9062.419 1  Rx        0451 -  8    7F A2 CF 64 24 8E 1B 50
   363)      9062.589 1  Rx        0441 -  8    06 F3 38 58 74 D9 A6 6C
   364)      9062.717 1  Rx    1AFB1C04 -  8    95 C1 A5 77 3E 46 9B E1
   365)      9062.888 1  Rx    1AFB1C00 -  8    E8 FA EF 74 1C 9C FB E0
   366)      9063.016 1  Rx        0419 -  8    D2 B2 95 D1 99 DF 33 F1
   367)      9063.144 1  Rx        0411 -  8    61 E5 67 FE 66 BA 2A C0
   368)      9064.467 1  Rx        033B -  8    E6 69 01 C8 51 89 79 31
   369)      9064.595 1  Rx        0339 -  8    02 2F CF 32 40 5A BB B5
   370)      9064.723 1  Rx        0337 -  7    21 54 60 AC E2 99 90
   371)      9064.851 1  Rx        001F -  5    47 4E 88 71 2E
   372)      9064.936 1  Rx        0333 -  4    F6 70 32 A8
   373)      9065.064 1  Rx        0335 -  8    6D 80 15 12 9B 6B 2D A0
   374)      9065.192 1  Rx        0121 -  4    69 94 79 BC
   375)      9065.320 1  Rx        067F -  8    30 6E EF F2 61 22 08 56
   376)      9065.448 1  Rx        0681 -  8    19 9E 9E B4 5C 53 26 FE
   377)      9065.576 1  Rx        0309 -  8    4F 76 74 4D 36 60 D9 D1
   378)      9065.704 1  Rx        030A -  8    44 2B 1D 0D FF D3 54 98
   379)      9065.832 1  Rx        0622 -  6    66 8C 62 7B 7E 00
   380)      9065.917 1  Rx        0413 -  6    B5 AB F8 DD F5 BF
   381)      9066.045 1  Rx        0402 -  3    CF B8 04
   382)      9066.173 1  Rx        0739 -  8    40 43 BE 3E 58 F4 D6 BD
   383)      9066.301 1  Rx        0729 -  8    A4 23 B3 34 D7 76 BD 43
   384)      9066.429 1  Rx        0728 -  8    AF AF EF FA B6 52 2B DD
   385)      9066.557 1  Rx        0709 -  8    E4 92 82 FF B0 2E 8A 6B
   386)      9066.685 1  Rx        0711 -  8    54 E5 CF 4F A8 45 F1 4C
   387)      9072.488 1  Rx        0332 -  8    63 38 C4 B2 90 B6 61 A1
   388)      9072.573 1  Rx        011A -  5    00 C9 C9 BA 7A
   389)      9072.701 1  Rx        0331 -  8    FA E4 B0 90 50 CF 4C 72
   390)      9072.829 1  Rx        011B -  7    8B EB 1C FB 5B 8C DA
   391)      9072.957 1  Rx        006E -  7    4B E6 58 BA 11 83 9D
   392)      9073.085 1  Rx        0106 -  7    DC B1 D1 EF 58 9A 6C
   393)      9073.213 1  Rx        0132 -  7    05 F9 0B AA CE FB 82
   394)      9073.341 1  Rx        0308 -  8    A0 F7 48 22 D5 05 E5 36
   395)      9073.469 1  Rx        0206 -  7    22 95 BB A8 13 31 36
   396)      9073.597 1  Rx        0212 -  7    7D 5B 48 5E 69 FF F1
   397)      9073.725 1  Rx        0222 -  8    96 6F 6D 89 4A 07 D0 69
   398)      9073.853 1  Rx        0459 -  8    DB EC C8 4D 00 BD 52 4A
   399)      9073.981 1  Rx        0451 -  8    3A 8D B8 3B 4D D7 D7 91
   400)      9074.109 1  Rx        0441 -  8    FF 76 44 75 9B 29 69 7D
   401)      9074.280 1  Rx    1AFB1C04 -  8    F6 63 67 D6 CF BF A3 87
   402)      9074.749 1  Rx    1AFB1C00 -  8    62 73 51 54 E3 6F 54 62
   403)      9074.877 1  Rx        0419 -  8    BB 33 11 59 5B 9C AD 36
   404)      9075.005 1  Rx        0411 -  8    05 2A C5 A3 3D AA 79 AC
   405)      9085.330 1  Rx        0332 -  8    74 33 70 88 29 C5 8C E6
   406)      9085.416 1  Rx        011A -  5    3C FF 74 79 CB
   407)      9085.586 1  Rx        0331 -  8    F7 D2 3F B1 70 D4 6E EE
   408)      9085.714 1  Rx        011B -  7    AD E2 A9 2C AC 43 B5
   409)      9085.842 1  Rx        006E -  7    A5 B5 B4 95 0B 7C 27
   410)      9086.013 1  Rx        0106 -  7    07 85 95 EE 7F 6E F6
   411)      9086.141 1  Rx        0132 -  7    A7 C7 AF 96 87 DD 0F
   412)      9086.269 1  Rx        0308 -  8    39 C3 0B 63 F9 9E 68 3F
   413)      9086.397 1  Rx        0206 -  7    42 91 24 4A 6C 5E 72
   414)      9086.525 1  Rx        0212 -  7    61 0A 87 1D 34 4D DF
   415)      9086.653 1  Rx        0222 -  8    2D AC F4 0E 35 F3 D9 74
   416)      9086.781 1  Rx        0459 -  8    1D A0 B0 D9 2C 16 0B A4
   417)      9086.909 1  Rx        0451 -  8    D0 43 3A 70 52 55 F0 86
   418)      9087.037 1  Rx        0441 -  8    40 B2 4F 06 B1 4B 7C FD
   419)      9087.208 1  Rx    1AFB1C04 -  8    A2 EA E7 D9 87 91 BA 42
   420)      9087.378 1  Rx    1AFB1C00 -  8    FE B4 85 28 66 5D BD 33
   421)      9087.506 1  Rx        0419 -  8    6E 17 27 61 4C 07 2E BD
   422)      9087.634 1  Rx        0411 -  8    2B BF AC 38 B3 69 26 CE
   423)      9097.405 1  Rx        0332 -  8    19 18 DF F9 DB 0E 72 19
   424)      9097.490 1  Rx        011A -  5    E9 26 FD 63 52
   425)      9097.618 1  Rx        0331 -  8    71 66 EB 80 85 2C D2 D7
   426)      9097.746 1  Rx        011B -  7    BA A8 F7 40 5D 0E 2B
   427)      9097.874 1  Rx        006E -  7    43 33 98 D5 DC 01 25
   428)      9098.002 1  Rx        0106 -  7    89 53 4F 98 86 E1 CA
   429)      9098.130 1  Rx        0132 -  7    24 E0 01 4A 97 E8 F5
   430)      9098.258 1  Rx        0308 -  8    B2 00 B3 89 F0 C5 DD 38
   431)      9098.386 1  Rx        0206 -  7    33 EE D9 8A 9E 08 00
   432)      9098.514 1  Rx        0212 -  7    AA 84 E2 42 71 5B 1A
   433)      9098.642 1  Rx        0222 -  8    A5 73 08 AF 8D 9A 2C 48
   434)      9098.770 1  Rx        0459 -  8    87 74 77 F5 31 D2 DE 9E
   435)      9098.898 1  Rx        0451 -  8    DE D2 D5 9C FA EC B3 B0
   436)      9099.026 1  Rx        0441 -  8    4E A9 5F 6C F3 A6 6B 18
   437)      9099.197 1  Rx    1AFB1C04 -  8    4C 17 BF 2E AD C0 41 7B
   438)      9099.325 1  Rx    1AFB1C00 -  8    02 A4 CA 63 3C CD CF E2
   439)      9099.453 1  Rx        0419 -  8    A5 B8 33 BA D7 B2 88 2F
   440)      9099.581 1  Rx        0411 -  8    10 B0 37 48 39 E0 4E 8A
   441)      9108.925 1  Rx        0332 -  8    D3 C0 76 56 61 C9 84 7D
   442)      9109.010 1  Rx        011A -  5    A5 02 70 CB 2E
   443)      9109.138 1  Rx        0331 -  8    2F CA 54 8C 09 92 03 A4
   444)      9109.266 1  Rx        011B -  7    3B 0D E3 04 9D 75 D7
   445)      9109.394 1  Rx        006E -  7    A8 12 B0 50 01 46 4A
   446)      9109.522 1  Rx        0106 -  7    C7 BC D9 A5 44 8D E5
   447)      9109.650 1  Rx        0132 -  7    9D D3 3A 13 C5 89 A5
   448)      9109.778 1  Rx        0308 -  8    62 91 38 8C 4A 64 60 27
   449)      9109.906 1  Rx        0206 -  7    F5 7B E5 A0 00 CE 2E
   450)      9110.034 1  Rx        0212 -  7    65 36 67 82 43 4C D5
   451)      9110.162 1  Rx        0222 -  8    07 DF 52 99 A0 81 47 7C
   452)      9110.290 1  Rx        0459 -  8    A4 DA 92 22 B5 57 AB 1A
   453)      9110.418 1  Rx        0451 -  8    05 0B 38 3B 3C C9 0E C3
   454)      9110.546 1  Rx        0441 -  8    C1 CD EE 33 59 01 8E E4
   455)      9110.717 1  Rx    1AFB1C04 -  8    D6 6F C1 1A D3 96 6B 03
   456)      9110.887 1  Rx    1AFB1C00 -  8    B1 2A 16 CB 64 89 41 4E
   457)      9111.015 1  Rx        0419 -  8    80 C1 6D 9C 9F B5 1C 8B
   458)      9111.143 1  Rx        0411 -  8    99 8B 03 6E ED 37 42 1B
   459)      9120.871 1  Rx        0332 -  8    97 58 36 4C EF 81 97 69
   460)      9120.999 1  Rx        011A -  5    75 9E F8 2F 4F
   461)      9121.127 1  Rx        0331 -  8    1A 1E 84 B8 99 2E 52 44
   462)      9121.255 1  Rx        011B -  7    89 51 4A F8 A1 0D AC
   463)      9121.383 1  Rx        006E -  7    6B 19 27 E0 57 21 F6
   464)      9121.469 1  Rx        0106 -  7    B7 D3 7C 07 9A DC 4D
   465)      9121.597 1  Rx        0132 -  7    AD 05 B2 30 A2 C3 9E
   466)      9121.725 1  Rx        0308 -  8    23 8C B1 3B 61 BC 3C B2
   467)      9121.853 1  Rx        0206 -  7    CB 09 38 30 75 CB 05
   468)      9121.981 1  Rx        0212 -  7    AE 2A 26 14 DF DE BF
   469)      9122.109 1  Rx        0222 -  8    0F 63 41 D2 26 81 12 60
   470)      9122.279 1  Rx        0459 -  8    FE BA 0A 90 61 3C D7 EA
   471)      9122.407 1  Rx        0451 -  8    1F 2A 86 2B EC 6A A3 B5
   472)      9122.535 1  Rx        0441 -  8    F9 C8 6B 9A D9 70 08 F1
   473)      9122.663 1  Rx    1AFB1C04 -  8    3E D8 8D DC A5 18 5C D9
   474)      9122.834 1  Rx    1AFB1C00 -  8    D5 6D EE 37 3E 8D E1 FA
   475)      9122.962 1  Rx        0419 -  8    5C 00 B4 5E 41 C8 84 39
   476)      9123.090 1  Rx        0411 -  8    B9 11 A4 60 4B 78 1B EB
   477)      9132.519 1  Rx        0332 -  8    19 56 1D D3 2B 6C EF 95
   478)      9132.647 1  Rx        011A -  5    05 FA 95 B4 1D
   479)      9132.775 1  Rx        0331 -  8    D8 1F 49 DA B6 B6 1A 99
   480)      9132.903 1  Rx        011B -  7    7D 69 02 F2 15 3C CC
   481)      9133.031 1  Rx        006E -  7    14 C8 90 7D C4 0A C4
   482)      9133.159 1  Rx        0106 -  7    89 14 E0 0A 07 07 44
   483)      9133.287 1  Rx        0132 -  7    7B 2B FC F1 07 44 2C
   484)      9133.415 1  Rx        0308 -  8    5A 26 C0 E5 CB C6 86 66
   485)      9133.543 1  Rx        0206 -  7    DD 1D EE 66 5A AA 26
   486)      9133.671 1  Rx        0212 -  7    83 FD B5 BB EB D8 0B
   487)      9133.799 1  Rx        0222 -  8    4E 5D AC 74 33 7F 88 2A
   488)      9133.927 1  Rx        0459 -  8    A9 CF 8B AD 53 D1 89 7B
   489)      9134.055 1  Rx        0451 -  8    40 43 58 E4 A8 13 87 F2
   490)      9134.183 1  Rx        0441 -  8    2D 70 65 2C 42 8B A0 55
   491)      9134.354 1  Rx    1AFB1C04 -  8    DC 4C 0B 3E EC 83 02 97
   492)      9134.482 1  Rx    1AFB1C00 -  8    2F 21 4D 32 BE B2 6F 81
   493)      9134.610 1  Rx        0419 -  8    3E 17 DD BB 07 42 D7 76
   494)      9134.738 1  Rx        0411 -  8    23 B3 B4 6F AD 5E 45 33
   495)      9144.295 1  Rx        0332 -  8    42 8C D0 35 74 6C DD 8A
   496)      9144.380 1  Rx        011A -  5    DD 9A EE 62 BC
   497)      9144.508 1  Rx        0331 -  8    FA 3A E9 03 78 9B AD 59
   498)      9144.636 1  Rx        011B -  7    CD 90 0A B0 2D EC CE
   499)      9144.764 1  Rx        006E -  7    89 14 AF A8 F3 89 EA
   500)      9144.892 1  Rx        0106 -  7    7D C6 56 C2 2D 65 D2
   501)      9145.020 1  Rx        0132 -  7    A3 47 1F 6F 12 32 DB
   502)      9145.148 1  Rx        0308 -  8    C7 53 6C C1 44 D7 83 89
   503)      9145.276 1  Rx        0206 -  7    FB 09 F7 11 78 95 41
   504)      9145.404 1  Rx        0212 -  7    A2 32 18 D3 24 F6 9E
   505)      9145.532 1  Rx        0222 -  8    0D 8C B6 6D 5C B6 61 0D
   506)      9145.660 1  Rx        0459 -  8    92 1F 64 FA 89 7B CD 1C
   507)      9145.788 1  Rx        0451 -  8    27 EE 80 53 77 94 55 C7
   508)      9145.916 1  Rx        0441 -  8    E4 63 91 D5 51 71 EE FF
   509)      9146.087 1  Rx    1AFB1C04 -  8    B3 96 B5 F8 57 52 4F 55
   510)      9146.215 1  Rx    1AFB1C00 -  8    BD BC F9 91 D4 96 93 91
   511)      9146.343 1  Rx        0419 -  8    00 F6 6B 4F EC E4 C1 54
   512)      9146.471 1  Rx        0411 -  8    A7 79 03 AF 83 12 0E 51
   513)      9155.900 1  Rx        0332 -  8    77 3D 72 00 4D E1 D0 67
   514)      9156.028 1  Rx        011A -  5    9A 90 27 6E 39
   515)      9156.156 1  Rx        0331 -  8    F0 9A 97 17 76 0E 3F 87
   516)      9156.284 1  Rx        011B -  7    B8 9B 72 5B E1 02 D7
   517)      9156.412 1  Rx        006E -  7    8B 91 1B E5 A6 FD 20
   518)      9156.540 1  Rx        0106 -  7    18 EB 08 69 A2 2E C0
   519)      9156.668 1  Rx        0132 -  7    FB 2B 54 25 97 A1 58
   520)      9156.796 1  Rx        0308 -  8    13 F4 71 0C 62 39 24 77
   521)      9156.924 1  Rx        0206 -  7    FF EB B3 8F 08 E9 21
   522)      9157.052 1  Rx        0212 -  7    13 5D 52 19 EC BF 17
   523)      9157.180 1  Rx        0222 -  8    C0 4D 19 F0 C6 13 5C C6
   524)      9157.308 1  Rx        0459 -  8    66 F2 E6 03 2C 85 5F DC
   525)      9157.436 1  Rx        0451 -  8    02 F8 C9 17 0E 59 38 EE
   526)      9157.564 1  Rx        0441 -  8    19 9B 23 D0 CF 87 3C D2
   527)      9157.735 1  Rx    1AFB1C04 -  8    DE 64 6D 18 D8 7D A4 23
   528)      9157.863 1  Rx    1AFB1C00 -  8    D8 38 86 42 EC 3A F2 1B
   529)      9157.991 1  Rx        0419 -  8    6A 7E DE A7 04 BF A6 A9
   530)      9158.119 1  Rx        0411 -  8    AE 46 53 50 C1 20 17 F7
   531)      9165.756 1  Rx        033B -  8    76 53 93 21 45 15 C5 E8
   532)      9165.884 1  Rx        0339 -  8    15 93 52 8E D5 02 61 A4
   533)      9166.012 1  Rx        0337 -  7    4A DE B1 EC 1B C2 E7
   534)      9166.097 1  Rx        001F -  5    8D B9 A7 10 B4
   535)      9166.225 1  Rx        0333 -  4    A0 CE FD F4
   536)      9166.353 1  Rx        0335 -  8    C1 36 1E EE ED D3 1B 53
   537)      9166.438 1  Rx        0121 -  4    C5 17 E6 34
   538)      9166.566 1  Rx        067F -  8    90 CB 1C BF 70 53 E6 41
   539)      9166.737 1  Rx        0681 -  8    71 E1 C6 7C E5 38 C1 52
   540)      9166.865 1  Rx        0309 -  8    BE 1B CB 27 96 BC CB 20
   541)      9166.993 1  Rx        030A -  8    D9 B3 6A A1 92 C5 BB 7F
   542)      9167.078 1  Rx        0622 -  6    8A 94 11 71 22 E9
   543)      9167.206 1  Rx        0413 -  6    C0 19 BF CA B9 88
   544)      9167.292 1  Rx        0402 -  3    ED 57 34
   545)      9167.420 1  Rx        0739 -  8    F0 4A 9F B7 7D 3F 5F EA
   546)      9167.548 1  Rx        0729 -  8    20 7C F7 33 FA B3 D2 5C
   547)      9167.718 1  Rx        0728 -  8    7B 20 88 34 BC 1C 08 CF
   548)      9167.846 1  Rx        0709 -  8    86 57 55 5F 58 01 C9 47
   549)      9167.974 1  Rx        0711 -  8    37 3B 1F 66 48 D5 72 20
   550)      9168.102 1  Rx        0332 -  8    6B F9 6D 59 D3 47 24 BA
   551)      9168.188 1  Rx        011A -  5    E4 CC 6C 41 08
   552)      9168.316 1  Rx        0331 -  8    0C 3A F2 39 68 2E AE CE
   553)      9168.444 1  Rx        011B -  7    29 6A 79 CF 5F 52 AE
   554)      9168.572 1  Rx        006E -  7    0F 13 B2 C8 37 3A D1
   555)      9168.700 1  Rx        0106 -  7    B9 17 D4 CD BA A0 C0
   556)      9168.828 1  Rx        0132 -  7    C9 EE 38 03 6B 14 8E
   557)      9168.956 1  Rx        0308 -  8    55 4B C1 87 42 74 FB EE
   558)      9169.084 1  Rx        0206 -  7    CD C6 1B 35 0D 1E 8D
   559)      9169.212 1  Rx        0212 -  7    EF B9 96 25 AD 70 65
   560)      9169.340 1  Rx        0222 -  8    D2 9C 7F 66 89 E2 0C 72
   561)      9169.468 1  Rx        0459 -  8    F2 9E E7 A5 15 BD 97 60
   562)      9169.596 1  Rx        0451 -  8    EE F2 A1 33 83 DA 2E 43
   563)      9169.724 1  Rx        0441 -  8    48 76 F1 38 A0 07 C3 8E
   564)      9169.894 1  Rx    1AFB1C04 -  8    2F 67 D0 04 1E 4B 4E 94
   565)      9170.022 1  Rx    1AFB1C00 -  8    9D D4 37 F7 AC 6F 04 3D
   566)      9170.150 1  Rx        0419 -  8    13 36 68 DF 9F 62 3D CF
   567)      9170.321 1  Rx        0411 -  8    9E 71 D8 04 EA 3A A3 B4
   568)      9179.409 1  Rx        0332 -  8    9D D1 7A D1 C9 BD 46 5D
   569)      9179.537 1  Rx        011A -  5    19 E7 B5 40 65
   570)      9179.665 1  Rx        0331 -  8    17 41 BC BF 0D DC F2 B8
   571)      9179.793 1  Rx        011B -  7    7F 0B 49 F7 4A FF BB
   572)      9179.921 1  Rx        006E -  7    48 A9 BC 33 5D DB 52
   573)      9180.049 1  Rx        0106 -  7    D6 32 79 1C 87 D2 75
   574)      9180.177 1  Rx        0132 -  7    3F C2 D7 65 01 16 7D
   575)      9180.305 1  Rx        0308 -  8    0D 2F EF 3C 3E 3D 85 F1
   576)      9180.433 1  Rx        0206 -  7    3C 53 F5 A5 43 0C B9
   577)      9180.561 1  Rx        0212 -  7    D5 75 6F B1 AF 8B 2A
   578)      9180.689 1  Rx        0222 -  8    57 C4 22 1B FB 3D F9 E2
   579)      9180.817 1  Rx        0459 -  8    5F 30 C6 BE EA 54 79 9F
   580)      9180.945 1  Rx        0451 -  8    B6 73 B5 7B E4 97 68 4F
   581)      9181.073 1  Rx        0441 -  8    63 11 6B BB 0E 70 B1 F6
   582)      9181.244 1  Rx    1AFB1C04 -  8    43 F9 BE BA 54 C8 7D 16
   583)      9181.372 1  Rx    1AFB1C00 -  8    36 86 D8 FF 0B F4 2C 9B
   584)      9181.500 1  Rx        0419 -  8    F9 BC B9 7E 33 3C 49 B2
   585)      9181.628 1  Rx        0411 -  8    EC 57 94 DE CD 66 79 DB
   586)      9191.057 1  Rx        0332 -  8    18 CA 07 3F BE 87 F9 7C
   587)      9191.142 1  Rx        011A -  5    33 06 30 C0 41
   588)      9191.313 1  Rx        0331 -  8    6D 01 5E BD D5 A7 FD 56
   589)      9191.398 1  Rx        011B -  7    A0 B1 FC 3C 74 B2 0F
   590)      9191.526 1  Rx        006E -  7    66 79 51 6B D3 3C A4
   591)      9191.654 1  Rx        0106 -  7    30 39 1D 41 68 79 37
   592)      9191.782 1  Rx        0132 -  7    D0 99 4D 6F 34 0C 91
   593)      9191.953 1  Rx        0308 -  8    FB E2 D0 40 54 A4 19 F7
   594)      9192.081 1  Rx        0206 -  7    8E 82 84 77 AA 3A 7C
   595)      9192.166 1  Rx        0212 -  7    EF 08 65 EB 48 4D 5B
   596)      9192.294 1  Rx        0222 -  8    CA 46 65 2B 75 27 4E FD
   597)      9192.422 1  Rx        0459 -  8    75 54 AF 9E 50 4F 92 EC
   598)      9192.593 1  Rx        0451 -  8    6C 81 44 BF 02 E4 11 81
   599)      9192.721 1  Rx        0441 -  8    9A 06 89 A2 6C 1C 9C FF
   600)      9192.849 1  Rx    1AFB1C04 -  8    F2 0B 1E 10 79 9C 4A 5A
   601)      9193.019 1  Rx    1AFB1C00 -  8    3E A9 AF 86 F1 FA C3 E7
   602)      9193.147 1  Rx        0419 -  8    5F 01 18 00 BF CD 15 4F
   603)      9193.275 1  Rx        0411 -  8    09 B6 83 0B 66 3D 1B 65
   604)      9202.662 1  Rx        0332 -  8    6D F2 E7 4B 82 8C A2 07
   605)      9202.747 1  Rx        011A -  5    86 ED A5 19 82
   606)      9202.875 1  Rx        0331 -  8    0F 10 C3 FB 3D 6F 3F 66
   607)      9203.003 1  Rx        011B -  7    CA DF D2 93 30 48 4B
   608)      9203.131 1  Rx        006E -  7    A8 22 A2 7A AC 56 43
   609)      9203.259 1  Rx        0106 -  7    E9 9F CA AF 15 FC D8
   610)      9203.387 1  Rx        0132 -  7    00 1B 03 52 E7 6B 66
   611)      9203.515 1  Rx        0308 -  8    DC AF 4C 1B 3C E3 AF C4
   612)      9203.643 1  Rx        0206 -  7    2F 41 C0 72 73 F6 BA
   613)      9203.771 1  Rx        0212 -  7    77 39 0C 00 FE 47 D9
   614)      9203.899 1  Rx        0222 -  8    FA D6 85 51 E7 CF 95 61
   615)      9204.027 1  Rx        0459 -  8    19 6C 9E A0 0F 15 47 D2
   616)      9204.155 1  Rx        0451 -  8    4C 33 C3 9C 43 46 E7 2A
   617)      9204.283 1  Rx        0441 -  8    76 4F 10 D3 F3 DC DF A5
   618)      9204.411 1  Rx    1AFB1C04 -  8    96 6F 92 FC 79 A8 BC D7
   619)      9204.582 1  Rx    1AFB1C00 -  8    84 80 F5 BC 2E 1E CB 9B
   620)      9204.710 1  Rx        0419 -  8    CA A9 50 3B 84 29 62 0A
   621)      9204.838 1  Rx        0411 -  8    28 0C B8 21 EF 4B 80 D9
   622)      9214.395 1  Rx        0332 -  8    9E 45 C5 19 1C D7 10 64
   623)      9214.523 1  Rx        011A -  5    C4 19 8B 13 C3
   624)      9214.651 1  Rx        0331 -  8    F3 7D 44 AD 55 9A 3D 38
   625)      9214.779 1  Rx        011B -  7    4D C7 27 1F 6F 19 0B
   626)      9214.907 1  Rx        006E -  7    9D FE D1 74 09 65 C2
   627)      9215.035 1  Rx        0106 -  7    3B FF 78 92 30 BB F0
   628)      9215.120 1  Rx        0132 -  7    E3 16 1E FD 5D 8D 7C
   629)      9215.291 1  Rx        0308 -  8    25 F6 0C EE CA 86 C0 B2
   630)      9215.419 1  Rx        0206 -  7    68 1D B9 EA CD ED F5
   631)      9215.504 1  Rx        0212 -  7    6F E7 91 9E AA 88 65
   632)      9215.675 1  Rx        0222 -  8    00 C0 41 CA 8D 7A F8 00
   633)      9215.803 1  Rx        0459 -  8    A2 A8 7D EC D0 30 F5 00
   634)      9215.931 1  Rx        0451 -  8    9E 82 43 4A 9B 55 C0 A3
   635)      9216.059 1  Rx        0441 -  8    6A 03 61 57 0C 8B 1B E1
   636)      9216.187 1  Rx    1AFB1C04 -  8    E8 02 EA 03 20 2F 8A 66
   637)      9216.358 1  Rx    1AFB1C00 -  8    F7 69 A8 54 EE 6C 28 13
   638)      9216.486 1  Rx        0419 -  8    74 4D BE 3F 43 C3 40 83
   639)      9216.614 1  Rx        0411 -  8    6E DD 3F AA DE 3D 65 2F
   640)      9226.043 1  Rx        0332 -  8    D5 66 25 59 D8 55 C2 0B
   641)      9226.171 1  Rx        011A -  5    D3 E3 02 E9 6B
   642)      9226.299 1  Rx        0331 -  8    81 6C E2 61 75 4B 08 21
   643)      9226.427 1  Rx        011B -  7    0C 14 C1 E2 56 A8 DF
   644)      9226.512 1  Rx        006E -  7    FF 62 EE CB C8 5E DC
   645)      9226.640 1  Rx        0106 -  7    55 53 79 5D 2C 3A 97
   646)      9226.768 1  Rx        0132 -  7    C8 A6 DB BE EC FD 4B
   647)      9226.896 1  Rx        0308 -  8    FF 62 E1 76 C3 5C 43 E9
   648)      9227.024 1  Rx        0206 -  7    C0 64 8F 68 D4 07 F1
   649)      9227.152 1  Rx        0212 -  7    98 FE B0 3A 85 EE 74
   650)      9227.280 1  Rx        0222 -  8    C5 A4 FC 2B C4 E0 13 86
   651)      9227.408 1  Rx        0459 -  8    C1 BA E6 A9 85 D2 11 37
   652)      9227.579 1  Rx        0451 -  8    AF 49 B4 43 3C 7C B0 F1
   653)      9227.707 1  Rx        0441 -  8    84 A3 27 4F B6 40 BB 8C
   654)      9227.835 1  Rx    1AFB1C04 -  8    B2 17 0F 3C CD 18 76 EC
   655)      9228.006 1  Rx    1AFB1C00 -  8    C7 33 AC 40 B0 DF 70 A5
   656)      9228.134 1  Rx        0419 -  8    8B B8 8B A6 6A 2E 83 98
   657)      9228.347 1  Rx        0411 -  8    CD 11 EE 11 19 0E D4 17
   658)      9237.904 1  Rx        0332 -  8    F7 60 F1 DA 7B 95 93 55
   659)      9238.032 1  Rx        011A -  5    10 5A CD 61 76
   660)      9238.160 1  Rx        0331 -  8    55 29 59 C1 DD 0C 26 2B
   661)      9238.288 1  Rx        011B -  7    FF 4D 35 07 E7 E0 7A
   662)      9238.416 1  Rx        006E -  7    BD F8 9F 5C 08 B2 D3
   663)      9238.544 1  Rx        0106 -  7    B8 3E 43 99 E1 04 EA
   664)      9238.672 1  Rx        0132 -  7    6B 09 74 3A F7 08 6B
   665)      9238.800 1  Rx        0308 -  8    3F A9 4E A6 DD F7 24 DF
   666)      9238.928 1  Rx        0206 -  7    0E 09 AA DF 0B 1A DA
   667)      9239.056 1  Rx        0212 -  7    4C 1C 1D E1 DD 35 62
   668)      9239.184 1  Rx        0222 -  8    82 CF DE 63 35 51 4D 86
   669)      9239.312 1  Rx        0459 -  8    19 82 06 5A DB 5C 33 69
   670)      9239.440 1  Rx        0451 -  8    82 68 89 8E E1 AF B1 94
   671)      9239.568 1  Rx        0441 -  8    80 F6 2F 2A 84 70 5C AD
   672)      9239.739 1  Rx    1AFB1C04 -  8    4B 0A 4C 4C F3 A7 E2 55
   673)      9239.867 1  Rx    1AFB1C00 -  8    85 FA 64 3C 17 92 62 A2
   674)      9240.037 1  Rx        0419 -  8    37 19 13 CA BE 65 75 BC
   675)      9240.123 1  Rx        0411 -  8    F6 B3 A7 B2 19 83 A1 FE
   676)      9249.637 1  Rx        0332 -  8    94 FB BD E1 FA 1F 59 49
   677)      9249.723 1  Rx        011A -  5    8F F3 46 75 86
   678)      9249.851 1  Rx        0331 -  8    59 CA 9C 75 F5 41 91 23
   679)      9249.979 1  Rx        011B -  7    24 2A 6E 85 3A FC 98
   680)      9250.107 1  Rx        006E -  7    0F 0D 44 93 57 AD 43
   681)      9250.235 1  Rx        0106 -  7    49 01 59 25 16 7D EE
   682)      9250.362 1  Rx        0132 -  7    D4 C5 45 0E 70 EF 08
   683)      9250.490 1  Rx        0308 -  8    D7 BA D6 38 11 D8 0E B5
   684)      9250.618 1  Rx        0206 -  7    75 9E 93 9B 2C 9C 1B
   685)      9250.704 1  Rx        0212 -  7    73 3B BD 24 1E 84 06
   686)      9250.874 1  Rx        0222 -  8    F0 5C 9E 34 10 2B AE 74
   687)      9251.002 1  Rx        0459 -  8    BD 18 58 4C FB 00 45 5F
   688)      9251.130 1  Rx        0451 -  8    F0 79 35 17 50 1B C2 D4
   689)      9251.258 1  Rx        0441 -  8    54 06 80 69 AF 77 BF 37
   690)      9251.429 1  Rx    1AFB1C04 -  8    60 71 9E 5D FC 24 D8 7F
   691)      9251.557 1  Rx    1AFB1C00 -  8    A8 60 82 BF 3C F6 7C 32
   692)      9251.685 1  Rx        0419 -  8    8C C8 E5 FB 95 5C FD 1D
   693)      9251.813 1  Rx        0411 -  8    5A EC D1 37 02 46 51 86
   694)      9261.370 1  Rx        0332 -  8    04 B3 B7 DF 8C D6 86 03
   695)      9261.456 1  Rx        011A -  5    A0 6F E0 77 B9
   696)      9261.584 1  Rx        0331 -  8    2F 75 F6 34 83 71 CC 9D
   697)      9261.712 1  Rx        011B -  7    E9 58 D3 7B E9 D7 2C
   698)      9261.840 1  Rx        006E -  7    27 7B F5 74 8A 6B 16
   699)      9261.968 1  Rx        0106 -  7    89 0C CB 29 BE FB 5B
   700)      9262.608 1  Rx        0132 -  7    AF 35 57 3C 86 48 CE
   701)      9262.736 1  Rx        0308 -  8    76 87 D8 30 D4 F8 C5 0A
   702)      9262.864 1  Rx        0206 -  7    AB 9C 4F 7A 19 E4 13
   703)      9262.992 1  Rx        0212 -  7    70 41 57 BB C2 C8 66
   704)      9263.120 1  Rx        0222 -  8    E9 5C A6 4E 77 9F 48 6D
   705)      9263.248 1  Rx        0459 -  8    FF 86 47 CC 6F 42 C5 7C
   706)      9263.376 1  Rx        0451 -  8    5E 51 20 09 88 44 BC A3
   707)      9263.504 1  Rx        0441 -  8    21 EA 22 A5 B2 84 01 CD
   708)      9263.674 1  Rx    1AFB1C04 -  8    55 0A 9D CD F7 9B A7 DC
   709)      9263.802 1  Rx    1AFB1C00 -  8    B8 E5 82 9E 28 1D 91 60
   710)      9263.930 1  Rx        0419 -  8    B8 11 35 37 9C A9 54 D7
   711)      9264.058 1  Rx        0411 -  8    6F 17 3E 7C 31 CC 71 4D
   712)      9266.960 1  Rx        033B -  8    05 9E B5 90 56 B6 96 49
   713)      9267.088 1  Rx        0339 -  8    5D 8D E5 12 1C 91 65 15
   714)      9267.216 1  Rx        0337 -  7    60 BB F0 E0 2D 89 01
   715)      9267.344 1  Rx        001F -  5    DB D1 C2 05 5A
   716)      9267.429 1  Rx        0333 -  4    00 EE 87 A2
   717)      9267.557 1  Rx        0335 -  8    15 80 72 33 D5 BC 2D DB
   718)      9267.685 1  Rx        0121 -  4    41 29 EE 9E
   719)      9267.813 1  Rx        067F -  8    73 88 F9 9A 1A CB 22 F3
   720)      9267.941 1  Rx        0681 -  8    D0 C4 30 2C 7E 90 5A C5
   721)      9268.069 1  Rx        0309 -  8    63 5C EB F5 C5 01 FE A8
   722)      9268.197 1  Rx        030A -  8    BA 91 6E FC 60 11 82 5A
   723)      9268.325 1  Rx        0622 -  6    92 3C 04 BE 46 2B
   724)      9268.410 1  Rx        0413 -  6    A2 AA 6E 84 F1 6A
   725)      9268.496 1  Rx        0402 -  3    60 FE 42
   726)      9268.666 1  Rx        0739 -  8    D8 6A D6 8F AC 37 BC 93
   727)      9268.794 1  Rx        0729 -  8    20 C5 2D 0C 35 FE FB C0
   728)      9268.922 1  Rx        0728 -  8    9E 18 AF 4D E6 D5 3C 43
   729)      9269.050 1  Rx        0709 -  8    26 47 37 42 90 D1 47 67
   730)      9269.178 1  Rx        0711 -  8    5C EE 1E 3D F4 33 F4 C8
   731)      9272.890 1  Rx        0332 -  8    A8 8E 9B B7 A8 D2 19 E6
   732)      9273.018 1  Rx        011A -  5    3B D4 1D 70 4B
   733)      9273.146 1  Rx        0331 -  8    5B D2 FC D2 FC 91 F8 BA
   734)      9273.274 1  Rx        011B -  7    DB 01 97 81 85 23 59
   735)      9273.402 1  Rx        006E -  7    33 C8 0C 13 06 47 BC
   736)      9273.530 1  Rx        0106 -  7    C0 7C 28 6B 0F 75 1A
   737)      9273.658 1  Rx        0132 -  7    91 EB 40 00 FA AF AF
   738)      9273.786 1  Rx        0308 -  8    FE 63 3A 2B 97 2A 39 7E
   739)      9273.914 1  Rx        0206 -  7    43 9B 90 01 68 C7 ED
   740)      9274.042 1  Rx        0212 -  7    62 31 C2 35 11 35 CD
   741)      9274.170 1  Rx        0222 -  8    AB 33 9B C5 9F 39 97 17
   742)      9274.298 1  Rx        0459 -  8    64 04 A4 7B 46 E2 2C 6F
   743)      9274.426 1  Rx        0451 -  8    46 33 EB FC AC EE 29 0E
   744)      9274.554 1  Rx        0441 -  8    87 94 D5 AB 76 C4 F4 32
   745)      9274.725 1  Rx    1AFB1C04 -  8    8B E5 FA DA 71 02 30 34
   746)      9274.853 1  Rx    1AFB1C00 -  8    64 A7 C4 9F D5 82 E3 03
   747)      9274.981 1  Rx        0419 -  8    D4 76 B5 69 E6 41 2A C2
   748)      9275.109 1  Rx        0411 -  8    CA 12 5E AF 61 4A A1 FC
   749)      9284.879 1  Rx        0332 -  8    05 54 86 22 24 26 24 CF
   750)      9285.050 1  Rx        011A -  5    38 4E 56 9B 74
   751)      9285.178 1  Rx        0331 -  8    43 AA 32 9E A6 47 8A 95
   752)      9285.306 1  Rx        011B -  7    A7 86 FB 09 5F AA 27
   753)      9285.477 1  Rx        006E -  7    73 A8 68 F1 6B 87 04
   754)      9285.605 1  Rx        0106 -  7    5D F2 D9 AD 39 38 1A
   755)      9285.733 1  Rx        0132 -  7    74 59 3A FC EC FC FE
   756)      9285.861 1  Rx        0308 -  8    A4 17 A4 62 0C 30 31 EA
   757)      9285.989 1  Rx        0206 -  7    6B 37 4B 6F 26 49 0D
   758)      9286.117 1  Rx        0212 -  7    99 CD AD 59 D8 33 2F
   759)      9286.245 1  Rx        0222 -  8    69 C0 C8 84 70 2F 09 8E
   760)      9286.373 1  Rx        0459 -  8    9C 9A 75 E9 17 6F B8 47
   761)      9286.501 1  Rx        0451 -  8    60 68 BD 01 B3 1B 74 13
   762)      9286.629 1  Rx        0441 -  8    C3 16 44 35 31 CF 75 1F
   763)      9286.757 1  Rx    1AFB1C04 -  8    96 D5 CA B0 B3 B4 6D 08
   764)      9286.927 1  Rx    1AFB1C00 -  8    5F 66 E8 21 D2 F5 12 F7
   765)      9287.055 1  Rx        0419 -  8    BF 1A 72 ED 58 57 BA 01
   766)      9287.183 1  Rx        0411 -  8    86 65 9B 73 DA 59 BF 75
   767)      9297.892 1  Rx        0332 -  8    8E BA 5D C7 96 77 33 B2
   768)      9297.978 1  Rx        011A -  5    23 03 78 EF D7
   769)      9298.106 1  Rx        0331 -  8    DC F3 4B 19 66 B8 13 2D
   770)      9298.234 1  Rx        011B -  7    D0 CE 22 A0 44 D5 86
   771)      9298.362 1  Rx        006E -  7    37 DB D2 6D A7 C0 44
   772)      9298.490 1  Rx        0106 -  7    77 42 0B 5A 60 82 E0
   773)      9298.618 1  Rx        0132 -  7    C5 C3 A9 6B 88 C1 F3
   774)      9298.788 1  Rx        0308 -  8    6F A0 10 59 7B 39 A6 03
   775)      9298.916 1  Rx        0206 -  7    6B B1 08 29 BD 89 51
   776)      9299.044 1  Rx        0212 -  7    31 BC 2F 23 A8 D9 22
   777)      9299.172 1  Rx        0222 -  8    33 44 0C 99 CF EE 94 E8
   778)      9299.300 1  Rx        0459 -  8    5D 2D 04 71 BB E0 40 2B
   779)      9299.428 1  Rx        0451 -  8    D1 65 F3 E1 C8 FE E2 BA
   780)      9299.556 1  Rx        0441 -  8    EE 27 B3 02 89 8B B9 C1
   781)      9299.727 1  Rx    1AFB1C04 -  8    FB 54 2E 15 41 A6 09 77
   782)      9299.855 1  Rx    1AFB1C00 -  8    78 B4 AD 62 9D 39 6C 40
   783)      9299.983 1  Rx        0419 -  8    D0 DA 2D 1D 3B 9F 29 D6
   784)      9300.111 1  Rx        0411 -  8    F2 21 43 1B BA 57 0F DD
   785)      9310.052 1  Rx        0332 -  8    1B 61 0B 8A 18 34 C2 71
   786)      9310.180 1  Rx        011A -  5    CD 7F 41 35 C0
   787)      9310.308 1  Rx        0331 -  8    6D 69 2C 31 E7 A8 83 B3
   788)      9310.436 1  Rx        011B -  7    08 68 79 93 E1 4C D4
   789)      9310.564 1  Rx        006E -  7    2A 41 71 3A BA EB D6
   790)      9310.692 1  Rx        0106 -  7    21 20 3A A9 B0 FF 65
   791)      9310.820 1  Rx        0132 -  7    C5 31 C7 CF 04 37 D0
   792)      9310.948 1  Rx        0308 -  8    EC AB E8 9F B8 CB F7 5F
   793)      9311.076 1  Rx        0206 -  7    E0 53 47 BD 68 4A 8A
   794)      9311.204 1  Rx        0212 -  7    7B 22 4D 24 D5 42 A8
   795)      9311.332 1  Rx        0222 -  8    48 4A 32 97 A6 D6 D8 12
   796)      9311.460 1  Rx        0459 -  8    4B 19 0F C7 EB 21 B9 28
   797)      9311.588 1  Rx        0451 -  8    72 E1 FD EB 67 E2 DE 15
   798)      9311.716 1  Rx        0441 -  8    5F B7 71 CB EA 47 C5 1C
   799)      9311.887 1  Rx    1AFB1C04 -  8    DA 84 F8 17 F2 56 B0 AF
   800)      9312.058 1  Rx    1AFB1C00 -  8    62 27 45 6D E8 68 0A A2
   801)      9312.186 1  Rx        0419 -  8    33 18 FB 67 70 68 C5 CA
   802)      9312.314 1  Rx        0411 -  8    D5 BA 0B E4 7B 23 9D 3D
   803)      9322.212 1  Rx        0332 -  8    D4 76 80 FC 59 36 75 ED
   804)      9322.297 1  Rx        011A -  5    BA BB C1 2C 7A
   805)      9322.425 1  Rx        0331 -  8    CF 7F 96 9F 85 64 8F A5
   806)      9322.553 1  Rx        011B -  7    46 E9 3E 2E 1A 58 08
   807)      9322.681 1  Rx        006E -  7    1F 69 07 20 01 75 94
   808)      9322.809 1  Rx        0106 -  7    9B 7A A6 E1 A1 5E DF
   809)      9322.937 1  Rx        0132 -  7    DA C0 E6 24 37 57 7F
   810)      9323.065 1  Rx        0308 -  8    D8 59 20 D2 FB 82 1A 54
   811)      9323.236 1  Rx        0206 -  7    53 CC 50 6D CB 10 17
   812)      9323.364 1  Rx        0212 -  7    F4 76 C2 61 D2 89 89
   813)      9323.492 1  Rx        0222 -  8    58 D0 91 DE EC FF 56 EF
   814)      9323.663 1  Rx        0459 -  8    33 F7 9C D0 8C AC E4 04
   815)      9323.833 1  Rx        0451 -  8    04 C4 A1 44 FC 57 36 E6
   816)      9324.004 1  Rx        0441 -  8    C0 FC 57 DF 52 D0 11 2E
   817)      9324.175 1  Rx    1AFB1C04 -  8    65 62 D5 31 34 C6 44 3F
   818)      9324.303 1  Rx    1AFB1C00 -  8    A3 62 4A 86 09 26 6C C0
   819)      9324.431 1  Rx        0419 -  8    58 EF E3 8E 56 91 44 F7
   820)      9324.644 1  Rx        0411 -  8    8D FA 93 C0 F8 24 F8 FE
   821)      9335.097 1  Rx        0332 -  8    4E D4 93 60 F3 A8 05 1D
   822)      9335.268 1  Rx        011A -  5    03 99 D3 02 07
   823)      9335.439 1  Rx        0331 -  8    3B F1 FD 3F 16 3A BB 9B
   824)      9335.567 1  Rx        011B -  7    B1 CC 86 D7 65 ED 78
   825)      9335.694 1  Rx        006E -  7    66 E9 2E 5C 8F 1F FA
   826)      9335.822 1  Rx        0106 -  7    5E 71 B2 87 3D 7E 48
   827)      9335.950 1  Rx        0132 -  7    D5 3F 6D E8 44 E0 CE
   828)      9336.078 1  Rx        0308 -  8    78 95 02 C1 85 1C A5 8C
   829)      9336.206 1  Rx        0206 -  7    33 E5 96 8F 4E D3 2C
   830)      9336.334 1  Rx        0212 -  7    CE BF 2C 3D CD BD 8A
   831)      9336.462 1  Rx        0222 -  8    22 F1 A3 26 F0 2A B7 ED
   832)      9336.590 1  Rx        0459 -  8    9B 82 0D B5 A5 34 C4 0C
   833)      9336.718 1  Rx        0451 -  8    02 66 FC B7 C3 64 81 8C
   834)      9336.889 1  Rx        0441 -  8    4A AC 09 49 14 9F A3 AA
   835)      9337.017 1  Rx    1AFB1C04 -  8    EA CB E3 82 6F 26 AE BA
   836)      9337.188 1  Rx    1AFB1C00 -  8    1A 97 56 87 4F A8 49 F2
   837)      9337.316 1  Rx        0419 -  8    9F 7E 51 78 B9 EF D2 F9
   838)      9337.444 1  Rx        0411 -  8    A9 26 84 21 D1 95 88 64
   839)      9347.556 1  Rx        0332 -  8    23 EB F7 ED 2D E3 9E 0D
   840)      9347.684 1  Rx        011A -  5    66 60 E4 73 5A
   841)      9347.812 1  Rx        0331 -  8    EC FA 6E E8 3F C8 C5 4F
   842)      9347.940 1  Rx        011B -  7    4C 81 DC C6 9F 38 A9
   843)      9348.068 1  Rx        006E -  7    38 09 75 7F B7 29 C0
   844)      9348.281 1  Rx        0106 -  7    CD BF FE D1 D4 BD 85
   845)      9348.409 1  Rx        0132 -  7    F6 EE 21 89 9B EC 81
   846)      9348.537 1  Rx        0308 -  8    9E AD 6B 95 CC 04 27 A1
   847)      9348.708 1  Rx        0206 -  7    63 7F D7 69 BF 27 29
   848)      9348.836 1  Rx        0212 -  7    B4 C8 E4 2C 26 09 98
   849)      9348.964 1  Rx        0222 -  8    29 4A 95 84 93 5A 57 84
   850)      9349.092 1  Rx        0459 -  8    6E 79 AD 1D 3B EB A3 4E
   851)      9349.220 1  Rx        0451 -  8    62 6B 0C FE 8A 1A C5 7F
   852)      9349.348 1  Rx        0441 -  8    50 F0 B2 E6 A1 F9 F8 57
   853)      9349.518 1  Rx    1AFB1C04 -  8    7C 0C D7 44 55 44 85 24
   854)      9349.646 1  Rx    1AFB1C00 -  8    2A CC 30 2C E9 70 88 06
   855)      9349.774 1  Rx        0419 -  8    BB 30 D6 66 9C F6 F4 F3
   856)      9349.945 1  Rx        0411 -  8    71 F2 E3 E9 5B 96 C5 84
   857)      9360.398 1  Rx        0332 -  8    44 6E 54 D0 36 23 4F C3
   858)      9360.569 1  Rx        011A -  5    7E 14 FB DA A8
   859)      9360.825 1  Rx        0331 -  8    41 E0 A2 FF 1A 91 57 B5
   860)      9360.995 1  Rx        011B -  7    E4 1E 68 0B C9 4E 53
   861)      9361.123 1  Rx        006E -  7    2C 83 D6 66 AC E9 18
   862)      9361.251 1  Rx        0106 -  7    B8 AB C3 9C 8C 36 05
   863)      9361.593 1  Rx        0132 -  7    34 A5 D3 B6 40 B8 92
   864)      9361.721 1  Rx        0308 -  8    06 29 F2 60 4C 85 44 93
   865)      9362.062 1  Rx        0206 -  7    CB 18 7B 41 30 1E E5
   866)      9362.190 1  Rx        0212 -  7    F0 95 73 07 7F 8A 9C
   867)      9362.318 1  Rx        0222 -  8    B6 FF 38 8B 59 D3 38 E0
   868)      9362.489 1  Rx        0459 -  8    F7 A8 B4 63 10 98 70 3F
   869)      9362.617 1  Rx        0451 -  8    83 C7 01 43 4C F5 B8 7E
   870)      9362.745 1  Rx        0441 -  8    CB C8 BD 50 DA 95 32 BE
   871)      9362.873 1  Rx    1AFB1C04 -  8    AD B3 6B 8E 80 A9 1B D2
   872)      9363.043 1  Rx    1AFB1C00 -  8    C2 90 A3 CA 49 50 B1 13
   873)      9363.171 1  Rx        0419 -  8    E4 21 28 D3 76 90 37 16
   874)      9363.299 1  Rx        0411 -  8    49 6E AB 30 74 F8 DD 42
   875)      9369.145 1  Rx        033B -  8    A3 94 B1 B3 27 85 77 2D
   876)      9369.315 1  Rx        0339 -  8    B8 FE CB 1A 0D 43 C0 37
   877)      9369.486 1  Rx        0337 -  7    E6 E0 EF E0 7E 32 28
   878)      9369.614 1  Rx        001F -  5    21 7C 92 9D 9A
   879)      9369.699 1  Rx        0333 -  4    A8 EA 9C 54
   880)      9369.827 1  Rx        0335 -  8    BD C8 F1 5A 3A 0B 59 7C
   881)      9369.955 1  Rx        0121 -  4    AF B0 B9 CA
   882)      9370.083 1  Rx        067F -  8    5D D2 66 71 B8 7F 52 13
   883)      9370.211 1  Rx        0681 -  8    FD 35 2D A2 01 FA 3F 73
   884)      9370.339 1  Rx        0309 -  8    CF 59 D1 D9 D0 B0 79 73
   885)      9370.467 1  Rx        030A -  8    1B B0 1E 66 46 1D 6D 0E
   886)      9370.595 1  Rx        0622 -  6    7F D8 C7 FE 2E E3
   887)      9370.681 1  Rx        0413 -  6    4E 83 1C BC 58 00
   888)      9370.766 1  Rx        0402 -  3    D1 C8 68
   889)      9370.937 1  Rx        0739 -  8    A6 9A 11 D0 A3 D3 17 67
   890)      9371.065 1  Rx        0729 -  8    86 D0 05 88 DA B7 46 AF
   891)      9371.193 1  Rx        0728 -  8    89 9B 49 A8 85 75 A1 14
   892)      9371.321 1  Rx        0709 -  8    96 2C 44 61 C9 01 A2 8B
   893)      9371.406 1  Rx        0711 -  8    C3 4C 85 D1 2F 5F 6B 59
   894)      9373.155 1  Rx        0332 -  8    5B A1 FB 07 4E 2C 16 BC
   895)      9373.241 1  Rx        011A -  5    F1 08 60 C9 3D
   896)      9373.454 1  Rx        0331 -  8    E9 67 7A 21 FD EE 52 50
   897)      9373.582 1  Rx        011B -  7    FB BF D1 7D 13 6F D4
   898)      9373.710 1  Rx        006E -  7    F9 D6 44 7D EF 59 00
   899)      9373.881 1  Rx        0106 -  7    84 21 8D 0C A9 67 42
   900)      9374.009 1  Rx        0132 -  7    88 70 1C F2 0C 36 2B
   901)      9374.137 1  Rx        0308 -  8    D7 1B 06 0B D2 EE 92 3E
   902)      9374.265 1  Rx        0206 -  7    51 75 62 78 7A 4A 6B
   903)      9374.393 1  Rx        0212 -  7    06 19 9F 22 E8 FF 87
   904)      9374.521 1  Rx        0222 -  8    F2 39 88 B5 0B 48 14 D7
   905)      9374.649 1  Rx        0459 -  8    6F DB 6E 60 23 67 D1 5F
   906)      9374.777 1  Rx        0451 -  8    00 D7 FF 7E 28 74 10 08
   907)      9374.905 1  Rx        0441 -  8    C2 69 63 5C E3 0B AB D1
   908)      9375.075 1  Rx    1AFB1C04 -  8    A2 67 BD 11 53 CF 33 EF
   909)      9375.203 1  Rx    1AFB1C00 -  8    41 3A 09 49 0F 00 00 AC
   910)      9375.331 1  Rx        0419 -  8    DD 7D 2A AA 71 CD 79 E3
   911)      9375.459 1  Rx        0411 -  8    3C 40 2C 99 BB 3C EF 08
   912)      9385.614 1  Rx        0332 -  8    1C D0 04 83 89 D8 A8 93
   913)      9385.699 1  Rx        011A -  5    78 3B 8F 3A B0
   914)      9385.827 1  Rx        0331 -  8    AD 3A DB 3D 64 56 8C 46
   915)      9385.955 1  Rx        011B -  7    DB DC A7 3D 57 9C 33
   916)      9386.083 1  Rx        006E -  7    DE 06 69 8E A5 4C 55
   917)      9386.211 1  Rx        0106 -  7    BC A6 96 BB 8A 31 70
   918)      9386.339 1  Rx        0132 -  7    06 2D 37 BF 71 00 4E
   919)      9386.467 1  Rx        0308 -  8    83 4A 7F ED B8 75 9C FB
   920)      9386.595 1  Rx        0206 -  7    44 9C F1 A7 A3 67 92
   921)      9386.723 1  Rx        0212 -  7    84 D6 8F 23 4B 3B 0E
   922)      9386.851 1  Rx        0222 -  8    A2 B7 B8 68 29 D7 FF 51
   923)      9386.979 1  Rx        0459 -  8    9E 36 F2 D3 ED E2 14 63
   924)      9387.107 1  Rx        0451 -  8    88 F5 20 CB A7 D6 EF 31
   925)      9387.235 1  Rx        0441 -  8    7D 38 64 ED 1C 0F 44 8E
   926)      9387.406 1  Rx    1AFB1C04 -  8    95 7C 04 2D 2E AB 42 E7
   927)      9387.534 1  Rx    1AFB1C00 -  8    8D 67 49 89 9D F4 AC 9D
   928)      9387.662 1  Rx        0419 -  8    E2 FD AE FC 7E 67 A8 8C
   929)      9387.832 1  Rx        0411 -  8    4D 7D FD 38 F7 36 68 23
   930)      9397.334 1  Rx        0332 -  8    94 2F 58 13 77 7D 9F 97
   931)      9397.462 1  Rx        011A -  5    F3 10 2C A9 63
   932)      9397.633 1  Rx        0331 -  8    5E 49 ED BC 0D 63 02 CD
   933)      9397.761 1  Rx        011B -  7    D1 9F 60 2A ED 7F 5F
   934)      9397.889 1  Rx        006E -  7    01 83 80 C9 B6 6B 04
   935)      9398.017 1  Rx        0106 -  7    D1 9B 60 6F C5 2D 81
   936)      9398.145 1  Rx        0132 -  7    F8 AE F4 97 D1 F8 B0
   937)      9398.273 1  Rx        0308 -  8    C7 73 C0 D5 D9 6E F0 74
   938)      9398.401 1  Rx        0206 -  7    69 77 84 E2 E6 10 4B
   939)      9398.529 1  Rx        0212 -  7    FD 93 CC 16 73 83 F1
   940)      9398.657 1  Rx        0222 -  8    9A C8 27 7B 94 48 7E 8D
   941)      9398.785 1  Rx        0459 -  8    55 9F F0 F1 08 84 FE 4D
   942)      9398.913 1  Rx        0451 -  8    91 D7 F3 6B 8A 87 A5 21
   943)      9399.041 1  Rx        0441 -  8    40 FF 37 99 76 B6 3D 27
   944)      9399.212 1  Rx    1AFB1C04 -  8    22 22 19 1D 07 69 C0 E7
   945)      9399.340 1  Rx    1AFB1C00 -  8    78 FE CE ED DE E3 A4 0C
   946)      9399.468 1  Rx        0419 -  8    AF 2B FB 75 95 3D 3C 28
   947)      9399.596 1  Rx        0411 -  8    AB ED 5A 56 87 0C FA CB
   948)      9409.153 1  Rx        0332 -  8    EF AA 2C ED 10 E4 9F 81
   949)      9409.238 1  Rx        011A -  5    66 AB 32 E4 03
   950)      9409.366 1  Rx        0331 -  8    2A C6 BE E7 0D AC 07 82
   951)      9409.494 1  Rx        011B -  7    A1 79 3D C7 76 77 BC
   952)      9409.622 1  Rx        006E -  7    CC 27 BE 1A 7C 85 76
   953)      9409.750 1  Rx        0106 -  7    1E FE F1 ED BA 6E 3B
   954)      9409.878 1  Rx        0132 -  7    AD 3A 11 FF 04 61 98
   955)      9410.006 1  Rx        0308 -  8    03 54 07 D2 74 3D 1E B4
   956)      9410.134 1  Rx        0206 -  7    6D 3B B6 23 2F BE 19
   957)      9410.390 1  Rx        0212 -  7    23 5B AC D7 F0 33 57
   958)      9410.561 1  Rx        0222 -  8    3E 38 38 EB D9 67 45 92
   959)      9410.689 1  Rx        0459 -  8    CB FB 72 39 D5 08 80 CC
   960)      9410.817 1  Rx        0451 -  8    50 5A 60 F0 A2 DA 67 F4
   961)      9410.945 1  Rx        0441 -  8    E2 71 3F 2F 33 5D 68 11
   962)      9411.073 1  Rx    1AFB1C04 -  8    A6 37 E1 2C EF 0B F9 36
   963)      9411.243 1  Rx    1AFB1C00 -  8    83 0A 96 B8 8A 66 4A 72
   964)      9411.371 1  Rx        0419 -  8    E1 6A 72 BE 04 E1 4A 13
   965)      9411.499 1  Rx        0411 -  8    1E BD 63 C0 64 D8 B5 DD
   966)      9420.843 1  Rx        0332 -  8    A2 17 A4 BB 52 42 DE 1C
   967)      9421.014 1  Rx        011A -  5    22 6F 28 8B 2A
   968)      9421.142 1  Rx        0331 -  8    70 82 8A D1 3F 8D D8 55
   969)      9421.270 1  Rx        011B -  7    01 1E 00 4A 94 89 85
   970)      9421.398 1  Rx        006E -  7    73 0E 15 A1 9F 46 7E
   971)      9421.526 1  Rx        0106 -  7    FE 67 78 F6 C1 E5 17
   972)      9421.654 1  Rx        0132 -  7    F8 D7 1E C8 DD 1A 6D
   973)      9421.782 1  Rx        0308 -  8    0A E8 F0 C4 65 76 17 67
   974)      9421.910 1  Rx        0206 -  7    BD 71 CB 7B C4 F4 D4
   975)      9422.038 1  Rx        0212 -  7    01 2A 85 20 7B AE 7B
   976)      9422.166 1  Rx        0222 -  8    5E 02 97 C0 1A DF 97 17
   977)      9422.294 1  Rx        0459 -  8    5A CC 5E C5 02 E7 AF BA
   978)      9422.422 1  Rx        0451 -  8    37 70 2C B5 9E 91 86 33
   979)      9422.550 1  Rx        0441 -  8    26 C2 38 85 55 87 45 6C
   980)      9422.720 1  Rx    1AFB1C04 -  8    C9 B1 95 78 3A 13 03 32
   981)      9422.848 1  Rx    1AFB1C00 -  8    37 77 71 9C DF 5E DD 54
   982)      9422.976 1  Rx        0419 -  8    45 B8 29 0D 08 CD 10 18
   983)      9423.104 1  Rx        0411 -  8    B3 DA 04 8C DE 8D BF 7A
   984)      9432.491 1  Rx        0332 -  8    E8 7B 94 96 81 21 0B 0E
   985)      9432.619 1  Rx        011A -  5    5C 26 E1 A5 EC
   986)      9432.747 1  Rx        0331 -  8    DA 34 01 4C 8A EC BA F4
   987)      9432.875 1  Rx        011B -  7    F0 60 36 61 B7 41 EE
   988)      9433.003 1  Rx        006E -  7    3B 45 9D BF 96 AF DD
   989)      9433.131 1  Rx        0106 -  7    D7 6F BE 18 08 B9 07
   990)      9433.259 1  Rx        0132 -  7    78 DA 46 C0 35 7D CC
   991)      9433.387 1  Rx        0308 -  8    62 19 49 A7 B7 9E 73 B0
   992)      9433.515 1  Rx        0206 -  7    E3 1F FD 7A 5D 07 D9
   993)      9433.643 1  Rx        0212 -  7    E8 0A E5 29 48 B1 04
   994)      9433.771 1  Rx        0222 -  8    B3 B5 80 3F 77 B1 98 45
   995)      9433.899 1  Rx        0459 -  8    DA EA 8D 3D E4 E6 99 D6
   996)      9434.027 1  Rx        0451 -  8    CD 21 DB 92 D2 B7 24 6F
   997)      9434.155 1  Rx        0441 -  8    D3 FC C9 2F 09 D4 4B 60
   998)      9434.326 1  Rx    1AFB1C04 -  8    53 BA 26 CA 0F B7 3A 05
   999)      9434.454 1  Rx    1AFB1C00 -  8    64 0A 34 90 EF A3 46 AF
  1000)      9434.582 1  Rx        0419 -  8    EA EC A6 F8 A9 3A E5 17
  1001)      9434.710 1  Rx        0411 -  8    6F 6E 2C E6 FF F2 E1 94
  1002)      9444.395 1  Rx        0332 -  8    9E D0 56 E5 65 93 A3 42
  1003)      9444.480 1  Rx        011A -  5    98 94 9B 6C F5
  1004)      9444.608 1  Rx        0331 -  8    91 96 00 46 A5 8A C5 D6
  1005)      9444.736 1  Rx        011B -  7    D6 62 40 B0 5E 8D 09
  1006)      9444.864 1  Rx        006E -  7    D5 7E 71 39 D2 19 1F
  1007)      9444.992 1  Rx        0106 -  7    C9 8B CD 8E 07 40 BD
  1008)      9445.120 1  Rx        0132 -  7    97 B4 6F EB E1 6F 36
  1009)      9445.248 1  Rx        0308 -  8    D1 2C 80 CE EA 18 20 A5
  1010)      9445.376 1  Rx        0206 -  7    D2 3F 0D 34 9A F6 DC
  1011)      9445.504 1  Rx        0212 -  7    58 56 B2 AC 7A 48 23
  1012)      9445.632 1  Rx        0222 -  8    74 40 B4 7B AE 2E 64 4D
  1013)      9445.760 1  Rx        0459 -  8    D3 87 45 2F 9B 85 A4 7E
  1014)      9445.888 1  Rx        0451 -  8    00 5D 01 42 C1 75 DF F2
  1015)      9446.016 1  Rx        0441 -  8    E9 D4 B3 CE FF C0 A6 6A
  1016)      9446.187 1  Rx    1AFB1C04 -  8    AE B3 03 4E 89 37 A4 6F
  1017)      9446.315 1  Rx    1AFB1C00 -  8    C1 13 D0 AE 30 EB 59 2A
  1018)      9446.443 1  Rx        0419 -  8    8D E2 70 71 67 15 02 BE
  1019)      9446.571 1  Rx        0411 -  8    4A 48 6C E5 BB 36 BC DC
  1020)      9455.957 1  Rx        0332 -  8    AD B7 3F DC 77 DE 4D 04
  1021)      9456.043 1  Rx        011A -  5    94 61 47 9E 2A
  1022)      9456.171 1  Rx        0331 -  8    3F 27 FB BE 0E B1 D2 B5
  1023)      9456.299 1  Rx        011B -  7    0F 24 EB 5D B9 98 3E
  1024)      9456.427 1  Rx        006E -  7    0D A2 2B 7A 07 DF 9F
  1025)      9456.555 1  Rx        0106 -  7    4C 4C C2 86 21 09 1F
  1026)      9456.683 1  Rx        0132 -  7    BF 5C C7 B1 C7 D4 75
  1027)      9456.811 1  Rx        0308 -  8    28 C8 8D 43 43 3C E1 63
  1028)      9456.939 1  Rx        0206 -  7    79 3B D5 05 D5 F8 68
  1029)      9457.067 1  Rx        0212 -  7    74 17 E3 B0 0D 1F 03
  1030)      9457.195 1  Rx        0222 -  8    5B 90 93 77 EA 2F 35 59
  1031)      9457.323 1  Rx        0459 -  8    E1 3C 4F 47 9B B7 A8 4C
  1032)      9457.451 1  Rx        0451 -  8    61 CA A2 84 4B 74 50 FE
  1033)      9457.579 1  Rx        0441 -  8    78 65 0A C1 C1 EC 10 75
  1034)      9457.749 1  Rx    1AFB1C04 -  8    85 CD 77 18 5C B8 AE 50
  1035)      9457.877 1  Rx    1AFB1C00 -  8    38 85 4A 74 4E BA 06 55
  1036)      9458.005 1  Rx        0419 -  8    65 0C B8 B4 BB 6A E1 A5
  1037)      9458.133 1  Rx        0411 -  8    4D 4D 1C A9 D2 CA 91 58
  1038)      9467.733 1  Rx        0332 -  8    FD 5D 67 D6 50 09 BA DF
  1039)      9467.861 1  Rx        011A -  5    55 E5 9F 86 E1
  1040)      9467.989 1  Rx        0331 -  8    BC 7C 8F 22 4A 55 FC F3
  1041)      9468.117 1  Rx        011B -  7    FE 41 3D 2C 7A 1C 26
  1042)      9468.245 1  Rx        006E -  7    4D 6C 8F D1 97 0D 4A
  1043)      9468.373 1  Rx        0106 -  7    CD 7F B8 91 CB 2C 2E
  1044)      9468.501 1  Rx        0132 -  7    0D FF B8 55 20 FA CE
  1045)      9468.629 1  Rx        0308 -  8    AA 45 A7 28 D2 51 99 C9
  1046)      9468.757 1  Rx        0206 -  7    BB C4 94 A4 C7 FC CD
  1047)      9468.885 1  Rx        0212 -  7    00 9D 62 8C C5 88 8B
  1048)      9469.013 1  Rx        0222 -  8    36 F6 BF F0 7E A6 02 E1
  1049)      9469.141 1  Rx        0459 -  8    03 57 E1 5C 9A E9 08 2C
  1050)      9469.269 1  Rx        0451 -  8    66 9E DB 2A 33 D0 BC AD
  1051)      9469.397 1  Rx        0441 -  8    AB 56 78 4E 99 70 5E 58
  1052)      9469.568 1  Rx    1AFB1C04 -  8    43 D2 D1 09 37 7A E6 2D
  1053)      9469.738 1  Rx    1AFB1C00 -  8    3E AB F6 04 41 9B EE F5
  1054)      9469.866 1  Rx        0419 -  8    B7 31 98 D9 AD 25 17 69
  1055)      9469.994 1  Rx        0411 -  8    D9 5F CE 2C FE FB 31 F5
  1056)      9471.616 1  Rx        033B -  8    90 5A 63 D6 2D 1E CC F1
  1057)      9471.744 1  Rx        0339 -  8    DC 00 3A 58 9F 11 86 85
  1058)      9471.872 1  Rx        0337 -  7    21 58 C1 4E 87 B7 E2
  1059)      9471.957 1  Rx        001F -  5    4C 28 BA 77 E3
  1060)      9472.085 1  Rx        0333 -  4    D4 42 61 32
  1061)      9472.213 1  Rx        0335 -  8    37 6A 08 78 5E FA CC 97
  1062)      9472.298 1  Rx        0121 -  4    81 73 E4 82
  1063)      9472.426 1  Rx        067F -  8    97 EB 9E 0D 5C C9 BE B7
  1064)      9472.554 1  Rx        0681 -  8    0D AB 6D 21 E3 09 D9 0D
  1065)      9472.682 1  Rx        0309 -  8    E6 8F 35 8A 5B ED 05 EE
  1066)      9472.810 1  Rx        030A -  8    A7 FD 8B 90 51 ED 0E C2
  1067)      9472.938 1  Rx        0622 -  6    18 0D 57 BB 23 37
  1068)      9473.066 1  Rx        0413 -  6    E2 3F 8A 80 89 6B
  1069)      9473.152 1  Rx        0402 -  3    53 41 93
  1070)      9473.280 1  Rx        0739 -  8    C4 EE F6 99 6A 12 F0 43
  1071)      9473.408 1  Rx        0729 -  8    CB F3 26 39 42 41 04 2B
  1072)      9473.536 1  Rx        0728 -  8    2A F1 C1 3D 95 F5 88 A5
  1073)      9473.664 1  Rx        0709 -  8    1D 1C 6A B8 E7 0F 95 FC
  1074)      9473.792 1  Rx        0711 -  8    07 82 F2 98 87 D8 BC 12
  1075)      9480.490 1  Rx        0332 -  8    A6 4B EA E4 C8 5B 23 E0
  1076)      9480.618 1  Rx        011A -  5    90 0D 8B 05 2A
  1077)      9480.746 1  Rx        0331 -  8    AA 1C F3 05 AD 2B 99 EC
  1078)      9480.874 1  Rx        011B -  7    F4 A6 7A E8 32 82 F1
  1079)      9481.002 1  Rx        006E -  7    FD 95 EE BB DB 50 DF
  1080)      9481.130 1  Rx        0106 -  7    2B 69 F1 7F BF 3F 59
  1081)      9481.258 1  Rx        0132 -  7    E8 64 C9 2A 71 00 50
  1082)      9481.386 1  Rx        0308 -  8    12 C5 EE 65 07 61 EB 51
  1083)      9481.514 1  Rx        0206 -  7    B7 80 15 C7 12 57 4B
  1084)      9481.642 1  Rx        0212 -  7    2B B5 52 95 AB E2 6E
  1085)      9481.770 1  Rx        0222 -  8    BE 0D 53 68 F2 9A 8A 88
  1086)      9481.898 1  Rx        0459 -  8    17 44 1E 02 A2 31 1F 43
  1087)      9482.026 1  Rx        0451 -  8    78 64 06 D8 AA 1E 9B E7
  1088)      9482.154 1  Rx        0441 -  8    5A 57 22 A7 14 CA D1 43
  1089)      9482.325 1  Rx    1AFB1C04 -  8    39 60 A7 80 9D BB EE 6A
  1090)      9482.453 1  Rx    1AFB1C00 -  8    75 2E BB E8 44 B6 6A 12
  1091)      9482.581 1  Rx        0419 -  8    1A E6 49 F9 FF 1C CF 33
  1092)      9482.709 1  Rx        0411 -  8    0F BB EE 2F D2 C9 B4 CB
  1093)      9492.437 1  Rx        0332 -  8    3F C1 3F 2F AA BE BA 42
  1094)      9492.522 1  Rx        011A -  5    EF CC A4 D7 56
  1095)      9492.693 1  Rx        0331 -  8    FC BF D3 18 DE F5 8F 5A
  1096)      9492.821 1  Rx        011B -  7    E2 D7 E8 17 8B 89 CA
  1097)      9492.949 1  Rx        006E -  7    88 24 22 F2 67 E4 11
  1098)      9493.034 1  Rx        0106 -  7    5F BD 59 86 F0 92 1E
  1099)      9493.162 1  Rx        0132 -  7    15 8C 36 69 53 F0 E1
  1100)      9493.290 1  Rx        0308 -  8    1A F4 6C 0E EB A4 71 9D
  1101)      9493.418 1  Rx        0206 -  7    E9 D4 FE 53 94 CC 19
  1102)      9493.546 1  Rx        0212 -  7    C8 1D D4 88 21 91 85
  1103)      9493.717 1  Rx        0222 -  8    2B E7 05 76 C2 2E 4B 43
  1104)      9493.845 1  Rx        0459 -  8    2C 30 37 B1 5A 59 9D 1E
  1105)      9493.973 1  Rx        0451 -  8    59 1D 0C 56 19 13 1C 61
  1106)      9494.101 1  Rx        0441 -  8    76 C8 36 6F 35 97 3F 96
  1107)      9494.229 1  Rx    1AFB1C04 -  8    5F CF 5B 51 9F 42 C8 2A
  1108)      9494.399 1  Rx    1AFB1C00 -  8    00 B5 BC 3A F7 D9 57 B3
  1109)      9494.527 1  Rx        0419 -  8    97 F0 C9 33 BC 97 D0 F4
  1110)      9494.655 1  Rx        0411 -  8    EC 08 2C 94 0B B4 8D 67
  1111)      9504.383 1  Rx        0332 -  8    EB AB CA CC E1 2A 4E 58
  1112)      9504.469 1  Rx        011A -  5    19 17 C1 C4 58
  1113)      9504.597 1  Rx        0331 -  8    5E 52 CF 15 A6 71 F5 06
  1114)      9504.725 1  Rx        011B -  7    95 8A 79 E9 A6 B2 64
  1115)      9504.853 1  Rx        006E -  7    13 2F 17 54 8A D9 A7
  1116)      9504.981 1  Rx        0106 -  7    B5 43 37 4C A1 32 5F
  1117)      9505.109 1  Rx        0132 -  7    F3 8A B1 34 AD 96 55
  1118)      9505.237 1  Rx        0308 -  8    AC EF E7 F7 F7 0E 07 68
  1119)      9505.365 1  Rx        0206 -  7    18 99 E7 C6 70 84 04
  1120)      9505.493 1  Rx        0212 -  7    31 51 64 E4 16 5A C1
  1121)      9505.621 1  Rx        0222 -  8    BF 6B 91 61 ED AA BF 3B
  1122)      9505.749 1  Rx        0459 -  8    C1 32 E6 06 15 43 E9 6C
  1123)      9505.877 1  Rx        0451 -  8    16 9C 79 3F C2 76 FA F2
  1124)      9506.005 1  Rx        0441 -  8    59 91 CB AD C6 E2 41 ED
  1125)      9506.175 1  Rx    1AFB1C04 -  8    1A 16 E3 87 6B D6 F1 03
  1126)      9506.303 1  Rx    1AFB1C00 -  8    B7 12 F4 4F B0 7B 0E 44
  1127)      9506.474 1  Rx        0419 -  8    64 97 4C AD 6E 9A 4E 23
  1128)      9506.602 1  Rx        0411 -  8    4F E6 A2 65 72 E5 DB 55
  1129)      9515.860 1  Rx        0332 -  8    1D 52 95 E9 01 F9 43 3E
  1130)      9515.946 1  Rx        011A -  5    A3 08 77 C7 24
  1131)      9516.074 1  Rx        0331 -  8    73 EC 64 5C A8 B5 76 22
  1132)      9516.202 1  Rx        011B -  7    EE ED AF C6 86 DA E8
  1133)      9516.330 1  Rx        006E -  7    A2 5C F2 AC D6 1A 3D
  1134)      9516.458 1  Rx        0106 -  7    A1 BB 84 27 13 DC C4
  1135)      9516.586 1  Rx        0132 -  7    65 5A 35 B9 3F CB C2
  1136)      9516.714 1  Rx        0308 -  8    E8 4D 82 3D 66 B8 48 53
  1137)      9516.842 1  Rx        0206 -  7    18 CF 78 19 B1 68 94
  1138)      9516.970 1  Rx        0212 -  7    F7 FC D2 67 25 D0 E9
  1139)      9517.098 1  Rx        0222 -  8    21 96 05 F3 B3 3D 86 D5
  1140)      9517.226 1  Rx        0459 -  8    7B CC 19 2D 45 99 DE 3C
  1141)      9517.354 1  Rx        0451 -  8    06 CE 03 A5 5C 39 34 20
  1142)      9517.482 1  Rx        0441 -  8    74 07 71 29 0F 94 CD E5
  1143)      9517.652 1  Rx    1AFB1C04 -  8    B0 98 2B 7F A2 35 DE 0F
  1144)      9517.780 1  Rx    1AFB1C00 -  8    FF BC 5A A8 A9 E5 82 B1
  1145)      9517.908 1  Rx        0419 -  8    1C 73 A3 25 D8 C7 33 EC
  1146)      9518.036 1  Rx        0411 -  8    2D F4 48 C1 0D D6 28 F0
  1147)      9527.721 1  Rx        0332 -  8    C4 BF 29 20 58 39 77 39
  1148)      9527.849 1  Rx        011A -  5    F4 8A 60 73 06
  1149)      9527.977 1  Rx        0331 -  8    B0 87 01 AB EB 2C 92 14
  1150)      9528.105 1  Rx        011B -  7    A4 19 74 E9 29 0A 64
  1151)      9528.233 1  Rx        006E -  7    95 66 9A 0D F9 44 A9
  1152)      9528.361 1  Rx        0106 -  7    AB 03 D2 06 4D C0 A6
  1153)      9528.489 1  Rx        0132 -  7    A4 62 82 1B 36 9C A8
  1154)      9528.617 1  Rx        0308 -  8    C9 BC 0D AE 57 4C 49 D4
  1155)      9528.745 1  Rx        0206 -  7    71 44 1F A4 B6 D4 9D
  1156)      9528.873 1  Rx        0212 -  7    6F AE C9 6B A6 3F 96
  1157)      9529.001 1  Rx        0222 -  8    F1 83 E3 D0 ED 6C 3B 21
  1158)      9529.129 1  Rx        0459 -  8    23 39 60 A3 3D 1F 06 51
  1159)      9529.257 1  Rx        0451 -  8    AD DF F1 42 4E 3E C0 68
  1160)      9529.385 1  Rx        0441 -  8    22 00 9B E2 59 2D FC 76
  1161)      9529.556 1  Rx    1AFB1C04 -  8    99 E9 4C 49 33 09 21 3C
  1162)      9529.684 1  Rx    1AFB1C00 -  8    87 60 CA FD FA 92 9D 6B
  1163)      9529.812 1  Rx        0419 -  8    41 79 EA 7D B0 BC E0 10
  1164)      9529.940 1  Rx        0411 -  8    0E 4C 12 AC 4C B0 C8 22
  1165)      9539.583 1  Rx        0332 -  8    5B 16 47 5D E6 A0 32 75
  1166)      9539.668 1  Rx        011A -  5    9C B8 A8 E2 B6
  1167)      9539.839 1  Rx        0331 -  8    F8 0E 0E 19 19 BA 05 ED
  1168)      9539.967 1  Rx        011B -  7    10 97 F3 1E 89 B4 1F
  1169)      9540.095 1  Rx        006E -  7    02 A2 6D BD 9D 42 D5
  1170)      9540.180 1  Rx        0106 -  7    B2 BA 27 45 77 30 1A
  1171)      9540.308 1  Rx        0132 -  7    BB EE C9 70 F9 FE C3
  1172)      9540.479 1  Rx        0308 -  8    CF A0 40 5A 70 D9 AE 05
  1173)      9540.607 1  Rx        0206 -  7    C1 13 F1 5C 38 C2 85
  1174)      9540.692 1  Rx        0212 -  7    D8 CB 42 64 27 3E 91
  1175)      9540.820 1  Rx        0222 -  8    31 D5 24 D0 B5 39 65 4C
  1176)      9540.948 1  Rx        0459 -  8    49 0D 8F 6E C3 F8 FD B2
  1177)      9541.076 1  Rx        0451 -  8    D5 36 89 35 AD 2A 85 03
  1178)      9541.247 1  Rx        0441 -  8    E8 00 11 D1 B5 BE A6 4F
  1179)      9541.375 1  Rx    1AFB1C04 -  8    D4 61 E1 8C BC 3B DA A5
  1180)      9541.545 1  Rx    1AFB1C00 -  8    03 99 89 94 B2 8F C8 04
  1181)      9541.673 1  Rx        0419 -  8    66 A1 08 B3 F0 5D E6 D4
  1182)      9541.801 1  Rx        0411 -  8    06 69 AD 91 28 88 B6 9F
  1183)      9550.804 1  Rx        0332 -  8    2C 85 4D 9B 9B CD 1D 07
  1184)      9550.889 1  Rx        011A -  5    65 AB 1E 48 C5
  1185)      9551.017 1  Rx        0331 -  8    30 E5 E4 84 68 71 88 DB
  1186)      9551.145 1  Rx        011B -  7    74 AA E0 5E EF 4E 9D
  1187)      9551.273 1  Rx        006E -  7    7C 15 9C F8 13 21 37
  1188)      9551.401 1  Rx        0106 -  7    80 8C 5E 6C AE 92 77
  1189)      9551.486 1  Rx        0132 -  7    77 17 79 D0 3A B9 4B
  1190)      9551.657 1  Rx        0308 -  8    AE 6D 47 EC 2C 70 7C 30
  1191)      9551.785 1  Rx        0206 -  7    92 80 37 32 84 F9 79
  1192)      9551.870 1  Rx        0212 -  7    E7 39 A9 EB 35 2A 6C
  1193)      9552.041 1  Rx        0222 -  8    CF CB 51 7F 6A 48 19 EB
  1194)      9552.169 1  Rx        0459 -  8    53 E5 3E 8B 98 2E 56 46
  1195)      9552.297 1  Rx        0451 -  8    9A C4 F9 99 30 34 F1 2F
  1196)      9552.425 1  Rx        0441 -  8    75 11 C0 95 D7 DB 29 8B
  1197)      9552.596 1  Rx    1AFB1C04 -  8    AC 54 76 48 70 A4 BD CA
  1198)      9552.724 1  Rx    1AFB1C00 -  8    0E 98 D5 35 A2 DF 05 69
  1199)      9552.852 1  Rx        0419 -  8    4D 7E 24 65 1C 19 6E F3
  1200)      9552.980 1  Rx        0411 -  8    C3 C5 28 B9 7E 61 76 95
  1201)      9562.793 1  Rx        0332 -  8    2E 49 25 C8 10 69 CA 80
  1202)      9562.921 1  Rx        011A -  5    46 6A 16 7E D0
  1203)      9563.049 1  Rx        0331 -  8    70 E5 6B 24 23 07 83 33
  1204)      9563.177 1  Rx        011B -  7    39 C6 68 52 AF 21 0C
  1205)      9563.305 1  Rx        006E -  7    2C FC 1B D8 3D FD 0B
  1206)      9563.433 1  Rx        0106 -  7    DC 2B 05 09 6C D4 7A
  1207)      9563.561 1  Rx        0132 -  7    84 2B 4A 46 2D CF F0
  1208)      9563.689 1  Rx        0308 -  8    36 D2 B5 93 57 02 AC 1B
  1209)      9563.817 1  Rx        0206 -  7    8A 94 8C 98 EB 36 48
  1210)      9563.945 1  Rx        0212 -  7    DF 39 DF 46 CC 5B AC
  1211)      9564.073 1  Rx        0222 -  8    14 00 50 82 4D 19 C3 D0
  1212)      9564.201 1  Rx        0459 -  8    F9 7E 91 A4 41 B7 EA F6
  1213)      9564.329 1  Rx        0451 -  8    42 8D C1 F3 B5 A1 5C 97
  1214)      9564.457 1  Rx        0441 -  8    BE 28 78 25 EC A8 DE 5C
  1215)      9564.628 1  Rx    1AFB1C04 -  8    37 72 D4 C1 86 15 56 BA
  1216)      9564.756 1  Rx    1AFB1C00 -  8    71 5E 62 2D 49 BE B2 0F
  1217)      9564.884 1  Rx        0419 -  8    11 E3 AD B8 F3 85 8B A4
  1218)      9565.054 1  Rx        0411 -  8    7F 39 96 51 AA 1A 0D FF
  1219)      9573.673 1  Rx        033B -  8    F7 02 A7 FE 0E C0 3D E5
  1220)      9573.758 1  Rx        0339 -  8    11 C5 E8 DE 78 65 09 7D
  1221)      9573.886 1  Rx        0337 -  7    7D 1B 23 DA AA 4C 76
  1222)      9574.014 1  Rx        001F -  5    69 BD AC 0F 70
  1223)      9574.099 1  Rx        0333 -  4    A4 28 4A 0E
  1224)      9574.227 1  Rx        0335 -  8    76 AC 52 7D C3 1B E8 E4
  1225)      9574.355 1  Rx        0121 -  4    64 35 9A 42
  1226)      9574.441 1  Rx        067F -  8    F2 A3 29 70 DA B9 65 AF
  1227)      9574.611 1  Rx        0681 -  8    BE 5D 03 06 5D BB 91 AD
  1228)      9574.739 1  Rx        0309 -  8    89 3C EE A9 A7 2D 79 08
  1229)      9574.867 1  Rx        030A -  8    B4 0E 3E 2F B8 19 8B 17
  1230)      9574.953 1  Rx        0622 -  6    06 81 39 F6 EC A0
  1231)      9575.081 1  Rx        0413 -  6    29 83 9D 84 BA 43
  1232)      9575.166 1  Rx        0402 -  3    69 0B AF
  1233)      9575.294 1  Rx        0739 -  8    5B 21 2A 01 B2 46 5A 05
  1234)      9575.422 1  Rx        0729 -  8    60 06 1C D2 D9 81 7E 6B
  1235)      9575.593 1  Rx        0728 -  8    37 AF B3 09 28 B2 8A 7E
  1236)      9575.721 1  Rx        0709 -  8    67 3F 34 D4 7F 01 95 32
  1237)      9575.849 1  Rx        0332 -  8    0E B1 73 03 01 07 CD EB
  1238)      9575.934 1  Rx        011A -  5    AE 77 0E C8 81
  1239)      9576.062 1  Rx        0331 -  8    A5 05 E1 85 78 51 DB 77
  1240)      9576.190 1  Rx        011B -  7    0F 14 06 07 E4 FA 50
  1241)      9576.318 1  Rx        006E -  7    F4 1F 51 DF 1D DB 0C
  1242)      9576.446 1  Rx        0106 -  7    3F 51 54 97 5B 91 E6
  1243)      9576.574 1  Rx        0132 -  7    37 39 78 04 07 8B 81
  1244)      9576.702 1  Rx        0308 -  8    13 D2 67 67 32 36 2B 84
  1245)      9576.830 1  Rx        0711 -  8    3C AF BC 25 9C 54 FF F4
  1246)      9576.958 1  Rx        0206 -  7    5E 05 E3 BD 7F 41 6C
  1247)      9577.086 1  Rx        0212 -  7    CE 3A 3F F0 7D EF A4
  1248)      9577.214 1  Rx        0222 -  8    72 E6 AD 2E FD 8D 27 2E
  1249)      9577.342 1  Rx        0459 -  8    BD 48 CE 67 88 6D AE C4
  1250)      9577.470 1  Rx        0451 -  8    CD 48 E3 4B 5E CB C0 C5
  1251)      9577.598 1  Rx        0441 -  8    51 C2 E5 8D 20 33 0C AA
  1252)      9577.769 1  Rx    1AFB1C04 -  8    2B 31 FE DE D3 50 01 1D
  1253)      9577.939 1  Rx    1AFB1C00 -  8    79 10 92 E4 B0 7F A3 E7
  1254)      9578.067 1  Rx        0419 -  8    CD F0 B9 97 B4 B9 10 E6
  1255)      9578.195 1  Rx        0411 -  8    81 7B D3 7C BB 10 B9 45
  1256)      9586.387 1  Rx        0332 -  8    26 94 6E 41 AC 5F F2 5F
  1257)      9586.473 1  Rx        011A -  5    D8 CE 8F 75 25
  1258)      9586.601 1  Rx        0331 -  8    A9 7B F8 B4 BF 6B 36 18
  1259)      9586.729 1  Rx        011B -  7    54 26 87 4D 6B A5 1A
  1260)      9586.857 1  Rx        006E -  7    46 B3 91 B2 C4 8B 53
  1261)      9586.985 1  Rx        0106 -  7    88 F4 DB 9D 1B 1D E9
  1262)      9587.113 1  Rx        0132 -  7    DB 78 7E 02 5F 28 DB
  1263)      9587.241 1  Rx        0308 -  8    C3 25 A4 B1 F7 C8 E7 8B
  1264)      9587.369 1  Rx        0206 -  7    09 8F 10 5C F5 D8 EA
  1265)      9587.497 1  Rx        0212 -  7    06 44 0E 22 84 CE 53
  1266)      9587.625 1  Rx        0222 -  8    33 FF 14 E7 58 90 51 1B
  1267)      9587.753 1  Rx        0459 -  8    57 E5 19 2A 37 1E BE 09
  1268)      9587.881 1  Rx        0451 -  8    AC 6E C3 23 EE D2 C5 6F
  1269)      9588.009 1  Rx        0441 -  8    31 1F 09 BD B2 1C 21 F6
  1270)      9588.179 1  Rx    1AFB1C04 -  8    CE D6 13 46 E0 F0 48 E7
  1271)      9588.350 1  Rx    1AFB1C00 -  8    0E 5C 4C C4 93 B2 F8 28
  1272)      9588.478 1  Rx        0419 -  8    94 23 7D 80 12 13 60 E7
  1273)      9588.606 1  Rx        0411 -  8    F1 13 51 09 FB 6F 52 97
  1274)      9598.035 1  Rx        0332 -  8    B2 6A 26 9A 68 62 B7 B6
  1275)      9598.120 1  Rx        011A -  5    A8 E2 3D 4E D6
  1276)      9598.248 1  Rx        0331 -  8    21 29 AB 98 E3 AE 18 2C
  1277)      9598.376 1  Rx        011B -  7    B4 87 AC C3 6C 17 9C
  1278)      9598.504 1  Rx        006E -  7    0B AD A0 E1 C6 0D DE
  1279)      9598.632 1  Rx        0106 -  7    8F B0 FD 47 F8 F4 EF
  1280)      9598.760 1  Rx        0132 -  7    06 05 84 F4 EF 06 D0
  1281)      9598.888 1  Rx        0308 -  8    E1 2F 10 8B 80 82 91 A5
  1282)      9599.016 1  Rx        0206 -  7    B1 3F 2B 65 85 5F 80
  1283)      9599.144 1  Rx        0212 -  7    74 FA 20 D2 91 54 0D
  1284)      9599.272 1  Rx        0222 -  8    04 BD 9A 1F D5 24 11 0B
  1285)      9599.400 1  Rx        0459 -  8    FB 83 1A 81 A2 EB 09 71
  1286)      9599.528 1  Rx        0451 -  8    6E FD 2A 0E FE 74 01 AE
  1287)      9599.699 1  Rx        0441 -  8    B2 5D F2 60 D2 8E C6 5B
  1288)      9599.827 1  Rx    1AFB1C04 -  8    6E A0 66 17 5A B2 0F FD
  1289)      9599.998 1  Rx    1AFB1C00 -  8    C6 D8 E4 40 D1 BF 34 4F
  1290)      9600.126 1  Rx        0419 -  8    A1 0B 98 75 80 02 0E DE
  1291)      9600.254 1  Rx        0411 -  8    8E 8D 18 B7 90 1A 5A 84
  1292)      9609.683 1  Rx        0332 -  8    00 AA 90 06 58 00 62 2B
  1293)      9609.811 1  Rx        011A -  5    22 D1 9B A3 25
  1294)      9609.939 1  Rx        0331 -  8    12 A1 A4 2D E8 0D 7D 48
  1295)      9610.067 1  Rx        011B -  7    18 66 68 09 8A 39 F9
  1296)      9610.195 1  Rx        006E -  7    C0 45 8C E0 7D 09 F0
  1297)      9610.323 1  Rx        0106 -  7    DF 39 84 93 03 63 C9
  1298)      9610.408 1  Rx        0132 -  7    EF 56 72 79 9B E0 B7
  1299)      9610.579 1  Rx        0308 -  8    3B F0 65 9B 9E 9B 30 91
  1300)      9610.707 1  Rx        0206 -  7    D9 E4 F9 0F 90 57 CC
  1301)      9610.792 1  Rx        0212 -  7    77 FC D4 09 47 20 90
  1302)      9610.963 1  Rx        0222 -  8    C0 B9 83 E5 C0 3F 90 20
  1303)      9611.091 1  Rx        0459 -  8    0D D5 5D 7F 34 F3 3F BF
  1304)      9611.219 1  Rx        0451 -  8    6A 46 BF D4 4D 5E 67 12
  1305)      9611.347 1  Rx        0441 -  8    D2 C0 09 22 EB 8B F5 3E
  1306)      9611.518 1  Rx    1AFB1C04 -  8    09 30 EF ED 6E 5B 14 97
  1307)      9611.646 1  Rx    1AFB1C00 -  8    62 A8 17 70 96 50 C9 7E
  1308)      9611.774 1  Rx        0419 -  8    F3 84 41 12 90 A8 E1 36
  1309)      9611.944 1  Rx        0411 -  8    62 66 75 9E FD F9 32 77
  1310)      9621.459 1  Rx        0332 -  8    48 0C C1 E3 E9 AF F1 A1
  1311)      9621.587 1  Rx        011A -  5    65 40 10 88 E4
  1312)      9621.715 1  Rx        0331 -  8    6A E2 89 82 6B 6D E7 BB
  1313)      9621.843 1  Rx        011B -  7    5E CC 80 BB 35 43 73
  1314)      9621.971 1  Rx        006E -  7    2C E1 ED 4A 81 32 5F
  1315)      9622.099 1  Rx        0106 -  7    2C 39 F4 3C A4 D6 5B
  1316)      9622.184 1  Rx        0132 -  7    CB 38 56 63 B1 59 37
  1317)      9622.355 1  Rx        0308 -  8    6A C5 1A 1A 3E EE 36 23
  1318)      9622.440 1  Rx        0206 -  7    95 DA 5E 44 F2 CB 0E
  1319)      9622.568 1  Rx        0212 -  7    95 1D D5 B3 1F 02 C7
  1320)      9622.696 1  Rx        0222 -  8    65 1A E2 E8 DA 63 C4 B1
  1321)      9622.824 1  Rx        0459 -  8    AB 20 FE DD 5B 5D 22 34
  1322)      9622.952 1  Rx        0451 -  8    5E 03 0D EA B7 04 51 91
  1323)      9623.123 1  Rx        0441 -  8    5E 81 4D DF C3 1A 87 6B
  1324)      9623.251 1  Rx    1AFB1C04 -  8    FB E6 7D D0 66 63 08 98
  1325)      9623.421 1  Rx    1AFB1C00 -  8    74 A8 A2 AA 01 6C E8 5A
  1326)      9623.549 1  Rx        0419 -  8    CC 7C B1 CF 6D 39 DD 11
  1327)      9623.677 1  Rx        0411 -  8    85 E0 8E FC 93 F2 85 16
  1328)      9633.107 1  Rx        0332 -  8    16 7C FA AB 86 ED F0 B4
  1329)      9633.192 1  Rx        011A -  5    87 73 88 17 67
  1330)      9633.320 1  Rx        0331 -  8    43 08 7A A7 7A 6A 3D A1
  1331)      9633.448 1  Rx        011B -  7    95 42 AA FC 14 61 BD
  1332)      9633.576 1  Rx        006E -  7    53 38 05 28 77 1B B9
  1333)      9633.704 1  Rx        0106 -  7    F4 37 22 E0 9E 6D 6D
  1334)      9633.832 1  Rx        0132 -  7    80 57 BA 03 0B A1 95
  1335)      9633.960 1  Rx        0308 -  8    C0 7E 28 E5 6A 95 CA A1
  1336)      9634.088 1  Rx        0206 -  7    24 AD ED B7 1D 7F 1C
  1337)      9634.216 1  Rx        0212 -  7    5E 5B EE D1 33 9B CD
  1338)      9634.344 1  Rx        0222 -  8    74 BA 11 40 CE 01 5E 8E
  1339)      9634.472 1  Rx        0459 -  8    83 B2 87 A7 70 42 47 C4
  1340)      9634.600 1  Rx        0451 -  8    EE 2F 60 92 B2 6F A5 15
  1341)      9634.728 1  Rx        0441 -  8    76 F4 36 E3 3A CA 7B F5
  1342)      9634.898 1  Rx    1AFB1C04 -  8    FF 83 CB 42 0F B2 75 BF
  1343)      9635.026 1  Rx    1AFB1C00 -  8    82 ED E6 E4 C3 3C 00 7D
  1344)      9635.154 1  Rx        0419 -  8    50 18 57 62 C6 97 F1 7F
  1345)      9635.282 1  Rx        0411 -  8    70 84 52 33 79 71 D0 11
  1346)      9644.754 1  Rx        0332 -  8    8A 62 7D DD 99 E1 3E C8
  1347)      9644.840 1  Rx        011A -  5    B4 30 67 0D AB
  1348)      9644.968 1  Rx        0331 -  8    C8 B5 A2 67 4A 23 81 12
  1349)      9645.096 1  Rx        011B -  7    7B AF A7 F9 32 C4 62
  1350)      9645.224 1  Rx        006E -  7    AF C8 EF A6 2C 81 05
  1351)      9645.352 1  Rx        0106 -  7    B0 0E 39 F7 88 57 B2
  1352)      9645.480 1  Rx        0132 -  7    FB D5 63 8B 54 DF 6B
  1353)      9645.608 1  Rx        0308 -  8    2F 88 6A 40 C9 F4 9E E6
  1354)      9645.736 1  Rx        0206 -  7    71 BA 3D 0F AC 15 44
  1355)      9645.864 1  Rx        0212 -  7    DC 8D 5E 7C 93 FA E4
  1356)      9645.992 1  Rx        0222 -  8    6B E7 05 51 14 21 34 4C
  1357)      9646.120 1  Rx        0459 -  8    DA 3E B2 42 6A AE 32 6B
  1358)      9646.248 1  Rx        0451 -  8    FA 87 EC C5 B1 25 38 24
  1359)      9646.376 1  Rx        0441 -  8    FD D0 A3 8B 38 5A 26 96
  1360)      9646.546 1  Rx    1AFB1C04 -  8    2A FE C9 27 B3 EC 07 64
  1361)      9646.674 1  Rx    1AFB1C00 -  8    6D B3 A6 1A 48 D6 27 CF
  1362)      9646.802 1  Rx        0419 -  8    9C 7F 73 12 32 2C FD 9C
  1363)      9646.930 1  Rx        0411 -  8    52 3C C7 33 D8 63 4F 23
  1364)      9656.445 1  Rx        0332 -  8    85 F2 C9 88 F6 CB 4E 14
  1365)      9656.530 1  Rx        011A -  5    6B 52 E6 AB 6E
  1366)      9656.658 1  Rx        0331 -  8    6C 15 38 52 72 67 BF 0B
  1367)      9656.786 1  Rx        011B -  7    18 40 C1 4F 86 CD C6
  1368)      9656.914 1  Rx        006E -  7    13 11 0A D5 79 AC 0B
  1369)      9657.042 1  Rx        0106 -  7    6C 7D 3C 97 20 4A DE
  1370)      9657.170 1  Rx        0132 -  7    7A A1 52 BF C7 57 CD
  1371)      9657.298 1  Rx        0308 -  8    F0 03 D0 28 81 2E 02 85
  1372)      9657.426 1  Rx        0206 -  7    DE 72 63 07 6C F9 14
  1373)      9657.554 1  Rx        0212 -  7    3A 47 DF 0C ED E4 87
  1374)      9657.682 1  Rx        0222 -  8    1B 9F 4D A4 6D CF 08 9D
  1375)      9657.810 1  Rx        0459 -  8    0F 31 04 C4 7C 7C 50 3E
  1376)      9657.938 1  Rx        0451 -  8    9A 76 8D DC DC 28 EE F3
  1377)      9658.066 1  Rx        0441 -  8    4C 83 F2 BA 3F A3 B3 43
  1378)      9658.237 1  Rx    1AFB1C04 -  8    58 1D 55 BF 0A 5E C7 D2
  1379)      9658.407 1  Rx    1AFB1C00 -  8    B6 BF A8 E1 BB D6 46 90
  1380)      9658.535 1  Rx        0419 -  8    8C FD E6 C1 05 9A 38 C2
  1381)      9658.663 1  Rx        0411 -  8    7A 86 FB BD 41 15 56 FE
  1382)      9668.391 1  Rx        0332 -  8    B2 60 20 D6 25 FB 82 DA
  1383)      9668.477 1  Rx        011A -  5    5F 1F 96 4C 95
  1384)      9668.605 1  Rx        0331 -  8    A0 38 45 96 96 5B 38 89
  1385)      9668.733 1  Rx        011B -  7    4D 11 84 6F 6B B2 7A
  1386)      9668.861 1  Rx        006E -  7    99 17 C8 0C B7 CF 06
  1387)      9668.989 1  Rx        0106 -  7    38 85 F2 11 24 E0 A8
  1388)      9669.117 1  Rx        0132 -  7    9D FE AC 4F 83 F5 B8
  1389)      9669.245 1  Rx        0308 -  8    AE 58 39 CF B3 E7 FB 83
  1390)      9669.373 1  Rx        0206 -  7    14 53 1B E9 C7 72 81
  1391)      9669.501 1  Rx        0212 -  7    3A D9 CE 83 14 4A 68
  1392)      9669.629 1  Rx        0222 -  8    CA D7 4A 79 ED C5 1B DE
  1393)      9669.757 1  Rx        0459 -  8    B1 BE AA 6B B7 9E 91 24
  1394)      9669.885 1  Rx        0451 -  8    9A F5 F1 5B 7B 11 81 7E
  1395)      9670.013 1  Rx        0441 -  8    E1 16 DD CE 8B 4C 3A 63
  1396)      9670.183 1  Rx    1AFB1C04 -  8    71 10 AD 7F DD F4 84 A9
  1397)      9670.354 1  Rx    1AFB1C00 -  8    55 29 AC FF F6 B8 6B 13
  1398)      9670.482 1  Rx        0419 -  8    BA 46 B4 12 82 33 D5 B6
  1399)      9670.610 1  Rx        0411 -  8    65 63 76 90 5D C9 B6 C8
  1400)      9675.943 1  Rx        033B -  8    B6 F0 E6 D0 F1 7A CC 2D
  1401)      9676.071 1  Rx        0339 -  8    B5 CB 52 F2 AC 51 F4 B5
  1402)      9676.199 1  Rx        0337 -  7    32 1A D8 3B DF 7A 13
  1403)      9676.285 1  Rx        001F -  5    4F 4F A6 DB AC
  1404)      9676.413 1  Rx        0333 -  4    58 70 3D CE
  1405)      9676.541 1  Rx        0335 -  8    10 0C C7 41 00 82 10 23
  1406)      9676.626 1  Rx        0121 -  4    51 82 04 7E
  1407)      9676.754 1  Rx        067F -  8    45 5C FA 01 3C F6 25 0C
  1408)      9676.882 1  Rx        0681 -  8    92 A6 84 BC 85 58 96 E1
  1409)      9677.052 1  Rx        0309 -  8    87 4F 96 C5 5E 5F 28 E7
  1410)      9677.180 1  Rx        030A -  8    17 F3 6A 66 65 FB DB C8
  1411)      9677.308 1  Rx        0622 -  6    25 9A 3D C0 F7 6E
  1412)      9677.436 1  Rx        0413 -  6    7C 46 24 31 93 9B
