;$FILEVERSION=1.3
;$STARTTIME=45250.6270474572229
;
;   Start time: 20/11/2023 15:02:56.900.3
;   Generated by PCAN-Explorer v6.6.1.2744
;-------------------------------------------------------------------------------
;   Bus  Connection   Net Connection    Protocol  Bit rate
;   1    Connection1  CAN_USB@pcan_usb  CAN       1 Mbit/s
;-------------------------------------------------------------------------------
;   Message   Time    Bus  Type   ID    Reserved
;   Number    Offset  |    |      [hex] |   Data Length Code
;   |         [ms]    |    |      |     |   |    Data [hex] ...
;   |         |       |    |      |     |   |    |
;---+-- ------+------ +- --+-- ---+---- +- -+-- -+ -- -- -- -- -- -- --
     1)     26298.116 1  Rx        0332 -  8    BE 9E E0 D5 B8 C9 EB B8
     2)     26298.201 1  Rx        011A -  5    80 7A 9C 9B E3
     3)     26298.329 1  Rx        0331 -  8    63 9E C4 F0 81 19 98 7D
     4)     26298.457 1  Rx        011B -  7    65 3D C2 1C A0 DF 24
     5)     26298.585 1  Rx        006E -  7    86 54 C7 47 30 CA C7
     6)     26298.713 1  Rx        0106 -  7    A5 97 12 91 46 92 2E
     7)     26298.841 1  Rx        0132 -  7    58 82 65 2B 36 B5 61
     8)     26298.969 1  Rx        0308 -  8    1F B4 F5 42 4F 26 C2 B3
     9)     26299.097 1  Rx        0206 -  7    FD C3 8C D8 29 5B C1
    10)     26299.225 1  Rx        0212 -  7    4D C9 6C DB 58 A3 72
    11)     26299.353 1  Rx        0222 -  8    27 CD 37 7F 67 F5 22 27
    12)     26299.481 1  Rx        0459 -  8    3D 82 D9 52 B8 49 A3 93
    13)     26299.609 1  Rx        0451 -  8    DD 1B C3 9A CB B2 F0 20
    14)     26299.737 1  Rx        0441 -  8    AA A5 B0 EC 4C 78 20 E7
    15)     26299.908 1  Rx    1AFB1C04 -  8    C7 6B 56 C2 E4 E1 10 32
    16)     26300.036 1  Rx    1AFB1C00 -  8    6E 8B 16 0B 46 A8 66 00
    17)     26300.164 1  Rx        0419 -  8    CA EB 84 73 F8 87 9A D5
    18)     26400.258 1  Rx        0332 -  8    00 9E E0 7A B8 C9 EB 1D
    19)     26400.941 1  Rx        011A -  5    80 0E A6 9B 45
    20)     26401.581 1  Rx        0331 -  8    3A E9 C4 F0 81 4E 98 7D
    21)     26402.221 1  Rx        011B -  7    65 C8 C2 22 A0 B2 D0
    22)     26402.775 1  Rx        006E -  7    86 54 C1 47 A7 CA C7
    23)     26403.245 1  Rx        0106 -  7    06 97 12 0B 46 FF 2E
    24)     26403.629 1  Rx        0132 -  7    A7 82 65 2B 28 0E F5
    25)     26403.885 1  Rx        0308 -  8    0D B4 1F 42 1C 26 C2 B3
    26)     26404.098 1  Rx        0206 -  7    CD C3 0D 6C C3 5B C1
    27)     26404.439 1  Rx        0212 -  7    D2 52 6C DB DF A3 86
    28)     26404.695 1  Rx        0222 -  8    94 A0 37 7F AD F5 6B 27
    29)     26404.951 1  Rx        0459 -  8    68 82 0C 77 D4 49 A3 26
    30)     26405.250 1  Rx        0451 -  8    3D 1B D1 9A CB 14 99 20
    31)     26405.634 1  Rx        0441 -  8    AA A5 01 EC 4C AB 20 38
    32)     26406.061 1  Rx    1AFB1C04 -  8    4F 9C 56 E6 2C 1C 8F 32
    33)     26406.445 1  Rx    1AFB1C00 -  8    6E 97 16 5D 05 A8 66 00
    34)     26406.786 1  Rx        0419 -  8    CA EF 84 73 69 75 9A D5
    35)     26507.819 1  Rx        0332 -  8    FA CF 50 7A 6E 6E 6A 1D
    36)     26508.374 1  Rx        011A -  5    C2 0E A6 9B 45
    37)     26508.971 1  Rx        0331 -  8    3A CE 10 B2 48 BB 98 7D
    38)     26509.483 1  Rx        011B -  7    07 5D C2 22 A0 21 6B
    39)     26509.824 1  Rx        006E -  7    86 30 AF 5D 77 13 C7
    40)     26510.166 1  Rx        0106 -  7    0C 97 F0 65 46 32 CF
    41)     26510.507 1  Rx        0132 -  7    A7 82 E0 2B 19 CB CC
    42)     26510.806 1  Rx        0308 -  8    7C 4E DC 42 1C DB AD B3
    43)     26511.062 1  Rx        0206 -  7    CD 0C 0D 6C 61 5B C1
    44)     26511.318 1  Rx        0212 -  7    D2 52 71 DB F0 8C AD
    45)     26511.616 1  Rx        0222 -  8    94 A0 F9 7F 27 13 05 27
    46)     26511.872 1  Rx        0459 -  8    32 23 0C A9 45 7B 2B 26
    47)     26512.128 1  Rx        0451 -  8    61 81 D1 9A E3 14 99 20
    48)     26512.427 1  Rx        0441 -  8    1F 63 01 EC 4C AB FB 15
    49)     26512.768 1  Rx    1AFB1C04 -  8    46 2B 77 2D 4B 1C 71 32
    50)     26513.024 1  Rx    1AFB1C00 -  8    6E B0 C6 C4 05 A8 DD 00
    51)     26513.323 1  Rx        0419 -  8    10 EF 06 8C 8B 75 9A 3B
    52)     26599.807 1  Rx        033B -  8    6B 01 43 1C 35 37 C5 26
    53)     26599.935 1  Rx        0339 -  8    7C EA 13 AD 5C 66 94 12
    54)     26600.063 1  Rx        0337 -  7    20 99 36 CF 7C 61 36
    55)     26600.148 1  Rx        001F -  5    8C B4 BC 45 A8
    56)     26600.276 1  Rx        0333 -  4    34 CB F1 90
    57)     26600.404 1  Rx        0335 -  8    B7 7A AD 24 CA 89 82 67
    58)     26600.490 1  Rx        0121 -  4    38 24 E3 96
    59)     26600.618 1  Rx        067F -  8    42 28 76 4A 42 90 5E 11
    60)     26601.044 1  Rx        0681 -  8    51 23 85 E9 B7 83 45 9D
    61)     26601.215 1  Rx        0309 -  8    77 D5 AB 0F 07 01 A9 43
    62)     26601.343 1  Rx        030A -  8    A6 9B E4 37 C4 6E 5F 91
    63)     26601.428 1  Rx        0622 -  6    83 30 E3 2F A6 0C
    64)     26601.556 1  Rx        0413 -  6    E1 8E F9 6F 9D 5A
    65)     26601.642 1  Rx        0402 -  3    3D E0 EB
    66)     26601.770 1  Rx        0739 -  8    69 76 C5 DA F1 F1 3C DB
    67)     26601.898 1  Rx        0411 -  8    CF 2E 7B 0D C4 99 5C EC
    68)     26602.026 1  Rx        0729 -  8    A7 E7 B6 EE 5D 5A B6 53
    69)     26602.154 1  Rx        0728 -  8    98 04 33 B3 E3 E8 60 EE
    70)     26602.282 1  Rx        0709 -  8    4C 17 0C 70 75 AE 8A D4
    71)     26602.410 1  Rx        0711 -  8    68 2F 8D C1 D7 44 BD 4A
    72)     26614.727 1  Rx        0332 -  8    60 67 14 7A 6E 6E 8F 3F
    73)     26615.239 1  Rx        011A -  5    30 0E A6 9B 45
    74)     26615.837 1  Rx        0331 -  8    3A 6F 06 3A 48 93 48 31
    75)     26616.221 1  Rx        011B -  7    07 BC C2 20 A0 21 6B
    76)     26616.647 1  Rx        006E -  7    86 AA ED 5D 77 13 E4
    77)     26616.946 1  Rx        0106 -  7    6D 97 8C 65 1B 71 CE
    78)     26617.287 1  Rx        0132 -  7    23 4D 17 2B 19 CB 08
    79)     26617.586 1  Rx        0308 -  8    F4 F5 DC 42 1C DB 0E B3
    80)     26617.885 1  Rx        0206 -  7    6F 73 0D 6C BD 5B BB
    81)     26618.098 1  Rx        0212 -  7    D2 52 71 B3 35 E0 0E
    82)     26618.354 1  Rx        0222 -  8    94 A0 1D 7F 59 D2 05 27
    83)     26618.695 1  Rx        0459 -  8    32 23 0C A9 45 7B 14 44
    84)     26619.079 1  Rx        0451 -  8    F0 C1 1C CE E3 14 99 20
    85)     26619.335 1  Rx        0441 -  8    1F 63 01 EC 9C 9F 48 F5
    86)     26619.677 1  Rx    1AFB1C04 -  8    E0 EA 77 2D 0C 1C 71 32
    87)     26619.975 1  Rx    1AFB1C00 -  8    AA B0 8B C4 69 A8 9B 00
    88)     26620.189 1  Rx        0419 -  8    10 2B 14 7F 11 06 99 3B
    89)     26721.094 1  Rx        0332 -  8    60 97 14 23 98 DC 8F 4D
    90)     26721.563 1  Rx        011A -  5    30 8A A6 9B 08
    91)     26722.118 1  Rx        0331 -  8    3A F9 06 73 69 9F 2E 31
    92)     26722.587 1  Rx        011B -  7    07 13 3E B3 52 5E 6B
    93)     26723.014 1  Rx        006E -  7    86 CC ED EF DA F4 C1
    94)     26723.312 1  Rx        0106 -  7    6D 15 DC 65 1B C9 9A
    95)     26723.611 1  Rx        0132 -  7    23 70 17 F0 19 CB 08
    96)     26723.995 1  Rx        0308 -  8    F4 24 C4 42 1C 98 0E B3
    97)     26724.379 1  Rx        0206 -  7    A2 58 0D 0B B5 5B 76
    98)     26724.763 1  Rx        0212 -  7    D2 72 71 1F 35 E0 0E
    99)     26725.104 1  Rx        0222 -  8    94 A0 5D 88 D3 D2 B3 27
   100)     26725.531 1  Rx        0459 -  8    37 23 0C A3 45 70 14 44
   101)     26725.958 1  Rx        0451 -  8    26 C1 2C 74 D7 0A C4 20
   102)     26726.299 1  Rx        0441 -  8    1F 01 01 3F 9C 9F 48 1C
   103)     26726.640 1  Rx    1AFB1C04 -  8    C1 EA EC 44 FF D2 71 32
   104)     26726.896 1  Rx    1AFB1C00 -  8    AA B0 13 C4 13 BA 00 25
   105)     26727.152 1  Rx        0419 -  8    29 2B 14 7F 11 06 99 A0
   106)     26828.484 1  Rx        0332 -  8    1E B5 4A 23 98 EA 4A 4D
   107)     26829.039 1  Rx        011A -  5    30 8A 63 62 08
   108)     26829.508 1  Rx        0331 -  8    9F 8F C0 73 69 D2 2E 31
   109)     26829.977 1  Rx        011B -  7    07 13 79 01 5D F0 C6
   110)     26830.404 1  Rx        006E -  7    86 CC ED E3 DA F4 9B
   111)     26830.703 1  Rx        0106 -  7    6D 3D DC 65 1B C9 9A
   112)     26831.129 1  Rx        0132 -  7    23 43 17 A4 19 CB 9B
   113)     26831.471 1  Rx        0308 -  8    CC 24 C4 42 1C 98 0E B3
   114)     26831.812 1  Rx        0206 -  7    0D 58 7A 23 73 D5 76
   115)     26832.111 1  Rx        0212 -  7    D2 72 71 1F 6A 35 F1
   116)     26832.495 1  Rx        0222 -  8    B0 AC 7A 88 D3 65 B3 27
   117)     26832.836 1  Rx        0459 -  8    37 27 0C 00 1C 50 32 44
   118)     26833.135 1  Rx        0451 -  8    5F F4 5D 0A D7 0A C4 CC
   119)     26833.476 1  Rx        0441 -  8    2D 01 BD 06 B2 9F 70 44
   120)     26833.775 1  Rx    1AFB1C04 -  8    80 6C 26 DD 86 D2 90 32
   121)     26834.116 1  Rx    1AFB1C00 -  8    6E A9 4F 33 DF 10 07 25
   122)     26834.457 1  Rx        0419 -  8    CB 2B 14 47 11 DF FD A0
   123)     26902.552 1  Rx        033A -  8    99 A8 74 E2 52 1C B6 85
   124)     26902.766 1  Rx        0336 -  8    44 94 A2 F0 7E F3 74 B7
   125)     26902.894 1  Rx        0334 -  8    9E DE AC 2B E3 F6 6F 6D
   126)     26903.022 1  Rx        06DD -  8    AF CC 9C AE 6F 36 82 9F
   127)     26903.150 1  Rx        0799 -  8    4E 35 08 02 C3 15 96 3D
   128)     26935.917 1  Rx        0332 -  8    1E B5 C1 74 98 7F 4A 55
   129)     26936.685 1  Rx        011A -  5    30 64 63 62 08
   130)     26937.197 1  Rx        0331 -  8    1D 8F C0 73 1C D2 89 31
   131)     26937.752 1  Rx        011B -  7    21 13 17 14 5D C8 C6
   132)     26938.392 1  Rx        006E -  7    C8 CC BC F3 DA 9E 9B
   133)     26938.904 1  Rx        0106 -  7    6D 3D DC A3 C3 C9 9A
   134)     26939.586 1  Rx        0132 -  7    23 43 17 A4 58 6F 9B
   135)     26940.354 1  Rx        0308 -  8    CC 24 7A 42 77 98 0E BF
   136)     26940.994 1  Rx        0206 -  7    0D 58 7A 23 E9 D5 76
   137)     26941.549 1  Rx        0212 -  7    D2 D5 71 1F AF 7A F1
   138)     26942.189 1  Rx        0222 -  8    B0 AC 53 88 D3 65 B3 90
   139)     26942.786 1  Rx        0459 -  8    37 27 0C 43 62 50 7C EC
   140)     26943.298 1  Rx        0451 -  8    5F F4 5D AE D7 EE 4F CC
   141)     26943.725 1  Rx        0441 -  8    8C 01 D4 7F B2 9F 02 44
   142)     26944.194 1  Rx    1AFB1C04 -  8    66 6C 2C DD 56 D2 90 14
   143)     26944.621 1  Rx    1AFB1C00 -  8    90 A9 85 06 8A 10 07 25
   144)     26944.920 1  Rx        0419 -  8    16 59 FC 47 35 DF A0 46
   145)     27045.910 1  Rx        0332 -  8    1E B5 C1 4C 98 7F 4A AD
   146)     27046.337 1  Rx        011A -  5    E3 64 63 98 08
   147)     27046.934 1  Rx        0331 -  8    00 8F C0 07 F6 D2 DD 31
   148)     27047.446 1  Rx        011B -  7    C4 ED 17 2A 48 FE 6A
   149)     27047.873 1  Rx        006E -  7    7C 11 BC 2E C9 9E 61
   150)     27048.257 1  Rx        0106 -  7    6D EF 7E 54 C3 A4 D5
   151)     27048.598 1  Rx        0132 -  7    23 9B DA 22 58 8E 32
   152)     27049.025 1  Rx        0308 -  8    66 3C DB DF 77 3D F4 3E
   153)     27049.281 1  Rx        0206 -  7    0D DF 7A 23 E9 D5 76
   154)     27049.537 1  Rx        0212 -  7    91 18 71 1F AF 7D 65
   155)     27049.793 1  Rx        0222 -  8    B0 26 53 88 03 65 6D BD
   156)     27050.091 1  Rx        0459 -  8    37 FA C5 86 FF 50 0E EC
   157)     27050.518 1  Rx        0451 -  8    86 E8 5D AE 51 3E 28 CC
   158)     27050.859 1  Rx        0441 -  8    8C 7C D4 78 AE 9F B7 44
   159)     27051.329 1  Rx    1AFB1C04 -  8    6D 6C FE DD 56 D2 81 14
   160)     27051.755 1  Rx    1AFB1C00 -  8    90 A9 85 06 8A 37 07 D2
   161)     27052.139 1  Rx        0419 -  8    29 59 FC 45 35 DF A0 42
   162)     27152.788 1  Rx        0332 -  8    1E B5 6F 4C 98 A6 4A AD
   163)     27153.258 1  Rx        011A -  5    67 64 B4 D4 08
   164)     27153.770 1  Rx        0331 -  8    35 8F C0 07 68 D2 85 31
   165)     27154.196 1  Rx        011B -  7    C4 ED 17 2A 48 D7 4D
   166)     27154.538 1  Rx        006E -  7    16 66 B3 2E C9 9E 89
   167)     27154.836 1  Rx        0106 -  7    6D 6D 9A 64 27 A4 D5
   168)     27155.178 1  Rx        0132 -  7    AC 9B DA ED 58 8E 32
   169)     27155.476 1  Rx        0308 -  8    E1 3C DB DF 77 A6 3E 3E
   170)     27155.775 1  Rx        0206 -  7    ED BE 97 23 22 7C 91
   171)     27156.074 1  Rx        0212 -  7    91 18 1D 1F 8B B1 65
   172)     27157.098 1  Rx        0222 -  8    B0 5C 50 D3 03 97 6D 34
   173)     27157.524 1  Rx        0459 -  8    E7 0A C5 FF C5 BF 0E FD
   174)     27157.866 1  Rx        0451 -  8    A4 26 5D AE 51 8F 10 9A
   175)     27158.207 1  Rx        0441 -  8    8C 7C 32 0A AE 16 B7 44
   176)     27158.463 1  Rx    1AFB1C04 -  8    A5 4A 50 DD 1B D2 5B 14
   177)     27158.762 1  Rx    1AFB1C00 -  8    A6 54 45 06 8A 37 07 D2
   178)     27158.975 1  Rx        0419 -  8    29 59 13 45 97 DF F1 42
   179)     27260.477 1  Rx        0332 -  8    1E CF F0 5C 98 C2 4A AD
   180)     27261.203 1  Rx        011A -  5    67 64 7C F3 82
   181)     27261.800 1  Rx        0331 -  8    35 F8 C0 E6 54 C9 85 31
   182)     27262.355 1  Rx        011B -  7    1F ED A6 1D 01 74 3A
   183)     27262.824 1  Rx        006E -  7    16 66 69 2E C9 EB 22
   184)     27263.251 1  Rx        0106 -  7    6D 6D 9A 64 43 62 4D
   185)     27263.720 1  Rx        0132 -  7    AC 9B DA 7C 58 75 8C
   186)     27264.061 1  Rx        0308 -  8    6B 6A DB 03 77 A6 3E 61
   187)     27264.403 1  Rx        0206 -  7    78 BE 97 23 22 7C 11
   188)     27264.744 1  Rx        0212 -  7    0D EC 1D 1F 02 C9 65
   189)     27265.085 1  Rx        0222 -  8    B0 5C AB AC 59 97 47 DC
   190)     27265.427 1  Rx        0459 -  8    5D 0D 01 FF 9D BF 0E FD
   191)     27265.811 1  Rx        0451 -  8    A4 3A 56 AE 51 8F 10 9A
   192)     27266.195 1  Rx        0441 -  8    8C 0D 32 59 AE 16 AC 44
   193)     27266.493 1  Rx    1AFB1C04 -  8    41 2E 86 DD 08 2B C1 2A
   194)     27266.792 1  Rx    1AFB1C00 -  8    A6 7C 45 A7 8A FC 3F CE
   195)     27267.048 1  Rx        0419 -  8    29 A1 54 45 D2 55 F1 42
   196)     27368.294 1  Rx        0332 -  8    3C 5F B9 05 63 BC F8 47
   197)     27368.380 1  Rx        011A -  5    88 10 D7 AF 53
   198)     27368.508 1  Rx        0331 -  8    27 9C 80 49 0C 45 96 29
   199)     27368.636 1  Rx        011B -  7    24 C5 02 14 2F 42 D0
   200)     27368.764 1  Rx        006E -  7    FF 33 BE B0 D9 1B 9E
   201)     27368.892 1  Rx        0106 -  7    A7 AB AA A9 17 60 4C
   202)     27369.020 1  Rx        0132 -  7    95 FE 95 3B 44 6F 12
   203)     27369.148 1  Rx        0308 -  8    10 09 A5 94 AC 6B D8 55
   204)     27369.276 1  Rx        0206 -  7    80 53 BE A8 EE A1 5F
   205)     27369.404 1  Rx        0212 -  7    DF 3A 06 57 E3 37 FE
   206)     27369.532 1  Rx        0222 -  8    E3 58 0F EA 1C 8B 99 61
   207)     27369.660 1  Rx        0459 -  8    81 86 C4 79 7C 3F 35 3B
   208)     27369.788 1  Rx        0451 -  8    D6 94 65 E1 35 1B DC E3
   209)     27369.916 1  Rx        0441 -  8    0B 1E EB 56 68 B7 BC D6
   210)     27370.086 1  Rx    1AFB1C04 -  8    C2 25 B9 D7 38 4B 9A 10
   211)     27370.214 1  Rx    1AFB1C00 -  8    3F B5 CD 59 11 07 A3 1B
   212)     27370.385 1  Rx        0419 -  8    C6 0F 16 E2 9D 9D 02 84
   213)     27470.607 1  Rx        0332 -  8    3C 5F B9 C3 2C BC F8 15
   214)     27471.205 1  Rx        011A -  5    88 10 F9 0D 53
   215)     27471.845 1  Rx        0331 -  8    BA 18 C2 49 57 45 96 0E
   216)     27472.357 1  Rx        011B -  7    24 C5 11 14 2F B5 D0
   217)     27472.826 1  Rx        006E -  7    FF 5F BE B0 D9 1B 9E
   218)     27473.167 1  Rx        0106 -  7    A7 9E 74 F5 17 60 4C
   219)     27473.637 1  Rx        0132 -  7    62 F9 E3 B0 44 6F 42
   220)     27473.893 1  Rx        0308 -  8    10 0B A5 94 9F C9 D8 70
   221)     27474.106 1  Rx        0206 -  7    EB 53 BE A5 EE AB 5F
   222)     27474.405 1  Rx        0212 -  7    DF F6 FD 2B 74 67 DE
   223)     27474.703 1  Rx        0222 -  8    6E DA DC EA A8 71 99 AF
   224)     27475.002 1  Rx        0459 -  8    B8 AE C4 79 7C 3F 35 3B
   225)     27475.301 1  Rx        0451 -  8    85 94 65 E1 35 1B 17 7D
   226)     27475.642 1  Rx        0441 -  8    0B BB E1 2D 68 B7 A8 D6
   227)     27475.941 1  Rx    1AFB1C04 -  8    5F 25 7D 44 38 D4 79 37
   228)     27476.282 1  Rx    1AFB1C00 -  8    44 B5 CD 59 C7 5B A3 E3
   229)     27476.495 1  Rx        0419 -  8    C6 0F 16 E2 9D 9D 58 1D
   230)     27578.168 1  Rx        0332 -  8    26 5F 64 4C 1B 00 F2 7D
   231)     27578.766 1  Rx        011A -  5    88 10 F9 8A 16
   232)     27579.320 1  Rx        0331 -  8    02 D2 12 49 2C 45 96 0E
   233)     27579.747 1  Rx        011B -  7    E8 3F 0A 2A 2F B5 D0
   234)     27580.131 1  Rx        006E -  7    26 E4 59 B0 C7 10 9E
   235)     27580.430 1  Rx        0106 -  7    A7 A6 74 56 CF 60 4C
   236)     27580.728 1  Rx        0132 -  7    F5 F9 17 B0 75 02 B7
   237)     27581.070 1  Rx        0308 -  8    10 0B A5 7E 9F 00 90 70
   238)     27581.283 1  Rx        0206 -  7    EB 53 BE A5 DA AB 5F
   239)     27581.539 1  Rx        0212 -  7    DF F6 9A 2B 74 3D C7
   240)     27581.880 1  Rx        0222 -  8    10 DA E5 EA A8 71 9E 1D
   241)     27582.136 1  Rx        0459 -  8    B8 AE C4 79 7C 3F 22 ED
   242)     27582.435 1  Rx        0451 -  8    F6 94 2C D2 E4 1B 6D 7D
   243)     27582.734 1  Rx        0441 -  8    0E BB A1 2D 85 B7 73 7F
   244)     27583.032 1  Rx    1AFB1C04 -  8    5F A3 7D 30 38 B1 5A 37
   245)     27583.331 1  Rx    1AFB1C00 -  8    44 33 FF 2D C7 5B A3 A5
   246)     27583.587 1  Rx        0419 -  8    C6 0F F0 FE 12 2E 88 1D
   247)     27602.061 1  Rx        033B -  8    6B 01 74 1C 0B 37 C5 26
   248)     27602.787 1  Rx        0339 -  8    7C 9F 13 AD 5C 4D 4F 12
   249)     27603.683 1  Rx        0337 -  7    20 99 A8 CF 7C 37 8C
   250)     27604.280 1  Rx        001F -  5    95 B4 6C 29 53
   251)     27604.664 1  Rx        0333 -  4    56 D0 41 C3
   252)     27605.048 1  Rx        0335 -  8    B7 7A 85 24 CA 08 93 67
   253)     27605.475 1  Rx        0121 -  4    38 1C E3 96
   254)     27605.859 1  Rx        067F -  8    42 81 A9 4A FF C7 5E 1A
   255)     27606.200 1  Rx        0681 -  8    85 5B 85 E9 FE 83 9D 9D
   256)     27606.499 1  Rx        0309 -  8    77 D5 2F 13 25 01 4F 43
   257)     27606.797 1  Rx        030A -  8    CB 9B 1B 55 EE 4E 7B 46
   258)     27607.011 1  Rx        0622 -  6    A6 30 E3 2F A6 0C
   259)     27607.309 1  Rx        0413 -  6    E1 D2 65 6F 9D 5A
   260)     27607.480 1  Rx        0402 -  3    AF FD EB
   261)     27607.736 1  Rx        0739 -  8    7B 76 93 C3 F1 F1 13 DB
   262)     27607.992 1  Rx        0411 -  8    0C C6 7B 0D C4 89 5C EC
   263)     27608.333 1  Rx        0729 -  8    27 36 1D EE D0 43 2A 3C
   264)     27608.589 1  Rx        0728 -  8    98 E9 33 B3 7D 02 6A A1
   265)     27608.845 1  Rx        0709 -  8    EB 8F 0C 70 F2 9F 8A 20
   266)     27609.101 1  Rx        0711 -  8    9B 2F 8D 41 50 44 BD 4A
   267)     27685.247 1  Rx        0332 -  8    26 06 64 03 22 D1 F2 71
   268)     27685.674 1  Rx        011A -  5    D6 1A F9 99 16
   269)     27686.229 1  Rx        0331 -  8    3B D2 93 9E 2B 45 4C 0E
   270)     27686.698 1  Rx        011B -  7    E8 6D 0A 0D 30 B5 A1
   271)     27687.082 1  Rx        006E -  7    44 7B 59 F9 3C 10 A7
   272)     27687.295 1  Rx        0106 -  7    6F 34 74 1F 36 60 4C
   273)     27687.551 1  Rx        0132 -  7    F5 45 4D 24 2D 16 B7
   274)     27687.850 1  Rx        0308 -  8    10 0B A5 7E 9F 00 EA 62
   275)     27688.021 1  Rx        0206 -  7    EB 53 BE A5 DA AB 5F
   276)     27688.319 1  Rx        0212 -  7    55 07 BF E3 A6 3D 29
   277)     27688.575 1  Rx        0222 -  8    10 9C E5 54 A8 94 9E 1D
   278)     27688.831 1  Rx        0459 -  8    B8 AE 8B 9D 29 3F 22 A5
   279)     27689.087 1  Rx        0451 -  8    F6 94 49 D2 11 1B 0E 12
   280)     27689.386 1  Rx        0441 -  8    0E C9 A1 2D 85 B7 73 7F
   281)     27689.685 1  Rx    1AFB1C04 -  8    5F 37 C6 DD 38 D4 71 5B
   282)     27689.983 1  Rx    1AFB1C00 -  8    44 E4 8F D5 E1 D1 A3 5C
   283)     27690.282 1  Rx        0419 -  8    A6 0F 4B 02 E7 00 C3 2A
   284)     27791.272 1  Rx        0332 -  8    26 89 64 5C 22 69 F2 71
   285)     27791.827 1  Rx        011A -  5    D6 1A 9B 99 7F
   286)     27792.296 1  Rx        0331 -  8    D0 D6 93 9E 62 45 46 7B
   287)     27792.808 1  Rx        011B -  7    E8 DF 0A 38 30 D5 A1
   288)     27793.150 1  Rx        006E -  7    D1 3B 59 F9 28 10 5B
   289)     27793.491 1  Rx        0106 -  7    BC F8 74 27 B3 0D 76
   290)     27793.790 1  Rx        0132 -  7    70 1C 4D 24 D6 F1 DE
   291)     27794.088 1  Rx        0308 -  8    10 0B 94 7E 28 00 27 62
   292)     27794.387 1  Rx        0206 -  7    EB 57 06 A5 80 23 5F
   293)     27794.643 1  Rx        0212 -  7    0B 07 BF E3 1D 3D 29
   294)     27794.942 1  Rx        0222 -  8    10 CC AC 54 E7 94 C2 1D
   295)     27795.198 1  Rx        0459 -  8    66 AE 46 6B 29 C3 22 9E
   296)     27795.539 1  Rx        0451 -  8    5D A6 49 D2 11 FB 0E 26
   297)     27795.838 1  Rx        0441 -  8    0E 06 A1 05 0E 1E 1F 7F
   298)     27796.222 1  Rx    1AFB1C04 -  8    5F 5F C6 DD E9 D4 71 5B
   299)     27796.520 1  Rx    1AFB1C00 -  8    32 E4 8F D5 F3 D1 57 EE
   300)     27796.776 1  Rx        0419 -  8    DF 0F ED 7E B6 00 C3 98
   301)     27898.321 1  Rx        0332 -  8    B2 89 64 24 52 69 37 23
   302)     27898.748 1  Rx        011A -  5    D6 1A 9B 50 09
   303)     27899.303 1  Rx        0331 -  8    D0 13 93 E5 62 45 57 7B
   304)     27899.687 1  Rx        011B -  7    61 DF 04 13 30 D5 CF
   305)     27899.985 1  Rx        006E -  7    D1 AD 59 C5 28 BE 5B
   306)     27900.199 1  Rx        0106 -  7    BC F8 74 A6 4A 0A 76
   307)     27900.540 1  Rx        0132 -  7    70 D5 FA 87 D6 F1 31
   308)     27900.796 1  Rx        0308 -  8    8D 05 94 7E 28 DC 41 62
   309)     27901.137 1  Rx        0206 -  7    40 57 D3 A5 68 23 4F
   310)     27901.351 1  Rx        0212 -  7    83 07 5D E3 1D 3D 29
   311)     27901.692 1  Rx        0222 -  8    82 CC A9 0C D5 94 C2 1D
   312)     27901.991 1  Rx        0459 -  8    66 AE 46 5C 1A C3 85 9E
   313)     27902.247 1  Rx        0451 -  8    5D A6 AF D2 AC FB EF A0
   314)     27902.503 1  Rx        0441 -  8    6D AA A1 05 0B 1E ED 7F
   315)     27902.801 1  Rx    1AFB1C04 -  8    5F 5F C6 DD E9 E7 C5 1C
   316)     27903.015 1  Rx    1AFB1C00 -  8    32 E4 8F D5 FF D1 88 EE
   317)     27903.356 1  Rx        0419 -  8    DF 8F ED 5C B6 D3 C3 51
   318)     28004.389 1  Rx        0332 -  8    B2 10 64 24 A5 69 37 23
   319)     28004.944 1  Rx        011A -  5    D6 92 4C 50 09
   320)     28005.498 1  Rx        0331 -  8    26 13 93 FE 62 45 57 1A
   321)     28005.968 1  Rx        011B -  7    F5 BA 04 13 30 D5 CF
   322)     28006.480 1  Rx        006E -  7    D1 3B 59 C5 28 BE CE
   323)     28006.949 1  Rx        0106 -  7    DE F8 3E A6 16 82 C9
   324)     28007.290 1  Rx        0132 -  7    70 D5 3F 36 27 CA F7
   325)     28007.632 1  Rx        0308 -  8    8D 05 94 7E 28 DC 41 22
   326)     28007.930 1  Rx        0206 -  7    E8 E0 D3 A5 18 23 B9
   327)     28008.186 1  Rx        0212 -  7    A2 6B 5D E3 6B CB EB
   328)     28008.485 1  Rx        0222 -  8    75 99 A9 39 08 94 C2 78
   329)     28008.741 1  Rx        0459 -  8    56 AE 91 26 9C EE 85 9E
   330)     28008.997 1  Rx        0451 -  8    9E A6 9E 84 E1 A9 E2 78
   331)     28009.296 1  Rx        0441 -  8    6D B9 AE 05 0B F0 ED FE
   332)     28009.680 1  Rx    1AFB1C04 -  8    7E 19 C6 FF 87 5F 95 1C
   333)     28010.106 1  Rx    1AFB1C00 -  8    9D E4 8F D5 FF 21 88 7F
   334)     28010.576 1  Rx        0419 -  8    DF 8F 0A 5C F8 27 06 51
   335)     28111.993 1  Rx        0332 -  8    A7 10 64 24 A5 69 37 C4
   336)     28112.547 1  Rx        011A -  5    AF 62 4C 64 09
   337)     28113.187 1  Rx        0331 -  8    71 13 13 32 D5 45 39 1A
   338)     28113.699 1  Rx        011B -  7    B4 0E 81 2F CE D5 CF
   339)     28114.126 1  Rx        006E -  7    DC 3B 59 A3 28 A3 BB
   340)     28114.467 1  Rx        0106 -  7    DE F8 98 8D 33 E8 C9
   341)     28114.723 1  Rx        0132 -  7    70 7F 3F 6C EB CA F7
   342)     28115.235 1  Rx        0308 -  8    8D 44 8A 6D 1A DC 41 A9
   343)     28115.406 1  Rx        0206 -  7    E8 E0 B5 A5 18 23 31
   344)     28115.705 1  Rx        0212 -  7    3F 6B 69 E3 6B E4 EB
   345)     28116.003 1  Rx        0222 -  8    75 38 65 39 2D 94 C2 FB
   346)     28116.387 1  Rx        0459 -  8    61 94 91 26 68 E0 85 60
   347)     28116.771 1  Rx        0451 -  8    9E 30 9E 72 E1 1D E2 00
   348)     28117.198 1  Rx        0441 -  8    80 B9 33 05 6B F0 ED 1D
   349)     28117.667 1  Rx    1AFB1C04 -  8    97 AF 3A FF 5A 5F 95 5B
   350)     28118.009 1  Rx    1AFB1C00 -  8    9D E4 8F 0C 85 21 3C 17
   351)     28118.307 1  Rx        0419 -  8    76 8F 0A 77 F8 AA 06 A9
   352)     28219.042 1  Rx        0332 -  8    1E 10 7F 90 3B 69 1B C4
   353)     28219.511 1  Rx        011A -  5    AF 62 4C 64 09
   354)     28220.151 1  Rx        0331 -  8    71 4F 13 32 D5 45 E2 4E
   355)     28220.706 1  Rx        011B -  7    E3 0E AE 30 CE 1F 46
   356)     28221.090 1  Rx        006E -  7    C9 3B 30 A3 D1 BD E5
   357)     28221.431 1  Rx        0106 -  7    DE F8 77 8D 8F 6E 1A
   358)     28221.730 1  Rx        0132 -  7    70 F7 3F 6C E2 CA F7
   359)     28222.028 1  Rx        0308 -  8    B0 44 8A 6D 1A DC 87 A9
   360)     28222.284 1  Rx        0206 -  7    E8 E0 F0 93 18 A0 31
   361)     28222.583 1  Rx        0212 -  7    0F 6B 11 E3 6B E4 EB
   362)     28222.839 1  Rx        0222 -  8    75 D7 65 39 2D 2A 20 FB
   363)     28223.095 1  Rx        0459 -  8    61 94 91 26 F5 6C 85 60
   364)     28223.564 1  Rx        0451 -  8    E9 30 DD 72 AE 3E E2 E2
   365)     28224.076 1  Rx        0441 -  8    B2 B9 E2 05 6B 52 27 1D
   366)     28224.375 1  Rx    1AFB1C04 -  8    03 AF 3A FF 41 5F 44 B6
   367)     28224.759 1  Rx    1AFB1C00 -  8    9D 5A 8F B1 D3 1E 3C C3
   368)     28224.972 1  Rx        0419 -  8    76 08 0A 27 92 31 16 A9
   369)     28326.688 1  Rx        0332 -  8    1E 10 7F FC 3B 69 2E 5A
   370)     28327.243 1  Rx        011A -  5    AF 58 4C 92 B8
   371)     28327.840 1  Rx        0331 -  8    71 4F 13 50 D5 45 E2 4E
   372)     28328.267 1  Rx        011B -  7    74 E0 AE 4F CE EF 46
   373)     28328.565 1  Rx        006E -  7    C9 3B B4 6D D1 BD E5
   374)     28328.907 1  Rx        0106 -  7    DE 19 54 A6 8F EB 53
   375)     28329.120 1  Rx        0132 -  7    17 07 3F B3 E2 65 F7
   376)     28329.461 1  Rx        0308 -  8    B0 C4 8A 0C 00 DC AB 36
   377)     28329.717 1  Rx        0206 -  7    E8 D2 F0 93 18 6A DE
   378)     28330.059 1  Rx        0212 -  7    0F 6B 27 60 6D A2 EB
   379)     28330.400 1  Rx        0222 -  8    75 D7 65 DE 61 2A 20 D2
   380)     28330.741 1  Rx        0459 -  8    61 A2 9D 64 49 6C 85 03
   381)     28331.168 1  Rx        0451 -  8    49 30 F0 02 B0 3E 6A 45
   382)     28331.595 1  Rx        0441 -  8    88 7D E2 08 6B 8E 60 1D
   383)     28332.107 1  Rx    1AFB1C04 -  8    03 7B 11 51 3D 5F 44 DD
   384)     28332.363 1  Rx    1AFB1C00 -  8    9D D5 8F B1 D3 1E 3C C3
   385)     28332.661 1  Rx        0419 -  8    CA 08 E7 39 E3 75 16 A9
   386)     28433.481 1  Rx        0332 -  8    F6 6C A4 16 90 44 7A 5B
   387)     28433.609 1  Rx        011A -  5    F9 2F 4C BE A5
   388)     28433.737 1  Rx        0331 -  8    B9 42 33 11 2F 3D C0 5D
   389)     28433.865 1  Rx        011B -  7    C8 97 94 4C C5 4D B8
   390)     28433.950 1  Rx        006E -  7    BA CC 1E A4 72 EF 14
   391)     28434.078 1  Rx        0106 -  7    00 FD 44 78 AC 20 E0
   392)     28434.206 1  Rx        0132 -  7    D8 61 47 C1 75 AF D3
   393)     28434.377 1  Rx        0308 -  8    D0 02 35 BE 0C 1D 56 74
   394)     28434.505 1  Rx        0206 -  7    C6 17 D5 D9 76 F9 5D
   395)     28434.633 1  Rx        0212 -  7    C7 34 F7 E0 39 32 4D
   396)     28434.761 1  Rx        0222 -  8    0B 8E EA F1 2F 6A 05 BC
   397)     28434.889 1  Rx        0459 -  8    53 51 9B 39 76 65 86 25
   398)     28435.017 1  Rx        0451 -  8    C3 A9 D1 4C 1F AE 00 B1
   399)     28435.145 1  Rx        0441 -  8    EC 09 0C D0 ED 9B EC 85
   400)     28435.273 1  Rx    1AFB1C04 -  8    84 F4 38 E8 83 B5 39 59
   401)     28435.444 1  Rx    1AFB1C00 -  8    4B 9D 57 DC D0 0B 21 D6
   402)     28435.572 1  Rx        0419 -  8    A9 7A 8C 44 B1 9F 9E CD
   403)     28535.538 1  Rx        0332 -  8    32 12 A4 16 90 44 7A 7E
   404)     28536.093 1  Rx        011A -  5    F9 11 3E BE A5
   405)     28536.690 1  Rx        0331 -  8    B9 42 33 11 F4 3D C0 82
   406)     28537.117 1  Rx        011B -  7    28 59 94 EA 55 31 8D
   407)     28537.501 1  Rx        006E -  7    BA 40 1E A4 BE EF 14
   408)     28537.799 1  Rx        0106 -  7    89 69 44 78 AC 3B 7E
   409)     28538.013 1  Rx        0132 -  7    2A B6 47 C1 FA DA B9
   410)     28538.311 1  Rx        0308 -  8    D0 72 D3 BE 0C D3 56 1A
   411)     28538.567 1  Rx        0206 -  7    C6 F8 D5 D9 76 65 5D
   412)     28538.866 1  Rx        0212 -  7    C7 50 F7 31 13 32 4D
   413)     28539.165 1  Rx        0222 -  8    0B 8E EA F1 32 6A E8 BC
   414)     28539.421 1  Rx        0459 -  8    53 EA 9B BD 76 CE CF 06
   415)     28539.762 1  Rx        0451 -  8    E7 A9 13 AB 1F AE 00 B1
   416)     28540.018 1  Rx        0441 -  8    EC 09 0C FA ED 9B 6F 39
   417)     28540.530 1  Rx    1AFB1C04 -  8    84 F4 38 E8 F6 38 39 59
   418)     28541.085 1  Rx    1AFB1C00 -  8    4B 9D 9F DC 2B 0B 95 D7
   419)     28541.469 1  Rx        0419 -  8    A9 49 EA 44 FD 9F A8 CD
   420)     28610.460 1  Rx        033B -  8    6B 01 74 1C 0B F3 C5 26
   421)     28611.185 1  Rx        0339 -  8    B0 34 13 AD 28 4D 15 56
   422)     28611.825 1  Rx        0337 -  7    20 99 A8 CF 96 DB 8C
   423)     28612.379 1  Rx        001F -  5    95 B4 6C 53 53
   424)     28612.763 1  Rx        0333 -  4    56 80 17 C3
   425)     28613.263 1  Rx        0335 -  8    88 7A 5D 24 A2 08 93 67
   426)     28613.519 1  Rx        0121 -  4    38 1C 92 3D
   427)     28613.817 1  Rx        067F -  8    D3 73 78 0A 04 C7 60 1A
   428)     28614.073 1  Rx        0681 -  8    4F 5B CD E9 26 EB A0 9D
   429)     28614.372 1  Rx        0309 -  8    77 59 2F 13 25 01 61 43
   430)     28614.628 1  Rx        030A -  8    CB 6F 1B 88 14 96 3C 56
   431)     28614.884 1  Rx        0622 -  6    CC 30 3F 08 83 52
   432)     28615.140 1  Rx        0413 -  6    E1 E1 CC 6F 9D 5A
   433)     28615.396 1  Rx        0402 -  3    D2 FD 85
   434)     28615.737 1  Rx        0739 -  8    7B 54 93 A5 F1 F1 13 D1
   435)     28615.993 1  Rx        0411 -  8    0C 13 72 0D A8 89 70 EC
   436)     28616.292 1  Rx        0729 -  8    1E A2 1D EE 5D C5 CF BC
   437)     28616.591 1  Rx        0728 -  8    5B A7 74 6D 75 02 6A A1
   438)     28616.847 1  Rx        0709 -  8    EB AD 0C 70 62 F8 8A 89
   439)     28617.145 1  Rx        0711 -  8    9B 87 8D EF 50 44 BD 53
   440)     28642.361 1  Rx        0332 -  8    B7 12 A4 0D 14 44 9F 7E
   441)     28642.916 1  Rx        011A -  5    F9 11 3E BE 11
   442)     28643.428 1  Rx        0331 -  8    B9 42 A2 11 84 3D 44 E4
   443)     28643.897 1  Rx        011B -  7    28 59 94 EA 60 31 8D
   444)     28644.324 1  Rx        006E -  7    64 3A 07 14 BE EF 14
   445)     28644.622 1  Rx        0106 -  7    E3 C0 44 78 96 3B AA
   446)     28644.836 1  Rx        0132 -  7    2A B6 CF FE D6 DA B9
   447)     28645.092 1  Rx        0308 -  8    73 86 D3 89 60 3A 56 1A
   448)     28645.561 1  Rx        0206 -  7    C6 F6 D5 4A 76 65 5D
   449)     28646.030 1  Rx        0212 -  7    DF 1D F7 31 13 32 4D
   450)     28646.457 1  Rx        0222 -  8    0B 5F EA 10 32 6A E8 22
   451)     28646.798 1  Rx        0459 -  8    53 9E 0F DA 76 AD FD 06
   452)     28647.097 1  Rx        0451 -  8    B3 F1 13 B5 30 AE E7 37
   453)     28647.396 1  Rx        0441 -  8    EC D6 FA FA 36 9B A1 6F
   454)     28647.694 1  Rx    1AFB1C04 -  8    52 F4 38 E8 3E 58 9C 59
   455)     28647.950 1  Rx    1AFB1C00 -  8    4B D3 9F DC 2B B2 95 D7
   456)     28648.206 1  Rx        0419 -  8    A9 49 EA F5 FD 9F 4A 93
   457)     28749.666 1  Rx        0332 -  8    81 40 56 0D 14 44 9F C8
   458)     28750.263 1  Rx        011A -  5    F9 DF 3E CC 11
   459)     28750.775 1  Rx        0331 -  8    B9 42 DE 3D CA BF 44 BE
   460)     28751.202 1  Rx        011B -  7    28 59 94 B5 60 31 8D
   461)     28751.799 1  Rx        006E -  7    2F 3A 07 14 BE 3F 14
   462)     28752.269 1  Rx        0106 -  7    27 73 EB 06 96 A1 39
   463)     28752.738 1  Rx        0132 -  7    E9 B6 33 FE D6 DA B9
   464)     28753.165 1  Rx        0308 -  8    32 00 D3 93 ED 3A 3F 6D
   465)     28753.549 1  Rx        0206 -  7    C6 F6 D5 4A B1 65 5D
   466)     28753.762 1  Rx        0212 -  7    DF 1D F7 5E 30 61 66
   467)     28754.061 1  Rx        0222 -  8    0B 5F 61 10 6D 6A 31 70
   468)     28754.402 1  Rx        0459 -  8    53 FC 0F A4 76 AD E5 06
   469)     28754.658 1  Rx        0451 -  8    85 F1 13 74 30 12 50 37
   470)     28754.914 1  Rx        0441 -  8    EC D6 FA 95 36 9B 61 62
   471)     28755.213 1  Rx    1AFB1C04 -  8    52 F4 38 5C 3E 3E 9C 59
   472)     28755.469 1  Rx    1AFB1C00 -  8    D2 D3 9F 55 2B B2 95 D7
   473)     28755.725 1  Rx        0419 -  8    A9 78 44 F5 C1 DF 4A 93
   474)     28857.142 1  Rx        0332 -  8    81 FE AA 0D 57 44 3E 7E
   475)     28857.611 1  Rx        011A -  5    F9 0E 3E CC D3
   476)     28858.166 1  Rx        0331 -  8    62 42 62 3D 4F BF 44 BE
   477)     28858.592 1  Rx        011B -  7    28 80 C9 AE 60 31 C9
   478)     28859.104 1  Rx        006E -  7    2F 3A 7F 1E BE 3F 14
   479)     28859.659 1  Rx        0106 -  7    27 73 EB FE 96 8D 39
   480)     28860.171 1  Rx        0132 -  7    E9 8F 33 FE FF 02 49
   481)     28860.555 1  Rx        0308 -  8    64 F3 D3 93 ED 76 3F 94
   482)     28860.854 1  Rx        0206 -  7    C6 EB 64 4A B1 28 A3
   483)     28861.195 1  Rx        0212 -  7    DF 1D CB 5E 30 A5 14
   484)     28861.536 1  Rx        0222 -  8    4B 97 61 7B 6D 11 31 A7
   485)     28861.792 1  Rx        0459 -  8    9E C3 ED A4 ED 61 F2 06
   486)     28862.048 1  Rx        0451 -  8    E9 F1 5C 74 30 29 D9 37
   487)     28862.347 1  Rx        0441 -  8    EC D6 AC 35 3B 85 E1 9C
   488)     28862.646 1  Rx    1AFB1C04 -  8    E0 71 38 75 66 3E 9C 59
   489)     28862.944 1  Rx    1AFB1C00 -  8    D2 21 35 55 80 18 95 83
   490)     28863.200 1  Rx        0419 -  8    A9 78 44 F5 BE DF AD 93
   491)     28904.800 1  Rx        033A -  8    99 A8 7B E2 E1 1C 38 14
   492)     28905.354 1  Rx        0336 -  8    CE 2D A2 10 7E F3 45 02
   493)     28905.866 1  Rx        0334 -  8    9E AA EB FD E3 F6 6F E3
   494)     28906.378 1  Rx        06DD -  8    AF CC 3C CD A0 98 82 9F
   495)     28906.720 1  Rx        0799 -  8    4E 75 4D 52 46 15 93 93
   496)     28964.148 1  Rx        0332 -  8    04 43 AA 30 57 44 1C 7E
   497)     28964.617 1  Rx        011A -  5    F9 FE 3E CC D3
   498)     28965.087 1  Rx        0331 -  8    62 7E 04 3D 4F BF 44 58
   499)     28965.428 1  Rx        011B -  7    C4 77 EE AE 60 31 C9
   500)     28965.727 1  Rx        006E -  7    3D 3A 26 0F BE 3F 14
   501)     28965.940 1  Rx        0106 -  7    27 73 EB 2F AF 8D 39
   502)     28966.196 1  Rx        0132 -  7    E9 A7 3D FE 70 02 49
   503)     28966.495 1  Rx        0308 -  8    6D F3 2D 38 ED 94 25 2F
   504)     28966.708 1  Rx        0206 -  7    C6 EB 8B A8 B1 28 A3
   505)     28967.007 1  Rx        0212 -  7    39 A8 A3 7B F2 A5 14
   506)     28967.305 1  Rx        0222 -  8    4B 97 61 7B 6D 52 2E FD
   507)     28967.561 1  Rx        0459 -  8    9E C3 2C 56 DE 61 F2 06
   508)     28967.860 1  Rx        0451 -  8    E9 F1 6B 9D E1 29 D9 37
   509)     28968.201 1  Rx        0441 -  8    D5 96 52 35 F2 85 E1 9C
   510)     28968.628 1  Rx    1AFB1C04 -  8    E0 71 38 7E 3D 3E 44 59
   511)     28969.097 1  Rx    1AFB1C00 -  8    D2 21 08 25 80 C8 95 0B
   512)     28969.439 1  Rx        0419 -  8    D7 C0 44 F5 83 DF 8C 09
   513)     29070.002 1  Rx        0332 -  8    04 A4 92 30 B6 44 E2 D0
   514)     29070.514 1  Rx        011A -  5    64 5E 3E C2 D3
   515)     29070.984 1  Rx        0331 -  8    62 7E 04 18 4F BF 3C 07
   516)     29071.282 1  Rx        011B -  7    6D 0E 5A AE 76 31 28
   517)     29071.666 1  Rx        006E -  7    02 21 90 0F BE 3F D8
   518)     29072.093 1  Rx        0106 -  7    2C 00 C8 A7 64 8D 00
   519)     29072.392 1  Rx        0132 -  7    16 B3 3D 81 6B 02 46
   520)     29072.690 1  Rx        0308 -  8    E5 96 2D 38 ED 94 7A 17
   521)     29073.074 1  Rx        0206 -  7    C6 E4 FA A8 B1 CC 3B
   522)     29073.416 1  Rx        0212 -  7    39 A8 A3 DB 34 A5 14
   523)     29073.714 1  Rx        0222 -  8    4B C2 61 EF 6D 52 A9 43
   524)     29074.056 1  Rx        0459 -  8    9E C3 2C B3 5A B7 AD 2B
   525)     29074.440 1  Rx        0451 -  8    AA D4 09 9D E1 29 86 37
   526)     29074.866 1  Rx        0441 -  8    D5 96 52 2E 35 04 79 9C
   527)     29075.378 1  Rx    1AFB1C04 -  8    77 3E 38 D4 DB 5D 44 59
   528)     29075.762 1  Rx    1AFB1C00 -  8    D2 41 08 25 80 27 95 90
   529)     29076.104 1  Rx        0419 -  8    5C C0 38 DF 83 DC 8C 0D
   530)     29176.838 1  Rx        0332 -  8    04 A4 92 30 B6 44 89 D0
   531)     29177.350 1  Rx        011A -  5    64 5E 3E C2 7C
   532)     29177.947 1  Rx        0331 -  8    62 AF 04 18 67 85 87 7A
   533)     29178.630 1  Rx        011B -  7    47 D6 5A BC 76 8E 15
   534)     29179.057 1  Rx        006E -  7    27 21 4E 0F BE 3F D8
   535)     29179.569 1  Rx        0106 -  7    2C 00 1A A7 64 8D AE
   536)     29179.995 1  Rx        0132 -  7    16 45 3D 81 6B 78 C6
   537)     29180.379 1  Rx        0308 -  8    68 FB EF 81 ED AF 7A 17
   538)     29180.678 1  Rx        0206 -  7    12 E4 7C A8 67 5F A2
   539)     29181.105 1  Rx        0212 -  7    05 A8 6A CB 6E F0 FF
   540)     29181.361 1  Rx        0222 -  8    32 F1 C7 7A 6D 52 3C 43
   541)     29181.830 1  Rx        0459 -  8    9E C3 B1 B3 1F EB B1 2B
   542)     29182.214 1  Rx        0451 -  8    AA D4 09 5F E1 1E 86 C4
   543)     29182.513 1  Rx        0441 -  8    D5 96 1E ED 35 D4 BB 2F
   544)     29182.811 1  Rx    1AFB1C04 -  8    FC 3E 38 D4 DB 6A 69 1D
   545)     29183.110 1  Rx    1AFB1C00 -  8    D3 41 8F 25 80 27 56 B6
   546)     29183.323 1  Rx        0419 -  8    19 C0 6C 92 B2 DC 8C 0D
   547)     29284.996 1  Rx        0332 -  8    04 A9 FD 30 B6 76 9F 6E
   548)     29285.338 1  Rx        011A -  5    64 00 3E C2 8D
   549)     29285.764 1  Rx        0331 -  8    9C A5 04 18 67 85 9F 0B
   550)     29286.063 1  Rx        011B -  7    D8 D6 CA E5 33 8E 3F
   551)     29286.362 1  Rx        006E -  7    27 21 4E F1 73 3F D8
   552)     29286.660 1  Rx        0106 -  7    2C E6 1A A9 64 89 AE
   553)     29286.959 1  Rx        0132 -  7    55 7A 3D FD 6B 5D BF
   554)     29287.215 1  Rx        0308 -  8    68 AB EF 81 ED 53 7A 17
   555)     29287.428 1  Rx        0206 -  7    12 E4 4C A8 67 82 A2
   556)     29287.684 1  Rx        0212 -  7    40 A8 C3 05 6E 79 13
   557)     29287.983 1  Rx        0222 -  8    5D 3B C7 C7 6D 52 50 39
   558)     29288.239 1  Rx        0459 -  8    9E C3 B1 DB 06 1B B1 2B
   559)     29288.538 1  Rx        0451 -  8    E0 13 09 5F 70 07 86 5E
   560)     29288.836 1  Rx        0441 -  8    D5 8D 1E 50 9D EE BB E1
   561)     29289.092 1  Rx    1AFB1C04 -  8    3C 3E 38 D4 DB 6A 69 1D
   562)     29289.434 1  Rx    1AFB1C00 -  8    5C 41 8F 7E 2C 27 DD 89
   563)     29289.690 1  Rx        0419 -  8    19 C0 48 92 B2 84 C4 0D
   564)     29390.979 1  Rx        0332 -  8    F1 A9 FD 30 67 76 65 6E
   565)     29391.533 1  Rx        011A -  5    64 B8 3E C9 EE
   566)     29392.131 1  Rx        0331 -  8    9C EA 04 62 67 85 69 0B
   567)     29392.600 1  Rx        011B -  7    85 D6 CA 85 DE 8E 3F
   568)     29392.856 1  Rx        006E -  7    80 06 4E F1 73 48 D8
   569)     29393.069 1  Rx        0106 -  7    2C E6 1A A9 64 89 D2
   570)     29393.325 1  Rx        0132 -  7    46 7A 06 FD 6B FA BF
   571)     29393.581 1  Rx        0308 -  8    5C AB 76 CE ED F2 7A 17
   572)     29393.880 1  Rx        0206 -  7    12 E4 4C A8 47 B9 A2
   573)     29394.136 1  Rx        0212 -  7    99 E8 83 65 27 79 97
   574)     29394.435 1  Rx        0222 -  8    8B 3B 95 C7 6D 22 50 81
   575)     29394.691 1  Rx        0459 -  8    62 C3 B1 DB 73 F3 5F 2B
   576)     29394.989 1  Rx        0451 -  8    8C 89 F9 78 59 A5 86 67
   577)     29395.245 1  Rx        0441 -  8    D5 8D 4B 93 84 93 67 E1
   578)     29395.629 1  Rx    1AFB1C04 -  8    3C 3E 88 1E A1 3C 69 E2
   579)     29395.928 1  Rx    1AFB1C00 -  8    CE 9E D0 0D A6 EB DD 53
   580)     29396.184 1  Rx        0419 -  8    6F C0 48 CD B2 6C 8D 0D
   581)     29496.534 1  Rx        0332 -  8    14 33 A1 58 B7 3F D5 2E
   582)     29496.620 1  Rx        011A -  5    D7 B3 68 AA 9D
   583)     29496.748 1  Rx        0331 -  8    76 CC 98 B8 40 92 8A D7
   584)     29496.876 1  Rx        011B -  7    ED 4A 2B CB CA 33 58
   585)     29497.004 1  Rx        006E -  7    27 2E A5 56 A9 2D 14
   586)     29497.132 1  Rx        0106 -  7    BE 9F 93 14 61 B9 A3
   587)     29497.260 1  Rx        0132 -  7    84 3E 1F AD 2F 28 DE
   588)     29497.388 1  Rx        0308 -  8    CD 8E C1 3C 08 37 22 D6
   589)     29497.516 1  Rx        0206 -  7    71 03 B0 E5 0F A4 41
   590)     29497.644 1  Rx        0212 -  7    A0 F5 65 BB BE E1 06
   591)     29497.772 1  Rx        0222 -  8    08 75 50 50 3A A6 66 CD
   592)     29497.900 1  Rx        0459 -  8    40 0D 86 30 78 34 23 54
   593)     29498.028 1  Rx        0451 -  8    F9 16 C9 93 1A AE 33 46
   594)     29498.198 1  Rx        0441 -  8    B5 74 13 C4 7C 9D C0 83
   595)     29498.326 1  Rx    1AFB1C04 -  8    F9 41 99 8B 7E 08 2B 00
   596)     29498.497 1  Rx    1AFB1C00 -  8    2E 64 BC F2 1B 61 26 95
   597)     29498.625 1  Rx        0419 -  8    47 DC D9 2C BA 86 20 FF
   598)     29598.677 1  Rx        0332 -  8    14 33 1E A0 A8 14 D5 2E
   599)     29599.317 1  Rx        011A -  5    B0 B3 68 D6 E2
   600)     29599.871 1  Rx        0331 -  8    05 CC 98 23 EF 92 A5 2A
   601)     29600.469 1  Rx        011B -  7    ED 6B 88 CB CA 84 98
   602)     29600.981 1  Rx        006E -  7    D4 4F 95 56 92 01 14
   603)     29601.322 1  Rx        0106 -  7    BE 90 BE 14 61 B9 A3
   604)     29601.749 1  Rx        0132 -  7    84 3E 1F AD 2F 27 DE
   605)     29602.005 1  Rx        0308 -  8    CD 8E 1C 3C BF F3 22 79
   606)     29602.261 1  Rx        0206 -  7    71 93 B0 E5 0F E2 41
   607)     29602.645 1  Rx        0212 -  7    DE FA 65 BB 71 8F 06
   608)     29602.901 1  Rx        0222 -  8    5A C8 3A 71 A8 54 66 CD
   609)     29603.199 1  Rx        0459 -  8    43 0D 5E 30 90 34 66 0C
   610)     29603.583 1  Rx        0451 -  8    F9 16 C9 93 1A 83 33 31
   611)     29603.925 1  Rx        0441 -  8    F6 74 13 31 7C 4C 6D 83
   612)     29604.223 1  Rx    1AFB1C04 -  8    F8 41 11 B9 7E 08 2B 00
   613)     29604.522 1  Rx    1AFB1C00 -  8    ED 4D FD F2 9D 61 26 95
   614)     29604.821 1  Rx        0419 -  8    31 66 FB D6 4E 57 20 FF
   615)     29618.504 1  Rx        033B -  8    6B 01 74 8E AE F5 60 12
   616)     29619.357 1  Rx        0339 -  8    B0 BE 3F 74 A7 3D 15 57
   617)     29619.954 1  Rx        0337 -  7    7F 99 A8 C3 61 58 75
   618)     29620.637 1  Rx        001F -  5    95 B4 6C 53 53
   619)     29621.149 1  Rx        0333 -  4    10 80 72 C3
   620)     29621.661 1  Rx        0335 -  8    23 7A 5D 24 A2 08 4A 67
   621)     29622.130 1  Rx        0121 -  4    B7 1C 37 84
   622)     29622.514 1  Rx        067F -  8    D3 C4 78 0B C9 C7 60 1A
   623)     29622.813 1  Rx        0681 -  8    23 5B FA E9 26 02 B8 9D
   624)     29623.154 1  Rx        0309 -  8    77 59 2F 6C 3E 01 61 43
   625)     29623.538 1  Rx        030A -  8    A3 EC 1B 88 14 4D BE 63
   626)     29623.794 1  Rx        0622 -  6    7A B5 5C 6C 83 D6
   627)     29624.136 1  Rx        0413 -  6    5C E1 CC 6F 9D 5A
   628)     29624.392 1  Rx        0402 -  3    C5 D8 85
   629)     29624.690 1  Rx        0739 -  8    3F EC 93 A5 39 F1 3F 65
   630)     29624.946 1  Rx        0411 -  8    47 13 02 0D 83 89 46 7E
   631)     29625.288 1  Rx        0729 -  8    36 9E BC 53 5D 1B CF C1
   632)     29625.544 1  Rx        0728 -  8    5B 4D 74 E4 23 DE 6A EE
   633)     29625.800 1  Rx        0709 -  8    5E 87 0C 24 E5 3A E1 89
   634)     29626.056 1  Rx        0711 -  8    2B 87 E1 EF 8E 82 44 44
   635)     29705.798 1  Rx        0332 -  8    D7 33 A3 DF B6 E7 4F 2E
   636)     29706.310 1  Rx        011A -  5    54 94 68 AF E2
   637)     29706.865 1  Rx        0331 -  8    3F AD DA 27 EF 92 A5 2A
   638)     29707.292 1  Rx        011B -  7    ED 6B 88 CB 79 84 A9
   639)     29707.633 1  Rx        006E -  7    D4 1F 95 C4 22 01 DE
   640)     29707.932 1  Rx        0106 -  7    BE 90 9D 14 61 A2 A3
   641)     29708.188 1  Rx        0132 -  7    92 3E 10 12 2F 27 DE
   642)     29708.486 1  Rx        0308 -  8    E9 5F F3 18 56 98 6A 93
   643)     29708.785 1  Rx        0206 -  7    71 2E CB C2 AE 08 CB
   644)     29709.041 1  Rx        0212 -  7    D5 E0 A3 FB 47 A4 06
   645)     29709.297 1  Rx        0222 -  8    D6 04 3A 7B A8 54 FB CD
   646)     29709.553 1  Rx        0459 -  8    43 E1 5E 30 90 3D 66 21
   647)     29709.852 1  Rx        0451 -  8    3A 5E D0 BD 1A 83 33 21
   648)     29710.108 1  Rx        0441 -  8    F6 65 13 31 D1 4C 6D 83
   649)     29710.449 1  Rx    1AFB1C04 -  8    F8 48 5D B9 7E 20 0A 00
   650)     29710.748 1  Rx    1AFB1C00 -  8    ED 4D 04 F2 A4 BD 26 95
   651)     29711.046 1  Rx        0419 -  8    31 89 FB D6 4E 57 CB FF
   652)     29811.951 1  Rx        0332 -  8    23 EA A3 DF 5A 4B 4F 2E
   653)     29812.549 1  Rx        011A -  5    22 2A 91 AF E2
   654)     29813.103 1  Rx        0331 -  8    3F AD DA 27 EF 9C A5 2A
   655)     29813.530 1  Rx        011B -  7    ED 80 88 0E 79 61 B9
   656)     29813.871 1  Rx        006E -  7    71 1F C3 CF 22 09 DE
   657)     29814.127 1  Rx        0106 -  7    BE 90 9D 14 61 CC A3
   658)     29814.341 1  Rx        0132 -  7    5D 3E 39 12 75 09 DE
   659)     29814.639 1  Rx        0308 -  8    E9 F0 AB 18 63 64 D3 93
   660)     29814.853 1  Rx        0206 -  7    71 2E 61 C2 AE 9C 19
   661)     29815.194 1  Rx        0212 -  7    79 CC A3 65 0A E4 AD
   662)     29815.493 1  Rx        0222 -  8    D6 09 3A 7B A8 B8 65 B1
   663)     29815.791 1  Rx        0459 -  8    43 E1 5E 30 67 3D 66 A1
   664)     29816.047 1  Rx        0451 -  8    3A 5E 3D BD 1A C6 5D A9
   665)     29816.303 1  Rx        0441 -  8    BD 65 13 62 D1 A9 6D 46
   666)     29816.730 1  Rx    1AFB1C04 -  8    50 48 5D B9 7E B0 0A 00
   667)     29817.199 1  Rx    1AFB1C00 -  8    D4 4D AC B5 35 BD 2B 8F
   668)     29817.583 1  Rx        0419 -  8    31 F1 FB D6 4E 57 CB FF
   669)     29919.086 1  Rx        0332 -  8    B0 D5 70 E0 1C 4B CA AC
   670)     29919.768 1  Rx        011A -  5    B8 1E 91 17 E2
   671)     29920.451 1  Rx        0331 -  8    3F AD DA 6A EF 9C D1 71
   672)     29921.006 1  Rx        011B -  7    ED 3C FB 0E 79 61 B9
   673)     29921.518 1  Rx        006E -  7    71 80 11 CF 22 09 D0
   674)     29921.987 1  Rx        0106 -  7    BE 90 9D A9 61 CC E0
   675)     29922.371 1  Rx        0132 -  7    97 3E 39 12 75 CF DE
   676)     29922.712 1  Rx        0308 -  8    E9 F0 AB FA FB 7C C1 D1
   677)     29922.968 1  Rx        0206 -  7    AE F5 AF C2 BE 9C 85
   678)     29923.395 1  Rx        0212 -  7    79 90 B6 65 CD 1C AD
   679)     29923.779 1  Rx        0222 -  8    D0 41 39 7B DF 92 65 80
   680)     29924.120 1  Rx        0459 -  8    0F C4 5E 30 07 32 66 A1
   681)     29924.504 1  Rx        0451 -  8    3A FB 3D BD A7 B5 5D 18
   682)     29924.974 1  Rx        0441 -  8    BD 34 13 62 1E 6B 5D 5B
   683)     29925.272 1  Rx    1AFB1C04 -  8    21 48 10 B9 7E B0 0A 00
   684)     29925.571 1  Rx    1AFB1C00 -  8    20 4D 9E 6E 35 BD 2B 09
   685)     29925.827 1  Rx        0419 -  8    31 F1 14 30 4E D5 FB 5A
   686)     30026.775 1  Rx        0332 -  8    98 D5 C5 27 1C 4B CA AC
   687)     30027.329 1  Rx        011A -  5    B8 1E 91 17 E2
   688)     30027.799 1  Rx        0331 -  8    3F AD 5E 6A EF 9C D1 4B
   689)     30028.268 1  Rx        011B -  7    ED FD FB F9 79 61 B0
   690)     30028.567 1  Rx        006E -  7    C9 80 11 CF 22 CA D0
   691)     30028.908 1  Rx        0106 -  7    AF 90 1E A9 07 CC 63
   692)     30029.249 1  Rx        0132 -  7    97 3E 39 12 D6 9B DE
   693)     30029.548 1  Rx        0308 -  8    51 F0 C5 F9 1B B7 D3 D1
   694)     30029.889 1  Rx        0206 -  7    AE F5 6D C2 CF 9C 44
   695)     30030.231 1  Rx        0212 -  7    79 A0 B6 98 C4 1C AD
   696)     30030.743 1  Rx        0222 -  8    92 41 88 7B DF 92 A6 80
   697)     30031.127 1  Rx        0459 -  8    0C C4 5A AF 07 9C 99 A1
   698)     30031.425 1  Rx        0451 -  8    3A FB 3D BD B4 B5 5D 18
   699)     30031.724 1  Rx        0441 -  8    C8 28 13 62 1E 6B 52 FD
   700)     30032.023 1  Rx    1AFB1C04 -  8    B4 34 10 7D 5E B0 0A 00
   701)     30032.364 1  Rx    1AFB1C00 -  8    E8 4D 9E 6E 35 52 50 E8
   702)     30032.705 1  Rx        0419 -  8    18 3D AC 93 A8 41 FB E6
   703)     30133.610 1  Rx        0332 -  8    98 6E A2 AB 7D 45 CA 92
   704)     30134.250 1  Rx        011A -  5    E8 1E 14 17 54
   705)     30134.848 1  Rx        0331 -  8    C2 AD 5E 01 0B 9C 0A 5C
   706)     30135.360 1  Rx        011B -  7    93 1C A6 E5 79 C0 B0
   707)     30135.701 1  Rx        006E -  7    CE 9A F2 CF 22 CA 31
   708)     30136.000 1  Rx        0106 -  7    37 90 1E FF 07 D3 63
   709)     30136.298 1  Rx        0132 -  7    A8 AB 39 12 78 90 DE
   710)     30136.597 1  Rx        0308 -  8    4D BF F2 05 1B B7 D3 D1
   711)     30136.896 1  Rx        0206 -  7    44 F5 BE 43 FD 9C 44
   712)     30137.152 1  Rx        0212 -  7    79 7A 23 98 C4 22 D3
   713)     30137.408 1  Rx        0222 -  8    FB 87 88 7B A7 92 A6 BD
   714)     30137.834 1  Rx        0459 -  8    73 C4 5A AF 07 E7 9B A1
   715)     30138.176 1  Rx        0451 -  8    3A FB B4 B5 86 E5 39 18
   716)     30138.688 1  Rx        0441 -  8    CF 3E F2 62 45 48 52 FD
   717)     30139.200 1  Rx    1AFB1C04 -  8    4D 34 55 7D 5E B0 67 00
   718)     30139.498 1  Rx    1AFB1C00 -  8    E8 3F 9E 6E CB 52 50 2C
   719)     30139.840 1  Rx        0419 -  8    2B 3D AC 93 A8 41 FB E6
   720)     30241.427 1  Rx        0332 -  8    99 EA 6A AB 7D 61 CA AE
   721)     30242.067 1  Rx        011A -  5    E8 1E 14 17 8C
   722)     30242.622 1  Rx        0331 -  8    C2 0E 10 09 0B 10 36 5C
   723)     30243.006 1  Rx        011B -  7    93 B2 A6 E5 79 EF B0
   724)     30243.305 1  Rx        006E -  7    83 10 F2 CF 73 CA 31
   725)     30243.518 1  Rx        0106 -  7    F0 09 3B D2 07 D3 63
   726)     30243.859 1  Rx        0132 -  7    5B DE 95 E3 DE DB DE
   727)     30244.201 1  Rx        0308 -  8    D4 5A 84 05 1B FD 7B D1
   728)     30244.457 1  Rx        0206 -  7    44 F5 84 6D FD C9 E6
   729)     30244.713 1  Rx        0212 -  7    79 7A 06 3F C4 22 59
   730)     30245.054 1  Rx        0222 -  8    FB FF 88 9B 14 3D A6 2D
   731)     30245.267 1  Rx        0459 -  8    73 75 5F 73 07 E7 9B A1
   732)     30245.523 1  Rx        0451 -  8    3A 74 6B EA 86 E5 39 18
   733)     30245.907 1  Rx        0441 -  8    CF 3E 17 09 0A 48 8B C1
   734)     30246.249 1  Rx    1AFB1C04 -  8    4D 34 08 7D 5E D6 65 14
   735)     30246.590 1  Rx    1AFB1C00 -  8    E8 3F 80 6E 25 DE 50 BA
   736)     30246.889 1  Rx        0419 -  8    2B 3D AC FC A8 A9 FB E6
   737)     30348.647 1  Rx        0332 -  8    99 EA 45 01 7D 56 CA AE
   738)     30349.244 1  Rx        011A -  5    E8 7B 92 A1 61
   739)     30349.842 1  Rx        0331 -  8    C2 5C 10 09 0B D6 30 22
   740)     30350.396 1  Rx        011B -  7    03 B2 20 E5 3D EF 39
   741)     30350.994 1  Rx        006E -  7    9B 10 BD 3E AA CA 4C
   742)     30351.378 1  Rx        0106 -  7    2A A1 CF 5A AF 3C 63
   743)     30351.847 1  Rx        0132 -  7    80 DE 95 B8 F1 DB DE
   744)     30352.231 1  Rx        0308 -  8    25 5A CF 3A 1B 30 37 76
   745)     30352.530 1  Rx        0206 -  7    44 F5 6A 6D AA C9 14
   746)     30352.743 1  Rx        0212 -  7    79 7A 06 A7 C4 22 8E
   747)     30353.127 1  Rx        0222 -  8    FF 6E 88 BF CA F2 A6 D2
   748)     30353.511 1  Rx        0459 -  8    73 75 55 A9 07 0B 39 A1
   749)     30353.980 1  Rx        0451 -  8    7F 74 AA EA 86 61 5A 51
   750)     30354.407 1  Rx        0441 -  8    11 E2 00 09 0A 25 67 19
   751)     30354.791 1  Rx    1AFB1C04 -  8    71 C2 90 D4 5E 5B 65 14
   752)     30355.175 1  Rx    1AFB1C00 -  8    0E 3F 33 85 26 DE D0 FB
   753)     30355.431 1  Rx        0419 -  8    2B 3D A9 7C 8C A9 27 E6
   754)     30456.848 1  Rx        0332 -  8    99 EA 45 01 7D 56 CA 0E
   755)     30457.317 1  Rx        011A -  5    E8 7B 92 39 61
   756)     30457.829 1  Rx        0331 -  8    C2 5C 10 95 9D D6 63 22
   757)     30458.299 1  Rx        011B -  7    03 B2 20 C6 0B EF E8
   758)     30458.683 1  Rx        006E -  7    3E 10 BD E6 AA CA 4C
   759)     30458.981 1  Rx        0106 -  7    2A 03 65 5A AF BA 63
   760)     30459.365 1  Rx        0132 -  7    BD DE 7C 53 F1 D4 FC
   761)     30459.707 1  Rx        0308 -  8    29 5A CF AE 7C 30 57 3A
   762)     30460.005 1  Rx        0206 -  7    44 F5 6A 6B DE C9 80
   763)     30460.304 1  Rx        0212 -  7    BF 7A 9C A7 C4 55 70
   764)     30460.560 1  Rx        0222 -  8    25 6E BB BF CA 60 86 D2
   765)     30460.816 1  Rx        0459 -  8    F5 E2 55 A9 07 0B 98 47
   766)     30461.115 1  Rx        0451 -  8    B0 BC 64 EC 86 A5 5A 51
   767)     30461.499 1  Rx        0441 -  8    E5 E2 00 09 0A 25 67 19
   768)     30461.840 1  Rx    1AFB1C04 -  8    71 51 33 D4 3F 5B 14 ED
   769)     30462.053 1  Rx    1AFB1C00 -  8    0E 3F 33 85 D7 DE D0 FB
   770)     30462.523 1  Rx        0419 -  8    2B 3D 76 7C 24 63 55 E6
   771)     30563.598 1  Rx        0332 -  8    D8 DD 04 FC A8 A7 4D 3A
   772)     30563.726 1  Rx        011A -  5    C3 CF 8D C4 24
   773)     30563.854 1  Rx        0331 -  8    B6 C1 55 AC E7 8E E8 77
   774)     30563.982 1  Rx        011B -  7    BF D0 F1 4A 39 CC 27
   775)     30564.110 1  Rx        006E -  7    51 35 63 96 D3 79 B8
   776)     30564.196 1  Rx        0106 -  7    A3 A1 71 DD B7 86 FC
   777)     30564.324 1  Rx        0132 -  7    61 59 BC 2F 64 95 8C
   778)     30564.452 1  Rx        0308 -  8    E5 09 4B 87 2E 34 80 03
   779)     30564.580 1  Rx        0206 -  7    B9 DD 35 22 46 33 F8
   780)     30564.708 1  Rx        0212 -  7    F6 B3 64 3B 03 CE C4
   781)     30564.836 1  Rx        0222 -  8    94 54 C2 A3 B8 50 5B 41
   782)     30564.964 1  Rx        0459 -  8    B4 EE 29 70 42 A2 0E E5
   783)     30565.134 1  Rx        0451 -  8    2E 01 67 22 50 0B FE 66
   784)     30565.262 1  Rx        0441 -  8    90 A9 D8 25 C9 A6 9D 55
   785)     30565.390 1  Rx    1AFB1C04 -  8    30 40 63 58 73 13 78 C5
   786)     30565.561 1  Rx    1AFB1C00 -  8    6F 32 90 CC BC BB AA F7
   787)     30565.689 1  Rx        0419 -  8    B3 8D 2E 4E 05 E3 6F C4
   788)     30627.329 1  Rx        033B -  8    AC 01 56 8E AE 04 60 24
   789)     30627.969 1  Rx        0339 -  8    B0 47 73 74 11 04 AC 57
   790)     30628.481 1  Rx        0337 -  7    B4 5A A8 C3 61 EB DD
   791)     30629.078 1  Rx        001F -  5    95 B4 3A 53 9D
   792)     30629.505 1  Rx        0333 -  4    B9 1F 72 C3
   793)     30629.974 1  Rx        0335 -  8    23 05 6D 24 A2 08 4A 0A
   794)     30630.315 1  Rx        0121 -  4    96 C9 8F 84
   795)     30630.742 1  Rx        067F -  8    CB C4 B1 51 02 C7 60 1A
   796)     30631.126 1  Rx        0681 -  8    E0 A5 FA E9 85 02 B8 9D
   797)     30631.553 1  Rx        0309 -  8    77 CF 2F C9 12 32 46 43
   798)     30631.894 1  Rx        030A -  8    A3 4D 39 C7 14 4D BE 63
   799)     30632.321 1  Rx        0622 -  6    7A CF E1 8E 30 F6
   800)     30632.619 1  Rx        0413 -  6    92 E1 CC 6F C5 5A
   801)     30632.918 1  Rx        0402 -  3    C5 22 85
   802)     30633.217 1  Rx        0739 -  8    3F EA FC 55 39 4E FF 65
   803)     30633.601 1  Rx        0411 -  8    EE 13 6F 52 A6 17 B9 E9
   804)     30633.857 1  Rx        0729 -  8    15 9E AB 9B 5D 1B AB FC
   805)     30634.155 1  Rx        0728 -  8    79 4D 74 E4 23 DE 6A EE
   806)     30634.539 1  Rx        0709 -  8    6F 87 FC C5 E5 61 DC 89
   807)     30634.881 1  Rx        0711 -  8    05 19 E0 EF 8E 82 44 E2
   808)     30665.813 1  Rx        0332 -  8    34 F1 3C 29 2C A7 4D 3A
   809)     30666.368 1  Rx        011A -  5    BE C3 8D C4 24
   810)     30667.008 1  Rx        0331 -  8    B6 4C 55 AC 96 BE 1C 3F
   811)     30667.691 1  Rx        011B -  7    BF 7F F1 DA 39 E6 12
   812)     30668.331 1  Rx        006E -  7    7D 35 76 96 36 A8 B8
   813)     30669.141 1  Rx        0106 -  7    89 9A 13 1E A4 86 FC
   814)     30669.525 1  Rx        0132 -  7    EB 10 52 9F 64 95 8C
   815)     30669.952 1  Rx        0308 -  8    00 14 4B 87 2E CB 80 03
   816)     30670.379 1  Rx        0206 -  7    9E DD 21 22 46 33 0A
   817)     30670.805 1  Rx        0212 -  7    F6 2E 46 71 EE CE C4
   818)     30671.403 1  Rx        0222 -  8    94 D8 C2 A3 B8 50 5B 73
   819)     30671.915 1  Rx        0459 -  8    B4 EE AF 33 42 A2 87 D1
   820)     30672.256 1  Rx        0451 -  8    F8 01 67 D7 50 29 57 66
   821)     30672.597 1  Rx        0441 -  8    90 F6 BB AC 8F D1 9D 55
   822)     30672.896 1  Rx    1AFB1C04 -  8    30 CB 63 58 73 A4 2E 19
   823)     30673.152 1  Rx    1AFB1C00 -  8    D9 32 90 CC 61 BB AA 1D
   824)     30673.451 1  Rx        0419 -  8    B3 FE 36 33 05 E3 6F 91
   825)     30774.868 1  Rx        0332 -  8    FA F1 3C 29 1D A7 AE 67
   826)     30775.380 1  Rx        011A -  5    BE 3C A8 C4 16
   827)     30775.849 1  Rx        0331 -  8    B6 4C BA AC F2 BE 1C 40
   828)     30776.361 1  Rx        011B -  7    BF 7F F1 E0 28 7C 1C
   829)     30776.617 1  Rx        006E -  7    91 35 5E 96 36 67 0F
   830)     30776.873 1  Rx        0106 -  7    C7 E4 13 1E A4 86 FC
   831)     30777.129 1  Rx        0132 -  7    EB 6B 52 C9 89 95 8C
   832)     30777.385 1  Rx        0308 -  8    00 C2 C8 87 2E F4 17 03
   833)     30777.598 1  Rx        0206 -  7    D4 DD 21 22 46 98 6E
   834)     30777.940 1  Rx        0212 -  7    F6 50 3C C2 EE 46 1A
   835)     30778.196 1  Rx        0222 -  8    94 D8 C2 A3 B8 50 5B D2
   836)     30778.452 1  Rx        0459 -  8    96 EE E3 33 8D 2E AC D1
   837)     30778.750 1  Rx        0451 -  8    F8 33 AC 27 50 11 57 37
   838)     30779.006 1  Rx        0441 -  8    90 F6 BB 38 D2 D1 64 F1
   839)     30779.305 1  Rx    1AFB1C04 -  8    59 FB 63 58 73 C2 2E 19
   840)     30779.561 1  Rx    1AFB1C00 -  8    D9 32 90 CC A6 BB AA 1D
   841)     30779.817 1  Rx        0419 -  8    65 C5 6D 33 E4 E3 F2 91
   842)     30880.679 1  Rx        0332 -  8    FA F1 3C 29 38 CD AE 0D
   843)     30881.277 1  Rx        011A -  5    BE 3C A8 C4 CA
   844)     30881.917 1  Rx        0331 -  8    B6 4C BA 04 F2 BE 31 D2
   845)     30882.301 1  Rx        011B -  7    67 7F F1 E0 28 7C 1C
   846)     30882.770 1  Rx        006E -  7    90 8F 72 96 36 67 0F
   847)     30883.111 1  Rx        0106 -  7    C7 E4 BF A8 84 86 5D
   848)     30883.453 1  Rx        0132 -  7    EB E4 59 16 89 45 8C
   849)     30883.751 1  Rx        0308 -  8    00 C2 C8 87 E2 F4 17 0C
   850)     30884.093 1  Rx        0206 -  7    D4 DD 21 22 46 8A 6E
   851)     30884.477 1  Rx        0212 -  7    DD 50 3C C2 F3 46 1A
   852)     30884.946 1  Rx        0222 -  8    B6 D8 C2 BB 2A 50 5B 4D
   853)     30885.373 1  Rx        0459 -  8    0A EE BE 79 92 2E 24 D1
   854)     30885.970 1  Rx        0451 -  8    F8 33 EC 27 50 1C 57 37
   855)     30886.397 1  Rx        0441 -  8    90 48 BB 38 D2 35 3E F1
   856)     30886.951 1  Rx    1AFB1C04 -  8    8B 2A D2 58 49 C2 2E 19
   857)     30887.293 1  Rx    1AFB1C00 -  8    D9 61 90 9E A6 B1 2B 1D
   858)     30887.634 1  Rx        0419 -  8    D7 C5 6D 8B E4 E3 F2 F3
   859)     30908.028 1  Rx        033A -  8    21 A8 7B C2 E1 8A D2 14
   860)     30908.540 1  Rx        0336 -  8    14 64 A2 10 7E 60 AE 80
   861)     30909.052 1  Rx        0334 -  8    AF AA EB FD E3 93 6F 55
   862)     30909.564 1  Rx        06DD -  8    AF CC E9 EF A0 B9 82 EE
   863)     30909.948 1  Rx        0799 -  8    4E 75 4D 88 46 15 E6 BB
   864)     30988.667 1  Rx        0332 -  8    FA F1 3C 29 38 CD 96 0D
   865)     30989.222 1  Rx        011A -  5    BE 3C A8 C4 CA
   866)     30989.819 1  Rx        0331 -  8    5D E8 BA 04 F2 BE 31 2F
   867)     30990.246 1  Rx        011B -  7    C8 1E 11 43 28 42 C5
   868)     30990.587 1  Rx        006E -  7    70 05 EE E1 34 4A 9C
   869)     30990.886 1  Rx        0106 -  7    61 E4 19 A8 27 5D 5D
   870)     30991.142 1  Rx        0132 -  7    EB 72 DD 16 AE 34 4D
   871)     30991.483 1  Rx        0308 -  8    BA BC C8 9D E2 F4 17 A9
   872)     30991.739 1  Rx        0206 -  7    D4 DD 50 09 4A 8A 6E
   873)     30991.995 1  Rx        0212 -  7    DD 50 3C C2 F3 46 1A
   874)     30992.251 1  Rx        0222 -  8    B6 D8 07 BB 4A 3A 35 4D
   875)     30992.464 1  Rx        0459 -  8    0A EE EE 79 92 2E 24 D1
   876)     30992.763 1  Rx        0451 -  8    F8 77 26 27 A7 28 06 BA
   877)     30993.019 1  Rx        0441 -  8    90 B3 D7 38 D2 35 2F D9
   878)     30993.318 1  Rx    1AFB1C04 -  8    8B 17 D2 58 49 C4 08 19
   879)     30993.659 1  Rx    1AFB1C00 -  8    D9 61 90 57 AB B1 2B 1D
   880)     30993.958 1  Rx        0419 -  8    D7 DE 6D AB E4 E3 F2 F3
   881)     31095.375 1  Rx        0332 -  8    FA F1 3C 5E 38 CD 9E 14
   882)     31095.929 1  Rx        011A -  5    BE 3C FD E3 9F
   883)     31096.484 1  Rx        0331 -  8    5D E8 B1 04 49 BE 4B 4F
   884)     31097.039 1  Rx        011B -  7    33 1E 84 43 C2 6D C5
   885)     31097.380 1  Rx        006E -  7    92 05 B8 B5 67 27 FC
   886)     31097.849 1  Rx        0106 -  7    D9 D7 28 A8 D7 9F 57
   887)     31098.191 1  Rx        0132 -  7    51 76 DD 5C B2 34 4D
   888)     31098.617 1  Rx        0308 -  8    BA A4 20 F8 E2 B0 17 A9
   889)     31099.001 1  Rx        0206 -  7    DE 16 5E 7B 40 8A 6E
   890)     31099.343 1  Rx        0212 -  7    A1 50 3C 0B F3 72 1A
   891)     31099.769 1  Rx        0222 -  8    DE D8 07 FB 4A 3A 35 7C
   892)     31100.111 1  Rx        0459 -  8    0A 90 EE 51 3E 79 9A 16
   893)     31100.623 1  Rx        0451 -  8    9F D6 8F 27 56 F5 06 BA
   894)     31101.007 1  Rx        0441 -  8    90 B3 E6 E4 26 35 2F D9
   895)     31101.391 1  Rx    1AFB1C04 -  8    8B F1 5E 58 09 C4 88 79
   896)     31101.860 1  Rx    1AFB1C00 -  8    C7 61 B7 57 A8 B1 2B 1D
   897)     31102.244 1  Rx        0419 -  8    D7 DE AC AB BA 16 A9 F3
   898)     31203.192 1  Rx        0332 -  8    FA D2 6F 5E 92 CA 9E BD
   899)     31203.746 1  Rx        011A -  5    BE E9 1B E3 DE
   900)     31204.344 1  Rx        0331 -  8    6F 37 B1 FF 49 EF 4B 4F
   901)     31204.941 1  Rx        011B -  7    57 1E A5 EE A7 6D C5
   902)     31205.410 1  Rx        006E -  7    92 05 12 B5 EA D3 9C
   903)     31205.880 1  Rx        0106 -  7    D9 1D 03 A8 E8 0B 57
   904)     31206.264 1  Rx        0132 -  7    88 30 4C 5C B1 34 4D
   905)     31206.690 1  Rx        0308 -  8    FC DA A4 F8 E2 D7 17 A9
   906)     31207.160 1  Rx        0206 -  7    9E 16 2A 7B 40 5B 96
   907)     31207.458 1  Rx        0212 -  7    A1 88 3C A5 0D 72 1A
   908)     31207.800 1  Rx        0222 -  8    DE D8 69 FB 4A 3A DD 7C
   909)     31208.269 1  Rx        0459 -  8    D4 ED EE 1F 3E F1 9A 1F
   910)     31208.738 1  Rx        0451 -  8    BC C5 8F 27 56 F5 06 BA
   911)     31208.994 1  Rx        0441 -  8    90 B3 B9 E4 26 B4 2F D9
   912)     31209.293 1  Rx    1AFB1C04 -  8    8B F1 5E A9 8A C4 01 23
   913)     31209.634 1  Rx    1AFB1C00 -  8    C7 61 EC 30 A8 B1 B2 1D
   914)     31209.890 1  Rx        0419 -  8    03 44 DD AB BA 16 DB F3
   915)     31311.563 1  Rx        0332 -  8    FA 20 33 9A 92 CA 9E 13
   916)     31312.118 1  Rx        011A -  5    BE E9 FE E3 2C
   917)     31312.673 1  Rx        0331 -  8    E4 37 30 9C A5 73 4A 4F
   918)     31313.185 1  Rx        011B -  7    57 E7 A5 EE B5 6D D3
   919)     31313.611 1  Rx        006E -  7    92 69 72 B5 BA FB F7
   920)     31313.995 1  Rx        0106 -  7    E7 1D 03 84 21 69 57
   921)     31314.422 1  Rx        0132 -  7    81 30 6F 84 B1 A9 4D
   922)     31314.721 1  Rx        0308 -  8    FD DA A4 48 E2 D7 84 A9
   923)     31315.105 1  Rx        0206 -  7    BE 28 52 7B B3 FA 96
   924)     31315.403 1  Rx        0212 -  7    A1 83 29 A5 0D 6A 2C
   925)     31315.659 1  Rx        0222 -  8    DE D8 69 2B 4A 3A 25 7C
   926)     31316.001 1  Rx        0459 -  8    D4 ED B5 38 36 F1 9A 1A
   927)     31316.470 1  Rx        0451 -  8    BC C5 8F 27 E0 AD 06 72
   928)     31316.982 1  Rx        0441 -  8    90 B3 9D E4 2F B4 9D 18
   929)     31317.366 1  Rx    1AFB1C04 -  8    8B F1 5E B2 8A C4 01 23
   930)     31317.665 1  Rx    1AFB1C00 -  8    3C 04 0A 30 3D B1 D8 1D
   931)     31317.963 1  Rx        0419 -  8    03 44 6C AB BA 16 47 74
   932)     31419.466 1  Rx        0332 -  8    FA 20 44 23 DF 8A 9E 9C
   933)     31420.063 1  Rx        011A -  5    B5 F0 FE 55 BE
   934)     31420.788 1  Rx        0331 -  8    28 B7 30 9C A5 73 2A 90
   935)     31421.258 1  Rx        011B -  7    57 E7 A5 7D B5 6D D3
   936)     31421.770 1  Rx        006E -  7    A8 C9 BE 4A BA 88 F7
   937)     31422.239 1  Rx        0106 -  7    BE 1D 03 84 6A AC 8D
   938)     31422.538 1  Rx        0132 -  7    81 2B 6F 84 B1 A9 4D
   939)     31422.964 1  Rx        0308 -  8    C6 DA A4 48 2E D7 C0 EE
   940)     31423.263 1  Rx        0206 -  7    BE 28 E3 95 B3 43 96
   941)     31423.604 1  Rx        0212 -  7    A1 76 B5 45 0D C0 F0
   942)     31423.946 1  Rx        0222 -  8    51 D8 69 27 8E A2 6D C7
   943)     31424.202 1  Rx        0459 -  8    D4 ED DA 38 36 F1 C9 1A
   944)     31424.543 1  Rx        0451 -  8    BC A2 8F 27 41 AD 97 72
   945)     31424.884 1  Rx        0441 -  8    6D 03 9D E4 B0 F3 9E 18
   946)     31425.268 1  Rx    1AFB1C04 -  8    DE 97 71 C5 E3 C4 01 C6
   947)     31425.738 1  Rx    1AFB1C00 -  8    3D FB 0A 30 3D B1 EB 1D
   948)     31425.994 1  Rx        0419 -  8    03 00 42 3D 34 96 8B E0
   949)     31527.069 1  Rx        0332 -  8    36 20 EC E6 58 8A B2 5C
   950)     31527.709 1  Rx        011A -  5    B5 F0 19 23 BE
   951)     31528.264 1  Rx        0331 -  8    28 64 30 97 54 7A 2A 90
   952)     31528.733 1  Rx        011B -  7    57 E7 A5 94 B5 6D B0
   953)     31529.032 1  Rx        006E -  7    A8 C9 7F 31 BA 8B F7
   954)     31529.331 1  Rx        0106 -  7    BE 91 03 07 FD D0 8D
   955)     31529.672 1  Rx        0132 -  7    56 53 C3 E2 B1 A9 4D
   956)     31530.013 1  Rx        0308 -  8    89 8B D3 48 42 86 C0 E4
   957)     31530.312 1  Rx        0206 -  7    BE 28 F8 75 B3 0F 96
   958)     31530.611 1  Rx        0212 -  7    D8 4F B5 45 79 C0 1D
   959)     31530.909 1  Rx        0222 -  8    9D D8 69 27 09 A2 86 DE
   960)     31531.208 1  Rx        0459 -  8    59 ED 3B 38 36 F1 C9 1A
   961)     31531.549 1  Rx        0451 -  8    BC A2 8F B6 41 AD A4 72
   962)     31531.891 1  Rx        0441 -  8    6D 03 1C 6A 8B DB 39 60
   963)     31532.189 1  Rx    1AFB1C04 -  8    DE EB 71 C5 E3 C4 2A A2
   964)     31532.488 1  Rx    1AFB1C00 -  8    91 FB 0A C8 3D B1 24 AE
   965)     31532.787 1  Rx        0419 -  8    03 00 5D 57 34 87 8B 4D
   966)     31633.931 1  Rx        0332 -  8    18 F9 DD B4 17 A2 86 0D
   967)     31634.059 1  Rx        011A -  5    96 64 E1 3F 60
   968)     31634.187 1  Rx        0331 -  8    34 1E 34 74 37 05 35 FC
   969)     31634.315 1  Rx        011B -  7    A1 B2 BF 7B EB 21 D9
   970)     31634.443 1  Rx        006E -  7    B2 13 F2 0D FA 5D BE
   971)     31634.571 1  Rx        0106 -  7    01 56 88 32 BD E1 D4
   972)     31634.699 1  Rx        0132 -  7    E5 53 7E 8F 14 15 7F
   973)     31634.827 1  Rx        0308 -  8    8B BF A1 D4 F5 E2 EC D7
   974)     31634.955 1  Rx        0206 -  7    79 E8 19 55 8C 2F 41
   975)     31635.083 1  Rx        0212 -  7    AB 1E 4D 81 0B 69 BA
   976)     31635.211 1  Rx        0222 -  8    DA 65 6B 1C DA 82 8D 74
   977)     31635.339 1  Rx        0459 -  8    29 FC 69 17 F2 15 09 6D
   978)     31635.467 1  Rx        0451 -  8    DF 97 8F E8 8F 2E AD 15
   979)     31635.595 1  Rx        0441 -  8    F2 A5 5C FF FD 0E 40 C5
   980)     31635.766 1  Rx    1AFB1C04 -  8    5F B7 8B 1A BB 14 68 D3
   981)     31635.894 1  Rx    1AFB1C00 -  8    1E 6F D0 08 42 A1 F4 48
   982)     31636.022 1  Rx        0419 -  8    E9 A1 B2 ED 58 D3 F1 D0
   983)     31636.363 1  Rx        033B -  8    91 01 06 8E AE C6 60 F9
   984)     31636.875 1  Rx        0339 -  8    B0 04 0C 74 11 04 4D 57
   985)     31637.344 1  Rx        0337 -  7    21 5A 63 ED 30 7E DD
   986)     31637.856 1  Rx        001F -  5    0E B4 C5 53 9D
   987)     31638.155 1  Rx        0333 -  4    B9 1F 72 AC
   988)     31638.496 1  Rx        0335 -  8    B7 05 42 EE A2 08 C2 0A
   989)     31638.710 1  Rx        0121 -  4    96 DA 8F 3B
   990)     31639.008 1  Rx        067F -  8    FE C4 B1 0A 02 EF 58 1A
   991)     31639.307 1  Rx        0681 -  8    3D A5 FA 90 E5 02 B8 17
   992)     31639.563 1  Rx        0309 -  8    26 CF 2F B7 1A 32 B3 75
   993)     31639.819 1  Rx        030A -  8    E7 4D 39 C7 14 4D BE A8
   994)     31640.032 1  Rx        0622 -  6    52 BD E1 8E D1 F6
   995)     31640.331 1  Rx        0413 -  6    FD E1 CC 19 C5 B6
   996)     31640.501 1  Rx        0402 -  3    38 15 85
   997)     31640.843 1  Rx        0739 -  8    D3 20 FC 20 39 DD 2F 94
   998)     31641.099 1  Rx        0411 -  8    EE 52 F0 58 A6 17 B9 E9
   999)     31641.397 1  Rx        0729 -  8    62 31 81 02 B8 73 AB FC
  1000)     31641.739 1  Rx        0728 -  8    4E 4D 74 E8 5D E1 AA B6
  1001)     31641.995 1  Rx        0709 -  8    FB 97 FC 9F E5 6F DC 89
  1002)     31642.336 1  Rx        0711 -  8    70 41 E4 EF 8E 06 C0 E2
  1003)     31736.585 1  Rx        0332 -  8    18 F9 87 B4 7E EE 86 70
  1004)     31737.140 1  Rx        011A -  5    96 5D C8 3F 52
  1005)     31737.780 1  Rx        0331 -  8    0D 66 34 74 C3 3F 35 FC
  1006)     31738.292 1  Rx        011B -  7    05 29 BF D5 18 21 A7
  1007)     31738.761 1  Rx        006E -  7    B2 8B 1B 0D FA 5D FA
  1008)     31739.060 1  Rx        0106 -  7    01 D6 66 30 BD D9 D4
  1009)     31739.401 1  Rx        0132 -  7    B7 87 7E 8F 14 15 EE
  1010)     31739.785 1  Rx        0308 -  8    A0 1B A1 CC 11 CC EC 21
  1011)     31740.084 1  Rx        0206 -  7    45 31 77 45 9F 2F 41
  1012)     31740.511 1  Rx        0212 -  7    40 1E 5B 81 B5 67 11
  1013)     31740.895 1  Rx        0222 -  8    05 65 6B 72 DA 82 8D 74
  1014)     31741.279 1  Rx        0459 -  8    29 FC 69 17 64 7F C1 6D
  1015)     31741.620 1  Rx        0451 -  8    8A 8F 49 9D 8F 0D 29 32
  1016)     31741.919 1  Rx        0441 -  8    4D 47 DB FF FD 04 40 54
  1017)     31742.260 1  Rx    1AFB1C04 -  8    13 B7 8B 1A DD BF 68 D3
  1018)     31742.559 1  Rx    1AFB1C00 -  8    0F 6F D1 08 42 D5 57 0A
  1019)     31742.857 1  Rx        0419 -  8    B9 A1 B2 97 58 F4 F1 3D
  1020)     31844.445 1  Rx        0332 -  8    18 F9 A0 B4 3D EE 38 33
  1021)     31844.914 1  Rx        011A -  5    96 5D C8 11 52
  1022)     31845.384 1  Rx        0331 -  8    0D 66 34 74 C3 E9 35 FC
  1023)     31845.768 1  Rx        011B -  7    05 29 BF D5 18 2A 4D
  1024)     31846.152 1  Rx        006E -  7    B2 8B 1B 2E FA EE 94
  1025)     31846.450 1  Rx        0106 -  7    01 1F DC 30 CC 28 65
  1026)     31846.749 1  Rx        0132 -  7    AE 6A 7E E6 14 B4 F5
  1027)     31846.962 1  Rx        0308 -  8    19 8B A1 CC 34 CC A5 F3
  1028)     31847.218 1  Rx        0206 -  7    60 1F 77 45 CD 2F 41
  1029)     31847.474 1  Rx        0212 -  7    40 1E 5B 5B B5 67 B9
  1030)     31847.944 1  Rx        0222 -  8    05 65 2E 72 DA C8 C2 49
  1031)     31848.157 1  Rx        0459 -  8    29 FC 95 17 64 8B C1 53
  1032)     31848.370 1  Rx        0451 -  8    AA 4C 49 9D B4 0D EA 7A
  1033)     31848.626 1  Rx        0441 -  8    4C 47 DB A0 E0 04 40 54
  1034)     31848.968 1  Rx    1AFB1C04 -  8    9A DD 54 44 05 BF 68 D3
  1035)     31849.224 1  Rx    1AFB1C00 -  8    0F 6F 16 08 42 53 57 0A
  1036)     31849.565 1  Rx        0419 -  8    B9 A1 B4 AA A6 F4 F1 9B
  1037)     31951.366 1  Rx        0332 -  8    18 F9 A0 B4 3D B8 38 33
  1038)     31952.134 1  Rx        011A -  5    17 5D C8 11 52
  1039)     31952.817 1  Rx        0331 -  8    CD 66 34 72 C3 95 35 FC
  1040)     31953.243 1  Rx        011B -  7    FB 29 39 D5 B7 AD 0B
  1041)     31953.627 1  Rx        006E -  7    C1 18 1B 2E FA EE 94
  1042)     31954.011 1  Rx        0106 -  7    71 65 DC CC 34 81 0C
  1043)     31954.395 1  Rx        0132 -  7    AE 6A D8 E6 86 B4 1F
  1044)     31954.737 1  Rx        0308 -  8    19 8B A1 CC C7 CC CC 9D
  1045)     31954.993 1  Rx        0206 -  7    60 15 77 E4 31 92 41
  1046)     31955.249 1  Rx        0212 -  7    39 42 72 5B 5E 67 B9
  1047)     31955.547 1  Rx        0222 -  8    05 BA 2E F5 DA E2 84 8B
  1048)     31955.846 1  Rx        0459 -  8    BE FC 95 30 A4 8B C1 53
  1049)     31956.145 1  Rx        0451 -  8    AA 4C C4 9C B4 0D FD D5
  1050)     31956.529 1  Rx        0441 -  8    F5 1B DB A0 20 A7 E9 71
  1051)     31956.998 1  Rx    1AFB1C04 -  8    9A DD 54 44 05 A6 46 8D
  1052)     31957.467 1  Rx    1AFB1C00 -  8    0F 95 F1 36 0D BF FD E0
  1053)     31957.766 1  Rx        0419 -  8    8F A1 03 AA A6 62 76 9B
  1054)     32058.628 1  Rx        0332 -  8    82 F9 4D 69 0D B8 38 CC
  1055)     32059.183 1  Rx        011A -  5    17 5D 2C 11 54
  1056)     32059.652 1  Rx        0331 -  8    CD 66 5A 3C C3 95 35 FC
  1057)     32059.994 1  Rx        011B -  7    FB 29 39 E9 92 9B 0B
  1058)     32060.463 1  Rx        006E -  7    C1 A5 1B 5F 3D EE 94
  1059)     32060.890 1  Rx        0106 -  7    4F A4 DC 59 B1 8F 0C
  1060)     32061.231 1  Rx        0132 -  7    AE CC D9 E6 89 44 5D
  1061)     32061.572 1  Rx        0308 -  8    58 9F A1 FB 6F CC 72 9D
  1062)     32061.914 1  Rx        0206 -  7    60 15 BE EB 31 BF 41
  1063)     32062.170 1  Rx        0212 -  7    F3 82 27 5B B2 67 B9
  1064)     32062.554 1  Rx        0222 -  8    05 A0 84 56 C0 66 7D DB
  1065)     32062.852 1  Rx        0459 -  8    BE C5 95 65 06 0D C1 53
  1066)     32063.108 1  Rx        0451 -  8    AA 4C BA A5 11 0D FD D5
  1067)     32063.535 1  Rx        0441 -  8    F5 1B 25 A4 9C A7 E9 71
  1068)     32063.962 1  Rx    1AFB1C04 -  8    47 59 54 44 69 A6 A7 8D
  1069)     32064.346 1  Rx    1AFB1C00 -  8    0F 95 F1 36 0D BF 1A E0
  1070)     32064.644 1  Rx        0419 -  8    2A B9 03 AA A6 9A 76 9B
  1071)     32166.189 1  Rx        0332 -  8    82 F9 4D 14 22 B8 38 F8
  1072)     32166.701 1  Rx        011A -  5    4C 6E 2C 55 E4
  1073)     32167.256 1  Rx        0331 -  8    A9 66 B8 FB 42 95 35 E0
  1074)     32167.811 1  Rx        011B -  7    FB 74 39 E9 DC 63 5E
  1075)     32168.195 1  Rx        006E -  7    50 1D 39 FE FA EE FD
  1076)     32168.536 1  Rx        0106 -  7    4F A4 0C 3C 7C F3 67
  1077)     32168.835 1  Rx        0132 -  7    6F E6 69 E6 7A 44 5D
  1078)     32169.133 1  Rx        0308 -  8    58 9F A1 FB 6F 04 72 9D
  1079)     32169.432 1  Rx        0206 -  7    60 C8 2D EB 31 BF 41
  1080)     32169.645 1  Rx        0212 -  7    F3 82 E1 D8 50 67 B9
  1081)     32169.901 1  Rx        0222 -  8    05 6B 84 A4 C0 10 7E BF
  1082)     32170.200 1  Rx        0459 -  8    BA C5 9A 6F 06 E6 A9 53
  1083)     32170.669 1  Rx        0451 -  8    B9 4C BA 69 11 F5 3B D5
  1084)     32171.096 1  Rx        0441 -  8    F5 82 25 3F 9C 5F 25 71
  1085)     32171.480 1  Rx    1AFB1C04 -  8    35 59 54 44 69 A6 A7 FC
  1086)     32171.864 1  Rx    1AFB1C00 -  8    0F 92 CE 36 4E FB 25 A2
  1087)     32172.120 1  Rx        0419 -  8    2A F8 43 AA 47 9A 76 40
  1088)     32273.452 1  Rx        0332 -  8    F9 F9 4D 14 70 7B 38 F8
  1089)     32274.006 1  Rx        011A -  5    7E 6E 6F 55 54
  1090)     32274.646 1  Rx        0331 -  8    7E 66 B8 FB 42 78 C2 E0
  1091)     32275.158 1  Rx        011B -  7    C6 D8 F5 F4 8A A2 EF
  1092)     32275.542 1  Rx        006E -  7    50 69 39 38 42 EE F6
  1093)     32275.884 1  Rx        0106 -  7    DF A4 FB 76 7C DF 7D
  1094)     32276.097 1  Rx        0132 -  7    A1 E6 69 A2 89 05 5D
  1095)     32276.396 1  Rx        0308 -  8    76 9F 36 2F 6F 04 72 9D
  1096)     32276.694 1  Rx        0206 -  7    60 06 2D F4 03 BF 41
  1097)     32276.950 1  Rx        0212 -  7    9A 2C E1 2D 75 2D 04
  1098)     32277.249 1  Rx        0222 -  8    05 6B A4 66 C0 10 7F A9
  1099)     32277.505 1  Rx        0459 -  8    BA C7 DC 9B 06 62 A9 EB
  1100)     32277.804 1  Rx        0451 -  8    B9 F5 BA 34 13 F5 20 27
  1101)     32278.017 1  Rx        0441 -  8    F5 15 3E 3F E5 71 25 B4
  1102)     32278.444 1  Rx    1AFB1C04 -  8    E6 59 54 44 69 1F A7 B2
  1103)     32278.870 1  Rx    1AFB1C00 -  8    0F AE 0E 36 DB F2 25 A2
  1104)     32279.212 1  Rx        0419 -  8    2A 5D 44 7F 47 17 10 6D
  1105)     32380.885 1  Rx        0332 -  8    D9 73 62 FE 7D 7B 38 F8
  1106)     32381.439 1  Rx        011A -  5    7E F4 81 55 37
  1107)     32381.994 1  Rx        0331 -  8    44 C0 22 FB FA BE C2 37
  1108)     32382.506 1  Rx        011B -  7    27 D8 F5 75 8A 0B 15
  1109)     32382.847 1  Rx        006E -  7    50 A2 39 38 42 EE 14
  1110)     32383.189 1  Rx        0106 -  7    DF A4 FB 76 AE 4B 7D
  1111)     32383.487 1  Rx        0132 -  7    A1 24 D1 63 C3 B3 5D
  1112)     32383.829 1  Rx        0308 -  8    76 9F 36 2F 4C C1 72 9D
  1113)     32384.213 1  Rx        0206 -  7    60 06 2D F4 03 A6 D5
  1114)     32384.639 1  Rx        0212 -  7    22 DC E1 FF 1E 2D F7
  1115)     32384.981 1  Rx        0222 -  8    34 6B A4 66 C0 10 08 A9
  1116)     32385.237 1  Rx        0459 -  8    72 C7 3D 9B FB 62 44 EB
  1117)     32385.621 1  Rx        0451 -  8    CE F5 BA 34 13 8A 20 35
  1118)     32385.962 1  Rx        0441 -  8    E1 15 3E 3F E5 71 25 0F
  1119)     32386.346 1  Rx    1AFB1C04 -  8    34 B1 54 44 E7 1F E1 B2
  1120)     32386.730 1  Rx    1AFB1C00 -  8    0F AE 0E 72 DB F2 25 47
  1121)     32387.029 1  Rx        0419 -  8    2A 5D 14 7F 47 17 0C 6D
  1122)     32488.318 1  Rx        0332 -  8    BD 0C 62 FE 64 7B 6D F8
  1123)     32488.872 1  Rx        011A -  5    7E 0C 81 49 0C
  1124)     32489.427 1  Rx        0331 -  8    44 9D 22 FB FA D5 BF 37
  1125)     32489.896 1  Rx        011B -  7    27 EA 74 19 8A 0B 15
  1126)     32490.408 1  Rx        006E -  7    53 B4 FB 38 42 EE B0
  1127)     32490.920 1  Rx        0106 -  7    DF A4 DC 76 D9 4B C9
  1128)     32491.304 1  Rx        0132 -  7    C6 25 D1 F7 BA 0D 38
  1129)     32491.731 1  Rx        0308 -  8    76 9F F1 21 4C C1 FE 34
  1130)     32491.902 1  Rx        0206 -  7    5C 9D B8 F4 03 D9 88
  1131)     32492.200 1  Rx        0212 -  7    14 B1 E1 FF BA 2D 2B
  1132)     32492.542 1  Rx        0222 -  8    C0 1D A4 F2 AF 26 39 A9
  1133)     32492.798 1  Rx        0459 -  8    72 45 3D 9B F7 62 A4 31
  1134)     32493.054 1  Rx        0451 -  8    CE ED 82 8F 13 5A 2F 35
  1135)     32493.395 1  Rx        0441 -  8    E1 15 48 3F E5 5E 25 0F
  1136)     32493.864 1  Rx    1AFB1C04 -  8    34 7F 73 72 E7 B8 E1 75
  1137)     32494.248 1  Rx    1AFB1C00 -  8    0F 3F 0E 72 A9 E0 25 55
  1138)     32494.461 1  Rx        0419 -  8    2A D7 14 7F 9A 17 EE 5E
  1139)     32595.793 1  Rx        0332 -  8    8B 6C 01 FE C6 7B 4A F8
  1140)     32596.305 1  Rx        011A -  5    7E 0C 81 49 0C
  1141)     32596.817 1  Rx        0331 -  8    44 9C 22 F9 E0 D5 BF B1
  1142)     32597.500 1  Rx        011B -  7    64 EA 74 19 8A 0B 15
  1143)     32597.969 1  Rx        006E -  7    53 B4 FB FA 42 EE B0
  1144)     32598.268 1  Rx        0106 -  7    DF A4 0A 76 E8 29 6D
  1145)     32598.524 1  Rx        0132 -  7    69 25 D1 F7 BA 0D 35
  1146)     32598.951 1  Rx        0308 -  8    98 E5 B6 86 4C C1 FE 34
  1147)     32599.207 1  Rx        0206 -  7    5C 50 A9 2B 03 D9 C5
  1148)     32599.505 1  Rx        0212 -  7    14 B1 51 FF BA 26 2B
  1149)     32599.804 1  Rx        0222 -  8    C0 1D 08 B4 AF 26 39 A9
  1150)     32600.103 1  Rx        0459 -  8    2D 60 3D 9B F7 62 DB CF
  1151)     32600.444 1  Rx        0451 -  8    CE 5E 82 0C 13 64 2F 35
  1152)     32601.041 1  Rx        0441 -  8    D0 4A 18 B7 E5 DF 09 0F
  1153)     32601.468 1  Rx    1AFB1C04 -  8    5D 7F CF 16 E7 F2 E1 6D
  1154)     32601.809 1  Rx    1AFB1C00 -  8    01 DA 0E 72 71 E0 25 ED
  1155)     32602.108 1  Rx        0419 -  8    2A 15 14 67 EA 17 EE 5A
  1156)     32644.155 1  Rx        033B -  8    85 5A 06 46 C2 C6 12 F9
  1157)     32644.709 1  Rx        0339 -  8    C4 04 52 74 11 97 3A 57
  1158)     32645.264 1  Rx        0337 -  7    A8 54 7D 1E 30 D8 DD
  1159)     32645.819 1  Rx        001F -  5    0E B4 C5 53 44
  1160)     32646.245 1  Rx        0333 -  4    B9 1F 72 C2
  1161)     32646.800 1  Rx        0335 -  8    E5 7B 70 7E A2 08 B7 0A
  1162)     32647.141 1  Rx        0121 -  4    96 A8 8F 3B
  1163)     32647.568 1  Rx        067F -  8    FE E4 01 0A 24 C0 58 1A
  1164)     32647.952 1  Rx        0681 -  8    5E DD 47 AA E5 8F 68 22
  1165)     32648.421 1  Rx        0309 -  8    26 CF 6D 8D 1A 32 B3 62
  1166)     32648.891 1  Rx        030A -  8    7F 82 39 39 14 CC 5B BA
  1167)     32649.232 1  Rx        0622 -  6    52 3A E1 8E D1 29
  1168)     32649.488 1  Rx        0413 -  6    FD 43 CC 19 6E 81
  1169)     32649.701 1  Rx        0402 -  3    38 15 85
  1170)     32650.000 1  Rx        0739 -  8    D3 20 45 20 91 DD 2F 94
  1171)     32650.256 1  Rx        0411 -  8    EE 52 4F 58 56 6B 74 E9
  1172)     32650.512 1  Rx        0729 -  8    62 31 81 02 B8 57 FB FC
  1173)     32650.853 1  Rx        0728 -  8    4E 9A 74 1B 5D E1 DD B6
  1174)     32651.195 1  Rx        0709 -  8    AA 75 FC 9F E5 47 DC 3F
  1175)     32651.493 1  Rx        0711 -  8    70 41 33 D9 87 06 C0 04
  1176)     32703.887 1  Rx        0332 -  8    70 D0 7F A7 19 3E 35 14
  1177)     32703.973 1  Rx        011A -  5    A2 C5 7D E8 DE
  1178)     32704.101 1  Rx        0331 -  8    9A 8C 48 2E 9D 20 1A FF
  1179)     32704.229 1  Rx        011B -  7    FF 6C 94 63 AC 48 A9
  1180)     32704.357 1  Rx        006E -  7    F4 96 E3 1E 73 37 8D
  1181)     32704.485 1  Rx        0106 -  7    62 59 CD 12 CC 48 2E
  1182)     32704.613 1  Rx        0132 -  7    D0 79 5B 6F E3 99 4E
  1183)     32704.741 1  Rx        0308 -  8    EB 8D EE A8 BD E6 C8 5B
  1184)     32704.869 1  Rx        0206 -  7    69 28 1D 9B 68 E1 B1
  1185)     32704.997 1  Rx        0212 -  7    F5 AD 33 F4 01 BC 8C
  1186)     32705.125 1  Rx        0222 -  8    C9 BE 90 00 03 2A 4D EA
  1187)     32705.253 1  Rx        0459 -  8    29 E5 E6 C1 4F D1 4C AF
  1188)     32705.381 1  Rx        0451 -  8    18 76 87 2A 04 A9 B9 0C
  1189)     32705.509 1  Rx        0441 -  8    F0 1F E4 AD DE FD BC 28
  1190)     32705.679 1  Rx    1AFB1C04 -  8    13 B0 89 13 C2 5C 9C E8
  1191)     32705.807 1  Rx    1AFB1C00 -  8    3E 48 D9 6A 05 59 05 D7
  1192)     32705.978 1  Rx        0419 -  8    06 67 4F 28 50 2C E0 06
  1193)     32806.115 1  Rx        0332 -  8    47 48 D2 A7 DC 3E 35 F5
  1194)     32806.712 1  Rx        011A -  5    52 B5 7D DD DE
  1195)     32807.352 1  Rx        0331 -  8    9A DB 48 2E B4 3A 66 8A
  1196)     32807.864 1  Rx        011B -  7    34 6C 94 37 1B 65 A9
  1197)     32808.376 1  Rx        006E -  7    F4 D3 04 1E 15 DC 8D
  1198)     32808.632 1  Rx        0106 -  7    62 59 CD 12 8A 48 F9
  1199)     32809.016 1  Rx        0132 -  7    D0 26 17 6A E3 09 4E
  1200)     32809.400 1  Rx        0308 -  8    EB 8D EE A8 BD D4 C8 C0
  1201)     32809.742 1  Rx        0206 -  7    62 45 60 DE E6 E1 45
  1202)     32809.998 1  Rx        0212 -  7    F5 42 B8 8B FF BC 8C
  1203)     32810.467 1  Rx        0222 -  8    59 75 AE 00 03 70 EF EA
  1204)     32810.894 1  Rx        0459 -  8    29 89 2F DD 4F AB 4C 53
  1205)     32811.278 1  Rx        0451 -  8    D7 76 87 2A 04 A9 5B 53
  1206)     32811.662 1  Rx        0441 -  8    F0 1F 58 18 42 A5 DF 28
  1207)     32811.960 1  Rx    1AFB1C04 -  8    20 B0 89 13 64 90 9C 30
  1208)     32812.259 1  Rx    1AFB1C00 -  8    3E 48 D2 6A 05 59 5F D7
  1209)     32812.600 1  Rx        0419 -  8    30 F6 CF 12 77 2C E0 56
  1210)     32910.860 1  Rx        033A -  8    CA A8 7B C2 81 8A B7 0F
  1211)     32911.543 1  Rx        0336 -  8    93 64 A2 10 56 60 AE 3E
  1212)     32912.183 1  Rx        0334 -  8    2A AA AA 0B F3 3E 6F F1
  1213)     32912.780 1  Rx        06DD -  8    CB 6B E9 14 0C F6 C4 F8
  1214)     32913.292 1  Rx        0799 -  8    4E 75 4D 88 1E 7B 97 4F
  1215)     32913.548 1  Rx        0332 -  8    47 48 D2 4D DC 3E 35 16
  1216)     32914.017 1  Rx        011A -  5    13 E1 EA 2E DE
  1217)     32914.572 1  Rx        0331 -  8    9A DB 48 9E 80 3A 66 8A
  1218)     32914.999 1  Rx        011B -  7    34 06 D8 37 1B 65 A9
  1219)     32915.383 1  Rx        006E -  7    F4 1F 04 1E 01 EB 8D
  1220)     32915.895 1  Rx        0106 -  7    62 59 CD 6A E6 3F F9
  1221)     32916.279 1  Rx        0132 -  7    D0 A9 17 C8 BF 09 4E
  1222)     32916.791 1  Rx        0308 -  8    EB FC EE 3D DF DB 0B F2
  1223)     32917.260 1  Rx        0206 -  7    62 45 60 DE E6 E1 59
  1224)     32917.857 1  Rx        0212 -  7    F5 13 7F 8B 78 BC 97
  1225)     32918.284 1  Rx        0222 -  8    59 75 C7 00 03 44 46 EA
  1226)     32918.924 1  Rx        0459 -  8    FF 89 2F 1C 49 1F 4C 53
  1227)     32919.393 1  Rx        0451 -  8    D7 96 42 2A C2 A9 5A 53
  1228)     32919.820 1  Rx        0441 -  8    F0 1F 58 68 45 A5 87 69
  1229)     32920.289 1  Rx    1AFB1C04 -  8    3C D1 F7 13 41 93 9C 30
  1230)     32920.716 1  Rx    1AFB1C00 -  8    3E 62 45 F6 05 1E 5F 1A
  1231)     32921.100 1  Rx        0419 -  8    0E F6 B2 12 67 2C E0 56
  1232)     33021.749 1  Rx        0332 -  8    47 71 D2 4D A1 3E C8 D1
  1233)     33022.261 1  Rx        011A -  5    13 E1 EA 3F DE
  1234)     33022.816 1  Rx        0331 -  8    61 DB C0 ED 80 3A 55 8A
  1235)     33023.200 1  Rx        011B -  7    30 72 D8 37 E7 65 A9
  1236)     33023.456 1  Rx        006E -  7    F4 24 EC FB 01 8E 49
  1237)     33023.712 1  Rx        0106 -  7    62 82 CD C0 B9 3F 39
  1238)     33023.968 1  Rx        0132 -  7    D0 A9 17 6F 7A C2 0A
  1239)     33024.224 1  Rx        0308 -  8    FF 43 EE 3D 9E DB B4 95
  1240)     33024.522 1  Rx        0206 -  7    64 45 93 31 E6 E1 E4
  1241)     33024.736 1  Rx        0212 -  7    F5 13 98 5A 78 BC 97
  1242)     33025.034 1  Rx        0222 -  8    59 D7 21 00 03 57 54 B2
  1243)     33025.333 1  Rx        0459 -  8    B7 89 EA 00 49 75 E1 4B
  1244)     33025.589 1  Rx        0451 -  8    D7 96 E7 2A 30 A9 2C 53
  1245)     33025.845 1  Rx        0441 -  8    B4 1F 58 68 9B 9D 87 F2
  1246)     33026.144 1  Rx    1AFB1C04 -  8    3C D1 28 13 41 72 AD 30
  1247)     33026.400 1  Rx    1AFB1C00 -  8    3E 70 45 98 05 1E 5F 56
  1248)     33026.698 1  Rx        0419 -  8    0E F6 B2 12 67 2C E0 16
  1249)     33127.774 1  Rx        0332 -  8    AA 12 CD 4D 48 2D C8 0B
  1250)     33128.329 1  Rx        011A -  5    13 3B 0D 3F 97
  1251)     33128.969 1  Rx        0331 -  8    61 C4 A0 37 33 3A 55 8A
  1252)     33129.438 1  Rx        011B -  7    31 72 93 37 EC 22 A9
  1253)     33129.907 1  Rx        006E -  7    DC 24 EC B3 02 55 D0
  1254)     33130.291 1  Rx        0106 -  7    C7 82 77 C0 B9 9E 39
  1255)     33130.675 1  Rx        0132 -  7    83 AC 63 5D 6E C2 0A
  1256)     33131.145 1  Rx        0308 -  8    FF 43 EE 3D 78 DB B4 82
  1257)     33131.443 1  Rx        0206 -  7    F9 70 93 31 D1 E1 E4
  1258)     33131.742 1  Rx        0212 -  7    F5 E4 B1 5A 53 AF 97
  1259)     33132.041 1  Rx        0222 -  8    59 4C FE 21 03 57 54 B2
  1260)     33132.339 1  Rx        0459 -  8    B7 1A EA 1E 49 AA 65 4B
  1261)     33132.723 1  Rx        0451 -  8    D7 9E E7 9A 30 A9 2C 53
  1262)     33133.193 1  Rx        0441 -  8    AB 1F 58 68 9B 07 87 F2
  1263)     33133.619 1  Rx    1AFB1C04 -  8    96 B5 65 EA 41 E9 AD 30
  1264)     33134.174 1  Rx    1AFB1C00 -  8    05 5D 45 45 9E B9 5F 8E
  1265)     33134.600 1  Rx        0419 -  8    61 24 B2 DE 93 2C E0 FC
  1266)     33235.676 1  Rx        0332 -  8    AA 12 CD 4D D7 2D C8 C9
  1267)     33236.188 1  Rx        011A -  5    13 D1 0D 9C 97
  1268)     33236.743 1  Rx        0331 -  8    1A C4 80 F0 DE 3A 4F 4B
  1269)     33237.298 1  Rx        011B -  7    31 02 9B 37 EC 22 4E
  1270)     33237.724 1  Rx        006E -  7    DC 24 EC B3 92 FC 50
  1271)     33238.066 1  Rx        0106 -  7    C7 D5 76 3A 2E 9E 39
  1272)     33238.407 1  Rx        0132 -  7    83 AC 63 5D 6E 2B AF
  1273)     33238.748 1  Rx        0308 -  8    FF 43 EE 3C A9 FB B4 82
  1274)     33239.090 1  Rx        0206 -  7    F9 A6 93 31 3F E1 E4
  1275)     33239.388 1  Rx        0212 -  7    31 A4 B1 90 53 A9 97
  1276)     33239.644 1  Rx        0222 -  8    59 AB FE 21 F6 57 7E A7
  1277)     33240.028 1  Rx        0459 -  8    1A 07 54 1E 49 AA 47 4B
  1278)     33240.540 1  Rx        0451 -  8    C4 16 EA 9A E2 4E 9B 2B
  1279)     33241.095 1  Rx        0441 -  8    AB 1F 58 3D 9B 44 87 D2
  1280)     33241.521 1  Rx    1AFB1C04 -  8    6C B5 35 FC 41 E3 AD 53
  1281)     33241.820 1  Rx    1AFB1C00 -  8    05 6A 45 45 D4 7B 5F 8E
  1282)     33242.161 1  Rx        0419 -  8    35 24 B2 D3 97 87 E0 FC
  1283)     33343.664 1  Rx        0332 -  8    A1 40 CD 98 D7 2D 61 3F
  1284)     33344.176 1  Rx        011A -  5    1C D1 0D 9C 97
  1285)     33344.773 1  Rx        0331 -  8    1A C4 80 EA DE D5 4F F6
  1286)     33345.285 1  Rx        011B -  7    56 02 45 37 8E 22 4E
  1287)     33345.755 1  Rx        006E -  7    FB 5A EC FF E2 FC 60
  1288)     33346.096 1  Rx        0106 -  7    C7 9D 76 3A 2E 56 0C
  1289)     33346.565 1  Rx        0132 -  7    83 C9 A1 CD 8E 14 93
  1290)     33346.992 1  Rx        0308 -  8    FF EF 28 C5 A9 FB B4 82
  1291)     33347.376 1  Rx        0206 -  7    F9 0C 41 C7 4E 35 FD
  1292)     33347.674 1  Rx        0212 -  7    31 4F 54 0F 53 A7 CD
  1293)     33347.973 1  Rx        0222 -  8    59 AB FE 21 B8 25 2F A7
  1294)     33348.272 1  Rx        0459 -  8    94 07 63 A4 49 4F 47 8C
  1295)     33348.613 1  Rx        0451 -  8    C4 0D FB 18 44 4E 9B 2B
  1296)     33348.954 1  Rx        0441 -  8    AB 75 58 D9 9B 44 B8 D2
  1297)     33349.338 1  Rx    1AFB1C04 -  8    6C B5 35 FC 72 5F AD 45
  1298)     33349.637 1  Rx    1AFB1C00 -  8    05 B6 B8 45 F4 EF 84 8E
  1299)     33349.893 1  Rx        0419 -  8    35 FB 80 D3 97 87 E0 F9
  1300)     33451.268 1  Rx        0332 -  8    CB FC CD 91 58 0C 42 3F
  1301)     33451.950 1  Rx        011A -  5    1C D1 E8 DF EB
  1302)     33452.548 1  Rx        0331 -  8    1A C4 5D EA DE D5 4F F6
  1303)     33453.017 1  Rx        011B -  7    56 81 5C 37 8E 22 4E
  1304)     33453.316 1  Rx        006E -  7    26 F1 87 14 8F FC 60
  1305)     33453.785 1  Rx        0106 -  7    C7 52 76 2C 6C 05 0C
  1306)     33454.339 1  Rx        0132 -  7    83 78 A1 1B 8E 14 93
  1307)     33455.022 1  Rx        0308 -  8    FF 3B A0 C5 EF AC A7 82
  1308)     33455.491 1  Rx        0206 -  7    F9 0C 41 C7 62 B5 FD
  1309)     33455.790 1  Rx        0212 -  7    CC D9 BA F4 53 7D CD
  1310)     33456.217 1  Rx        0222 -  8    7C 21 FE 0E B8 25 4F A6
  1311)     33456.601 1  Rx        0459 -  8    94 8C AD 3D 85 4F EF 8C
  1312)     33457.155 1  Rx        0451 -  8    C4 AD AF 41 44 C4 3C 2B
  1313)     33457.667 1  Rx        0441 -  8    AB 75 58 34 9B A3 DC B3
  1314)     33458.009 1  Rx    1AFB1C04 -  8    6C 4D AD 20 72 5F AD 99
  1315)     33458.649 1  Rx    1AFB1C00 -  8    05 89 86 45 F4 2D D0 8E
  1316)     33459.161 1  Rx        0419 -  8    37 FB D7 D3 97 24 1E F9
  1317)     33560.663 1  Rx        0332 -  8    CB FC CD FD 30 0C 42 6C
  1318)     33561.218 1  Rx        011A -  5    BB D1 2E 6B 52
  1319)     33561.772 1  Rx        0331 -  8    1A AA 5D 6C A2 15 4F F6
  1320)     33562.242 1  Rx        011B -  7    F5 F9 5C 48 8E 38 4E
  1321)     33562.626 1  Rx        006E -  7    71 F1 87 C3 8F FC 9B
  1322)     33562.924 1  Rx        0106 -  7    C7 52 76 2C 6C CD 04
  1323)     33563.138 1  Rx        0132 -  7    83 E1 F8 1B 97 14 6E
  1324)     33563.436 1  Rx        0308 -  8    FF 3B A0 C5 A7 AC 0A DD
  1325)     33563.650 1  Rx        0206 -  7    71 08 41 0C 62 F5 FD
  1326)     33563.948 1  Rx        0212 -  7    A4 A2 BA 6E 53 34 FE
  1327)     33564.204 1  Rx        0222 -  8    7C D7 FE 8E B8 25 82 01
  1328)     33564.546 1  Rx        0459 -  8    7E 0E B7 3D B4 E1 27 8C
  1329)     33564.759 1  Rx        0451 -  8    3B AD AF C0 44 C4 9F 2B
  1330)     33565.015 1  Rx        0441 -  8    AB 66 58 6E 9B 82 DC 1B
  1331)     33565.356 1  Rx    1AFB1C04 -  8    93 4D AD 5D 72 23 AD 5A
  1332)     33565.655 1  Rx    1AFB1C00 -  8    05 0A 80 45 F4 33 D0 8E
  1333)     33565.868 1  Rx        0419 -  8    74 FB 41 E2 97 95 F5 F9
  1334)     33652.367 1  Rx        033B -  8    85 5A F5 05 C2 93 12 DE
  1335)     33652.879 1  Rx        0339 -  8    5E 04 52 74 11 52 10 43
  1336)     33653.391 1  Rx        0337 -  7    33 54 59 A2 79 ED 3B
  1337)     33653.690 1  Rx        001F -  5    0E D0 C5 53 44
  1338)     33654.074 1  Rx        0333 -  4    B9 1F 72 69
  1339)     33654.458 1  Rx        0335 -  8    10 7B 89 7E A2 08 B7 E2
  1340)     33654.757 1  Rx        0121 -  4    0C 60 8F 3B
  1341)     33655.141 1  Rx        067F -  8    31 40 01 0A 2D C0 58 1A
  1342)     33655.525 1  Rx        0681 -  8    5E DD 03 AA E5 AB 88 22
  1343)     33655.781 1  Rx        0309 -  8    26 CF 66 39 5A A9 B3 47
  1344)     33656.122 1  Rx        030A -  8    7F 2A 39 11 82 90 5B 11
  1345)     33656.378 1  Rx        0622 -  6    52 3A 84 8E D1 29
  1346)     33656.634 1  Rx        0413 -  6    0D FA 66 40 A6 81
  1347)     33656.933 1  Rx        0402 -  3    4D E0 85
  1348)     33657.317 1  Rx        0739 -  8    D3 3D 45 67 91 DD B7 DA
  1349)     33657.658 1  Rx        0411 -  8    84 52 4F DA 5C 45 74 E9
  1350)     33658.127 1  Rx        0729 -  8    62 6D 81 66 0F 5E D7 FC
  1351)     33658.554 1  Rx        0728 -  8    4E 9A CC 75 5D E1 35 BB
  1352)     33658.981 1  Rx        0709 -  8    D0 4C A3 9F E5 47 C0 06
  1353)     33659.365 1  Rx        0711 -  8    B7 41 33 52 03 1E 2D F1
  1354)     33667.087 1  Rx        0332 -  8    CC FC 82 FD 30 53 42 6C
  1355)     33667.812 1  Rx        011A -  5    58 E0 2E 96 52
  1356)     33668.538 1  Rx        0331 -  8    0A 65 5D 7E F7 15 62 F6
  1357)     33669.348 1  Rx        011B -  7    7A F9 E1 0D 8E 38 6D
  1358)     33670.031 1  Rx        006E -  7    71 F1 87 CD 8F 8B 7D
  1359)     33670.756 1  Rx        0106 -  7    C7 52 76 B7 D4 96 04
  1360)     33671.396 1  Rx        0132 -  7    83 E1 45 1B 53 2E 6E
  1361)     33672.036 1  Rx        0308 -  8    C5 3B 76 C5 FC C2 D8 DF
  1362)     33672.634 1  Rx        0206 -  7    71 E8 75 0C 62 8F FD
  1363)     33672.975 1  Rx        0212 -  7    A4 90 C8 6E EE 6F FE
  1364)     33673.359 1  Rx        0222 -  8    7C A5 BB 8E B8 3F C8 01
  1365)     33673.700 1  Rx        0459 -  8    7E 96 B7 3D 6D E1 27 1A
  1366)     33674.170 1  Rx        0451 -  8    74 AD AF 52 44 C4 0D 2B
  1367)     33674.468 1  Rx        0441 -  8    A0 66 58 6E 9B 82 DC 75
  1368)     33674.724 1  Rx    1AFB1C04 -  8    49 4D AD 1C F0 CC 4E 7F
  1369)     33675.023 1  Rx    1AFB1C00 -  8    B0 0A 80 2E F4 94 31 8E
  1370)     33675.322 1  Rx        0419 -  8    74 86 CF 40 97 95 F5 E7
  1371)     33775.928 1  Rx        0332 -  8    94 3F 33 D4 13 82 52 AB
  1372)     33776.056 1  Rx        011A -  5    CE 10 D3 21 D6
  1373)     33776.184 1  Rx        0331 -  8    5B 95 2B B1 0B EF 9A 69
  1374)     33776.312 1  Rx        011B -  7    65 EE 15 36 28 8E 0C
  1375)     33776.440 1  Rx        006E -  7    C1 A2 05 41 68 F7 75
  1376)     33776.525 1  Rx        0106 -  7    1D 38 A6 A3 37 FE E4
  1377)     33776.653 1  Rx        0132 -  7    B5 E1 A9 EB 1D E4 2E
  1378)     33776.824 1  Rx        0308 -  8    48 27 75 00 06 73 24 33
  1379)     33776.909 1  Rx        0206 -  7    C4 3B 40 56 0E FE D1
  1380)     33777.037 1  Rx        0212 -  7    6B 1F B1 97 50 2A F7
  1381)     33777.208 1  Rx        0222 -  8    A1 F4 7F 02 EA 0C 0E A1
  1382)     33777.336 1  Rx        0459 -  8    83 19 4D 49 88 7B 7B 20
  1383)     33777.464 1  Rx        0451 -  8    D0 05 53 47 0B 7C 4D 3A
  1384)     33777.592 1  Rx        0441 -  8    CF 8B 3B B8 C8 34 A1 EB
  1385)     33777.720 1  Rx    1AFB1C04 -  8    53 05 00 D9 4D 6B 4E A6
  1386)     33777.891 1  Rx    1AFB1C00 -  8    45 7C 37 E8 66 FF 8D 15
  1387)     33778.019 1  Rx        0419 -  8    EC 56 66 A0 8F BA A4 70
  1388)     33877.729 1  Rx        0332 -  8    94 AE 82 C3 70 82 52 CF
  1389)     33878.284 1  Rx        011A -  5    7C 10 2D 21 D6
  1390)     33878.967 1  Rx        0331 -  8    74 95 E3 B1 3E 14 C3 B4
  1391)     33879.607 1  Rx        011B -  7    65 0B FA 08 28 8E 0C
  1392)     33880.076 1  Rx        006E -  7    C1 A2 09 7C E8 F7 61
  1393)     33880.460 1  Rx        0106 -  7    1D 38 A6 A3 37 F6 73
  1394)     33880.886 1  Rx        0132 -  7    20 E1 A9 EB 32 E4 2E
  1395)     33881.398 1  Rx        0308 -  8    48 15 75 D1 64 73 24 97
  1396)     33881.782 1  Rx        0206 -  7    C4 3B 2B 56 79 AF D1
  1397)     33882.038 1  Rx        0212 -  7    D0 EE B1 97 50 A9 35
  1398)     33882.337 1  Rx        0222 -  8    59 C1 7F DC E8 CD 1A A1
  1399)     33882.636 1  Rx        0459 -  8    65 19 4D 0D 88 EE B4 03
  1400)     33882.892 1  Rx        0451 -  8    7D 05 39 47 ED E2 4D 3A
  1401)     33883.190 1  Rx        0441 -  8    CF 2D 3F 62 3B 34 A1 EB
  1402)     33883.489 1  Rx    1AFB1C04 -  8    53 BB 08 D9 4D 6B 90 A6
  1403)     33883.873 1  Rx    1AFB1C00 -  8    11 C1 45 E8 BC C4 98 53
  1404)     33884.172 1  Rx        0419 -  8    EC B8 E3 43 68 6A 58 65
  1405)     33985.760 1  Rx        0332 -  8    3C 59 F4 A2 70 5E 21 49
  1406)     33986.314 1  Rx        011A -  5    7C B4 2D F3 D6
  1407)     33986.954 1  Rx        0331 -  8    AF 3A E3 1F BA 14 C3 B4
  1408)     33987.423 1  Rx        011B -  7    65 0B 4A 9A 28 8E 0C
  1409)     33987.935 1  Rx        006E -  7    96 A2 5D 68 E8 DA F0
  1410)     33988.319 1  Rx        0106 -  7    06 38 A6 A3 1C 67 73
  1411)     33988.746 1  Rx        0132 -  7    FE E1 BA EB 32 D0 2B
  1412)     33989.215 1  Rx        0308 -  8    5B 15 91 2D 64 73 24 97
  1413)     33989.471 1  Rx        0206 -  7    C4 3B 71 75 79 AF EA
