;$FILEVERSION=1.3
;$STARTTIME=45250.4938171244139
;
;   Start time: 20/11/2023 11:51:05.799.5
;   Generated by PCAN-Explorer v6.6.1.2744
;-------------------------------------------------------------------------------
;   Bus  Connection   Net Connection    Protocol  Bit rate
;   1    Connection1  CAN_USB@pcan_usb  CAN       1 Mbit/s
;-------------------------------------------------------------------------------
;   Message   Time    Bus  Type   ID    Reserved
;   Number    Offset  |    |      [hex] |   Data Length Code
;   |         [ms]    |    |      |     |   |    Data [hex] ...
;   |         |       |    |      |     |   |    |
;---+-- ------+------ +- --+-- ---+---- +- -+-- -+ -- -- -- -- -- -- --
     1)      5176.401 1  Rx        0332 -  8    73 6F 62 00 92 54 CB 50
     2)      5176.487 1  Rx        011A -  5    A7 CB A6 83 1A
     3)      5176.615 1  Rx        0331 -  8    D1 20 96 01 08 7C BD AC
     4)      5176.743 1  Rx        011B -  7    0E 8B 1B D1 E3 D5 15
     5)      5176.871 1  Rx        006E -  7    67 F2 8C E1 34 36 EC
     6)      5176.999 1  Rx        0106 -  7    43 B3 42 EE 4F 16 EE
     7)      5177.127 1  Rx        0132 -  7    D7 C4 D9 9B 90 7A 1B
     8)      5177.255 1  Rx        0308 -  8    0F 14 C3 14 71 63 07 27
     9)      5177.383 1  Rx        0206 -  7    90 3D 97 57 A1 98 C3
    10)      5177.511 1  Rx        0212 -  7    A5 FD 10 CF 05 E7 D0
    11)      5177.639 1  Rx        0222 -  8    A9 F4 38 C9 38 E2 6D 59
    12)      5177.767 1  Rx        0459 -  8    2A 83 A5 5C 41 29 90 0E
    13)      5177.895 1  Rx        0451 -  8    79 FA 97 74 74 9A CF B5
    14)      5178.023 1  Rx        0441 -  8    67 45 7E 50 DE 79 8C 68
    15)      5178.193 1  Rx    1AFB1C04 -  8    30 A4 A0 B6 7C F3 3E 6B
    16)      5178.321 1  Rx    1AFB1C00 -  8    7D C3 15 2C 3F 9B 48 53
    17)      5178.492 1  Rx        0419 -  8    DE 8D 80 CD AC AA 93 14
    18)      5378.638 1  Rx        0332 -  8    73 B3 62 00 92 59 CB 50
    19)      5379.193 1  Rx        011A -  5    A7 C4 A6 11 60
    20)      5380.046 1  Rx        0331 -  8    98 46 E6 50 D6 14 58 AC
    21)      5380.729 1  Rx        011B -  7    0E 8B 5D D1 53 D5 62
    22)      5381.454 1  Rx        006E -  7    12 4E 6A CB 34 34 2F
    23)      5382.009 1  Rx        0106 -  7    43 45 FF EE 4F 0D 0C
    24)      5382.521 1  Rx        0132 -  7    D7 C4 56 9B 7D 7A 92
    25)      5383.118 1  Rx        0308 -  8    0F 95 89 14 45 63 48 48
    26)      5383.545 1  Rx        0206 -  7    B8 30 09 9B A1 98 C3
    27)      5384.014 1  Rx        0212 -  7    A5 FD 10 0D 78 BF A8
    28)      5384.526 1  Rx        0222 -  8    A9 F4 01 C9 38 77 6D 52
    29)      5385.124 1  Rx        0459 -  8    EB E3 A5 86 BA AC B3 0E
    30)      5385.806 1  Rx        0451 -  8    3B FA 97 BE AE C0 09 A6
    31)      5386.617 1  Rx        0441 -  8    E5 45 7E DE C1 B3 8C 43
    32)      5387.214 1  Rx    1AFB1C04 -  8    68 41 A0 B6 79 60 A0 6B
    33)      5387.769 1  Rx    1AFB1C00 -  8    F0 AA 15 67 3F 83 48 53
    34)      5388.195 1  Rx        0419 -  8    DE D6 80 F7 AC AA 5F 14
    35)      5477.367 1  Rx        033B -  8    26 C0 59 B2 35 7E BF B1
    36)      5477.538 1  Rx        0339 -  8    50 41 DC 1D 0D 21 6F F3
    37)      5477.623 1  Rx        0337 -  7    89 03 E9 CC 4A 44 D5
    38)      5477.751 1  Rx        001F -  5    93 56 62 F3 93
    39)      5477.837 1  Rx        0333 -  4    1E E8 24 7A
    40)      5477.965 1  Rx        0335 -  8    65 62 99 D4 95 A5 77 52
    41)      5478.093 1  Rx        0121 -  4    1A 8E 9A 9D
    42)      5478.221 1  Rx        067F -  8    89 9D 68 4A 82 FA 95 8E
    43)      5478.349 1  Rx        0681 -  8    84 56 B8 58 3E 34 4A ED
    44)      5478.477 1  Rx        0309 -  8    58 38 0A D8 55 47 75 68
    45)      5478.605 1  Rx        030A -  8    A0 ED 10 E1 CF 2C 67 94
    46)      5478.733 1  Rx        0622 -  6    D3 B7 74 9B 1E AB
    47)      5478.818 1  Rx        0413 -  6    6C 7D B9 7B 48 34
    48)      5478.903 1  Rx        0402 -  3    D7 2A 04
    49)      5479.074 1  Rx        0739 -  8    5F 71 EE FE 62 25 FE 16
    50)      5479.202 1  Rx        0411 -  8    C2 E5 4E 45 C5 EC B1 7E
    51)      5479.330 1  Rx        0729 -  8    4F 08 CA 76 57 CD 53 63
    52)      5479.458 1  Rx        0728 -  8    E1 27 D5 76 D7 A1 3E 1C
    53)      5479.586 1  Rx        0709 -  8    4F 12 B4 A1 D0 AE 45 73
    54)      5479.714 1  Rx        0711 -  8    55 43 25 E0 85 A7 EB 13
    55)      5589.451 1  Rx        0332 -  8    73 35 62 00 92 44 CB B2
    56)      5590.006 1  Rx        011A -  5    A7 C4 A6 11 DC
    57)      5590.646 1  Rx        0331 -  8    98 46 E6 8A 8F C7 17 AC
    58)      5591.200 1  Rx        011B -  7    0E 8B 5D D1 1F D5 62
    59)      5591.712 1  Rx        006E -  7    54 4E B7 87 34 E4 2F
    60)      5592.267 1  Rx        0106 -  7    3E 08 E6 EE 83 B9 0C
    61)      5592.694 1  Rx        0132 -  7    64 E2 56 67 7D 7A 92
    62)      5593.206 1  Rx        0308 -  8    0F 44 26 32 45 39 7C DF
    63)      5593.675 1  Rx        0206 -  7    AF 30 95 0B D8 6C B3
    64)      5594.102 1  Rx        0212 -  7    A5 FD 39 85 78 B8 A1
    65)      5594.614 1  Rx        0222 -  8    A9 F4 01 BF 2B 77 1E 66
    66)      5595.040 1  Rx        0459 -  8    99 E3 A5 B9 BA D7 EC 53
    67)      5595.510 1  Rx        0451 -  8    08 52 97 DE AE C0 09 D5
    68)      5595.894 1  Rx        0441 -  8    E5 45 CA DE 3E B3 8C 43
    69)      5596.278 1  Rx    1AFB1C04 -  8    AD 5C 57 B6 79 10 A0 6B
    70)      5596.576 1  Rx    1AFB1C00 -  8    F2 AA 15 67 3F 83 48 53
    71)      5596.875 1  Rx        0419 -  8    DE D1 80 75 B7 AA 5F 60
    72)      5779.556 1  Rx        033A -  8    48 FA 7A FC 52 03 6F 67
    73)      5779.684 1  Rx        0336 -  8    E6 20 6F D0 7F 8E 1B 44
    74)      5779.812 1  Rx        0334 -  8    1C 6B AD 70 F2 7D 73 58
    75)      5779.940 1  Rx        06DD -  8    C7 E5 5A CA 27 21 3F 53
    76)      5780.111 1  Rx        0799 -  8    FF CB 26 7C D6 98 8F 75
    77)      5798.414 1  Rx        0332 -  8    8F 6D B5 A5 92 44 CB B2
    78)      5799.012 1  Rx        011A -  5    A7 80 A6 11 E0
    79)      5799.652 1  Rx        0331 -  8    98 A9 E6 8A DA C7 17 22
    80)      5800.334 1  Rx        011B -  7    0E 8B 5D FB 32 87 EA
    81)      5801.060 1  Rx        006E -  7    07 DE 7F ED 34 E4 39
    82)      5801.828 1  Rx        0106 -  7    3E 54 E6 77 73 10 3E
    83)      5802.382 1  Rx        0132 -  7    64 CE 56 EC A3 D3 CA
    84)      5802.980 1  Rx        0308 -  8    24 8A 26 32 45 9A 7C 09
    85)      5803.534 1  Rx        0206 -  7    AF 30 95 0B 5B 45 73
    86)      5804.046 1  Rx        0212 -  7    A5 FD AD EE E1 02 20
    87)      5804.686 1  Rx        0222 -  8    A9 D9 98 56 B3 31 1E 66
    88)      5805.198 1  Rx        0459 -  8    99 E3 37 B9 44 8F EC 53
    89)      5805.710 1  Rx        0451 -  8    1D E8 0F DE AE 7A 9D 25
    90)      5806.222 1  Rx        0441 -  8    3C 45 72 DE 3E 84 4F 43
    91)      5806.734 1  Rx    1AFB1C04 -  8    6F 5C 71 9B EC 10 4C 4F
    92)      5807.289 1  Rx    1AFB1C00 -  8    2F AA 15 D9 3F 83 48 F0
    93)      5807.758 1  Rx        0419 -  8    5A CF 80 5A 17 0D C0 F9
    94)      6009.099 1  Rx        0332 -  8    8F 6D 41 78 CE 75 CB E3
    95)      6009.696 1  Rx        011A -  5    C6 51 A6 5F E2
    96)      6010.251 1  Rx        0331 -  8    98 62 14 5B DA C7 17 77
    97)      6010.806 1  Rx        011B -  7    0E E7 5D FB 32 B5 EA
    98)      6011.275 1  Rx        006E -  7    07 DE E9 4F 34 E4 39
    99)      6011.616 1  Rx        0106 -  7    3E 54 48 77 73 5D 3E
   100)      6012.086 1  Rx        0132 -  7    95 4F 2B F5 3D D3 97
   101)      6012.427 1  Rx        0308 -  8    93 8A E1 E7 45 9A 7C 6A
   102)      6012.683 1  Rx        0206 -  7    AF 30 95 54 16 45 73
   103)      6013.110 1  Rx        0212 -  7    A5 FD AD EE E1 02 3A
   104)      6013.494 1  Rx        0222 -  8    CB D9 98 56 27 25 1E 66
   105)      6013.750 1  Rx        0459 -  8    99 F7 37 C8 44 8F EC 99
   106)      6014.091 1  Rx        0451 -  8    1D E8 46 DE AE 41 19 25
   107)      6014.432 1  Rx        0441 -  8    3C 45 52 B4 3E 84 4F CE
   108)      6014.731 1  Rx    1AFB1C04 -  8    6F 5C C0 FD DF 10 8C D8
   109)      6015.030 1  Rx    1AFB1C00 -  8    2F AA 15 D9 9D CE 48 F0
   110)      6015.371 1  Rx        0419 -  8    4F CF F3 5A 17 35 C0 F9
   111)      6216.627 1  Rx        0332 -  8    A6 E2 DB 78 CE 75 CB E3
   112)      6217.139 1  Rx        011A -  5    64 51 A6 33 E2
   113)      6217.693 1  Rx        0331 -  8    CB C2 14 0C DA C7 17 77
   114)      6218.291 1  Rx        011B -  7    3C E7 5D FB 10 B0 EA
   115)      6218.675 1  Rx        006E -  7    07 D5 E9 4F 34 E4 39
   116)      6219.144 1  Rx        0106 -  7    07 54 48 77 D1 6A CA
   117)      6219.485 1  Rx        0132 -  7    95 4F AB F5 3C 91 97
   118)      6219.912 1  Rx        0308 -  8    93 8A E1 55 C2 9A 7C 6A
   119)      6220.253 1  Rx        0206 -  7    AF E5 95 62 16 92 A0
   120)      6220.594 1  Rx        0212 -  7    A5 28 D3 EE 05 39 EC
   121)      6220.936 1  Rx        0222 -  8    CB DA 98 56 27 CB 1E 66
   122)      6221.405 1  Rx        0459 -  8    AF 22 37 C8 44 AE 38 99
   123)      6221.789 1  Rx        0451 -  8    9F E8 46 C2 AE 41 19 5B
   124)      6222.173 1  Rx        0441 -  8    8C 98 52 D5 3E 84 4F CE
   125)      6222.557 1  Rx    1AFB1C04 -  8    6F E0 C0 BF 5E 19 8C 2E
   126)      6222.941 1  Rx    1AFB1C00 -  8    ED AA 15 D9 9D C0 6E 9D
   127)      6223.282 1  Rx        0419 -  8    32 FF F3 32 CE 35 38 F9
   128)      6424.879 1  Rx        0332 -  8    7A 90 9A 78 CE 75 12 7A
   129)      6425.477 1  Rx        011A -  5    C9 F2 83 33 E2
   130)      6425.946 1  Rx        0331 -  8    CB 83 14 38 DA C7 CF 77
   131)      6426.458 1  Rx        011B -  7    2A CB 19 FB 7A B0 EA
   132)      6426.885 1  Rx        006E -  7    07 D5 50 49 FC 88 39
   133)      6427.269 1  Rx        0106 -  7    07 E9 48 77 A6 3F CA
   134)      6427.567 1  Rx        0132 -  7    95 4F 3C F5 51 91 97
   135)      6427.909 1  Rx        0308 -  8    EE 6A 0A 55 C2 08 7B AD
   136)      6428.207 1  Rx        0206 -  7    AF 95 07 62 B9 E7 BD
   137)      6428.421 1  Rx        0212 -  7    B8 28 A2 EE 05 43 EC
   138)      6428.762 1  Rx        0222 -  8    B2 DA 98 4B E0 CB FF 66
   139)      6429.018 1  Rx        0459 -  8    AF D0 0B C8 86 AE 38 99
   140)      6429.317 1  Rx        0451 -  8    49 E8 B4 08 AE 41 19 5B
   141)      6429.615 1  Rx        0441 -  8    8C 98 72 B6 85 17 5E CE
   142)      6429.914 1  Rx    1AFB1C04 -  8    7A DD E3 BF 5E 22 8C 2E
   143)      6430.213 1  Rx    1AFB1C00 -  8    DA AA 15 D9 96 9D 6E 9D
   144)      6430.469 1  Rx        0419 -  8    32 F8 36 02 CE CD D7 F9
   145)      6479.876 1  Rx        033B -  8    40 C0 59 E4 35 FF 44 B1
   146)      6480.388 1  Rx        0339 -  8    50 41 FD 1D 0D A8 6F 8E
   147)      6480.900 1  Rx        0337 -  7    89 03 AF CC 4A 44 0C
   148)      6481.198 1  Rx        001F -  5    78 D1 48 F3 93
   149)      6481.497 1  Rx        0333 -  4    1E E8 24 7A
   150)      6481.881 1  Rx        0335 -  8    E8 62 FF 30 95 35 42 52
   151)      6482.222 1  Rx        0121 -  4    97 08 0A 9D
   152)      6482.564 1  Rx        067F -  8    B2 D0 95 8E 31 11 DD 8E
   153)      6482.905 1  Rx        0681 -  8    CE A8 B8 58 EA 86 3D ED
   154)      6483.246 1  Rx        0309 -  8    58 38 73 B5 55 65 4D 68
   155)      6483.588 1  Rx        030A -  8    90 A8 CA BC 1D 05 B1 94
   156)      6483.886 1  Rx        0622 -  6    3E 1F 74 2B 6E 4C
   157)      6484.142 1  Rx        0413 -  6    3B 7D B9 E4 48 34
   158)      6484.356 1  Rx        0402 -  3    D7 2A 89
   159)      6484.654 1  Rx        0739 -  8    5F 71 5D 83 62 25 FE 16
   160)      6484.910 1  Rx        0411 -  8    B4 89 76 21 C5 49 B1 7E
   161)      6485.209 1  Rx        0729 -  8    F2 08 CA 76 57 8D 53 6A
   162)      6485.550 1  Rx        0728 -  8    64 27 D5 76 D7 A6 3E 1C
   163)      6485.892 1  Rx        0709 -  8    58 5C B4 11 D0 AE 45 39
   164)      6486.318 1  Rx        0711 -  8    C1 90 25 3F 08 3A EB D4
   165)      6631.383 1  Rx        0332 -  8    7A 84 C2 78 24 41 12 95
   166)      6631.980 1  Rx        011A -  5    8C F2 7C 55 50
   167)      6632.620 1  Rx        0331 -  8    CB 83 14 38 73 FC 33 5F
   168)      6633.132 1  Rx        011B -  7    86 CB 19 F5 4F 42 EA
   169)      6633.516 1  Rx        006E -  7    50 D5 50 39 13 88 14
   170)      6633.943 1  Rx        0106 -  7    D2 E9 48 E1 EE 3F 13
   171)      6634.327 1  Rx        0132 -  7    76 4F C6 A8 51 9C D0
   172)      6634.711 1  Rx        0308 -  8    ED 85 0A 47 C2 08 7B 1A
   173)      6635.095 1  Rx        0206 -  7    94 95 39 E5 B9 E0 BD
   174)      6635.351 1  Rx        0212 -  7    B8 28 A2 EE 05 43 EC
   175)      6635.735 1  Rx        0222 -  8    B2 DA EB 4B CE CB FF 66
   176)      6636.161 1  Rx        0459 -  8    C9 0E 0B 2F CE 75 38 DB
   177)      6636.716 1  Rx        0451 -  8    49 E8 C7 08 A4 09 49 5B
   178)      6637.057 1  Rx        0441 -  8    8C 05 72 B0 85 17 ED CE
   179)      6637.356 1  Rx    1AFB1C04 -  8    81 DD E3 71 5E 74 8C ED
   180)      6637.655 1  Rx    1AFB1C00 -  8    E8 F3 15 56 E3 1C 6E 6C
   181)      6637.868 1  Rx        0419 -  8    32 CA 36 41 CE F0 C4 F9
   182)      6839.409 1  Rx        0332 -  8    7A 84 D5 78 DB 41 12 74
   183)      6839.921 1  Rx        011A -  5    71 F2 7C 55 38
   184)      6840.561 1  Rx        0331 -  8    A4 6D A6 38 07 FF 33 F7
   185)      6841.031 1  Rx        011B -  7    86 CB 24 B4 1F 42 EA
   186)      6841.457 1  Rx        006E -  7    50 D5 FE 60 A9 A6 E5
   187)      6841.799 1  Rx        0106 -  7    D2 2D F8 E1 9F 53 13
   188)      6842.097 1  Rx        0132 -  7    CF AF 68 A8 51 9C D0
   189)      6842.439 1  Rx        0308 -  8    ED 85 69 47 6D 0A CB FA
   190)      6842.780 1  Rx        0206 -  7    94 95 39 63 93 12 6E
   191)      6843.036 1  Rx        0212 -  7    41 28 C8 79 37 43 69
   192)      6843.292 1  Rx        0222 -  8    B2 DA 62 89 87 47 18 CA
   193)      6843.591 1  Rx        0459 -  8    FA 0E 5B 2F CE F8 38 F5
   194)      6843.847 1  Rx        0451 -  8    49 8D C7 FA 18 09 49 5A
   195)      6844.145 1  Rx        0441 -  8    8C 05 72 8F 85 19 E0 04
   196)      6844.444 1  Rx    1AFB1C04 -  8    81 1B E3 71 2D 74 B5 ED
   197)      6844.700 1  Rx    1AFB1C00 -  8    E8 F3 15 56 9A 1C 6E 6C
   198)      6844.913 1  Rx        0419 -  8    32 CA D6 C0 CE F0 6C 8F
   199)      7046.297 1  Rx        0332 -  8    69 84 CF 78 DB A8 12 74
   200)      7046.809 1  Rx        011A -  5    74 F2 21 55 38
   201)      7047.406 1  Rx        0331 -  8    96 84 A6 56 8C 08 5B 2A
   202)      7048.132 1  Rx        011B -  7    97 CB 24 B4 1F 56 EA
   203)      7048.601 1  Rx        006E -  7    50 D5 FE 7D A9 A6 EA
   204)      7049.070 1  Rx        0106 -  7    57 7D 0B E1 F5 53 3C
   205)      7049.582 1  Rx        0132 -  7    CF 22 68 FF 4B 9C D0
   206)      7050.009 1  Rx        0308 -  8    66 50 DC DB 6D CD CB F3
   207)      7050.350 1  Rx        0206 -  7    94 95 38 CB 93 12 63
   208)      7050.692 1  Rx        0212 -  7    71 85 C8 79 37 88 69
   209)      7051.033 1  Rx        0222 -  8    B2 DA 26 89 87 47 18 97
   210)      7051.289 1  Rx        0459 -  8    C1 18 5B 2F CE CF 01 E1
   211)      7051.673 1  Rx        0451 -  8    49 8D C7 FA D2 D9 54 06
   212)      7051.971 1  Rx        0441 -  8    F3 F5 72 E0 94 98 E0 04
   213)      7052.355 1  Rx    1AFB1C04 -  8    76 EC E3 71 DB 74 B5 ED
   214)      7052.654 1  Rx    1AFB1C00 -  8    E8 11 D6 D3 9A 1C 6E 0D
   215)      7052.953 1  Rx        0419 -  8    32 CA D6 55 02 51 2C B4
   216)      7253.526 1  Rx        0332 -  8    8C 06 1B 05 DE 6B 15 31
   217)      7253.611 1  Rx        011A -  5    DD 7D 61 0B 0B
   218)      7253.739 1  Rx        0331 -  8    37 A4 1C 3C AE 9D A9 4C
   219)      7253.867 1  Rx        011B -  7    F9 90 49 1A 70 F2 51
   220)      7253.995 1  Rx        006E -  7    F3 3F 41 A2 E4 C0 79
   221)      7254.123 1  Rx        0106 -  7    7F 40 04 F4 86 6C 33
   222)      7254.251 1  Rx        0132 -  7    D9 1A 15 65 3F 61 F5
   223)      7254.379 1  Rx        0308 -  8    E1 DA 9B D5 0E FE 34 39
   224)      7254.507 1  Rx        0206 -  7    D6 41 0E 62 F8 62 27
   225)      7254.635 1  Rx        0212 -  7    45 85 FC B6 1C 45 36
   226)      7254.763 1  Rx        0222 -  8    C2 57 ED 6C 73 03 12 07
   227)      7254.891 1  Rx        0459 -  8    6E 27 82 7E 33 76 4D 92
   228)      7255.019 1  Rx        0451 -  8    CE 40 FB E1 F8 0D 15 BC
   229)      7255.147 1  Rx        0441 -  8    F7 7D 97 57 9E 55 66 7A
   230)      7255.318 1  Rx    1AFB1C04 -  8    50 C4 49 FD C2 58 FC 5B
   231)      7255.446 1  Rx    1AFB1C00 -  8    41 75 A7 95 46 73 BF 97
   232)      7255.616 1  Rx        0419 -  8    18 FB F9 CD 8B 64 10 A0
   233)      7456.147 1  Rx        0332 -  8    8C 16 1B 05 DE 6B 15 31
   234)      7456.744 1  Rx        011A -  5    DD 7D 61 1D 4D
   235)      7457.341 1  Rx        0331 -  8    1F DF 1C 3C A2 D1 A9 4C
   236)      7457.981 1  Rx        011B -  7    F9 F3 49 E5 42 F2 B8
   237)      7458.408 1  Rx        006E -  7    F3 D9 4B 21 E4 C0 79
   238)      7458.920 1  Rx        0106 -  7    7F 40 93 45 EF 6C CF
   239)      7459.560 1  Rx        0132 -  7    D9 73 15 65 DC C1 CF
   240)      7460.029 1  Rx        0308 -  8    E1 DA 9B 33 0E C7 9F 1F
   241)      7460.456 1  Rx        0206 -  7    14 68 4F 63 AC 62 27
   242)      7460.754 1  Rx        0212 -  7    39 85 FC DA 1C D0 36
   243)      7461.138 1  Rx        0222 -  8    C2 86 36 6C 73 09 6B 07
   244)      7461.608 1  Rx        0459 -  8    6E 0C 7F F9 33 76 1D 92
   245)      7462.034 1  Rx        0451 -  8    CE 40 27 9F CA B4 5D FE
   246)      7462.376 1  Rx        0441 -  8    F6 7D 97 6D 9A 55 66 7A
   247)      7462.717 1  Rx    1AFB1C04 -  8    C0 2A 49 1C C2 48 53 89
   248)      7463.186 1  Rx    1AFB1C00 -  8    41 F3 D6 80 58 EB D2 1F
   249)      7463.442 1  Rx        0419 -  8    18 FB 23 01 8B 64 9A 13
   250)      7487.634 1  Rx        033B -  8    C9 6B 53 E4 B2 FD 44 74
   251)      7488.445 1  Rx        0339 -  8    50 41 FD 58 57 17 6F 8E
   252)      7489.042 1  Rx        0337 -  7    E3 BA AF CC 4A 70 E6
   253)      7489.597 1  Rx        001F -  5    78 12 16 F3 93
   254)      7490.023 1  Rx        0333 -  4    16 EE 24 BE
   255)      7490.535 1  Rx        0335 -  8    A0 62 FF FB 95 35 F6 B2
   256)      7490.877 1  Rx        0121 -  4    5A 08 EA 9D
   257)      7491.474 1  Rx        067F -  8    B2 D0 95 01 E4 49 DD 57
   258)      7491.901 1  Rx        0681 -  8    CE F4 7A 55 18 86 E0 ED
   259)      7492.285 1  Rx        0309 -  8    53 38 34 B5 78 9E 4D 68
   260)      7492.669 1  Rx        030A -  8    90 B1 5C BC 66 4E 07 94
   261)      7492.925 1  Rx        0622 -  6    5C 54 79 2B F5 E0
   262)      7493.351 1  Rx        0413 -  6    3B 7D 06 30 14 97
   263)      7493.607 1  Rx        0402 -  3    D7 2A 89
   264)      7493.949 1  Rx        0739 -  8    B6 18 5D 83 62 25 FE DF
   265)      7494.247 1  Rx        0411 -  8    B4 C8 76 21 5F FB B1 7E
   266)      7494.631 1  Rx        0729 -  8    F2 9B CA 58 2E 8D 53 6A
   267)      7494.973 1  Rx        0728 -  8    64 97 D5 76 A7 5D 59 1C
   268)      7495.229 1  Rx        0709 -  8    58 7D 3A 11 D0 AE 9E 39
   269)      7495.527 1  Rx        0711 -  8    D7 90 25 3F 08 3A EB 7F
   270)      7665.027 1  Rx        0332 -  8    AE 16 35 FD B0 DC 49 31
   271)      7665.581 1  Rx        011A -  5    DD D9 61 1D 4D
   272)      7666.264 1  Rx        0331 -  8    1F DF E6 41 A2 4D 64 4C
   273)      7666.776 1  Rx        011B -  7    F9 AA 0D B6 42 F2 9A
   274)      7667.331 1  Rx        006E -  7    F3 D9 4B 88 7B C9 79
   275)      7667.715 1  Rx        0106 -  7    E2 4E D3 45 EF 4F EC
   276)      7668.099 1  Rx        0132 -  7    4F 73 15 92 C6 37 C1
   277)      7668.525 1  Rx        0308 -  8    E1 DA 01 DB 92 3F 9D 1F
   278)      7668.909 1  Rx        0206 -  7    CE 0C F9 63 AC 30 27
   279)      7669.336 1  Rx        0212 -  7    AE 85 FC 14 B1 D0 BB
   280)      7669.677 1  Rx        0222 -  8    C2 0F 36 DE 73 A2 6B 5A
   281)      7669.976 1  Rx        0459 -  8    6E 0C 95 F9 51 76 CE 0B
   282)      7670.360 1  Rx        0451 -  8    C1 34 5F 9F CA 54 78 FF
   283)      7670.786 1  Rx        0441 -  8    FC BE 2B 11 9A 55 DF 7A
   284)      7671.085 1  Rx    1AFB1C04 -  8    38 2A E9 1C C2 48 F4 89
   285)      7671.469 1  Rx    1AFB1C00 -  8    16 58 D6 80 58 61 9C 1F
   286)      7671.682 1  Rx        0419 -  8    BA FB 23 01 8B 5A EC 13
   287)      7781.035 1  Rx        033A -  8    BC 96 9B 80 38 4D D9 67
   288)      7781.633 1  Rx        0336 -  8    E6 14 0D 3E 62 8E 91 D9
   289)      7782.230 1  Rx        0334 -  8    1C C1 AD 70 9E C0 73 63
   290)      7782.699 1  Rx        06DD -  8    87 78 5A CA 84 DC 29 C6
   291)      7783.083 1  Rx        0799 -  8    09 9A B6 F3 79 51 3D 75
   292)      7872.554 1  Rx        0332 -  8    9D 16 A5 FD 79 AA 54 31
   293)      7873.151 1  Rx        011A -  5    DD D9 60 1D 4D
   294)      7873.749 1  Rx        0331 -  8    1F FC 90 57 A2 78 86 D4
   295)      7874.346 1  Rx        011B -  7    F9 7E DB 94 42 3B 7E
   296)      7874.773 1  Rx        006E -  7    F3 D9 88 88 7B 5F 79
   297)      7875.199 1  Rx        0106 -  7    E2 4E 76 45 43 51 E8
   298)      7875.541 1  Rx        0132 -  7    54 E2 15 11 C6 72 C1
   299)      7876.010 1  Rx        0308 -  8    E1 FB 01 C8 24 3F 9D 87
   300)      7876.309 1  Rx        0206 -  7    C2 0C 1B 63 AC 96 27
   301)      7876.607 1  Rx        0212 -  7    9E 85 FC 14 B1 D0 F5
   302)      7876.991 1  Rx        0222 -  8    12 0F 36 94 B6 A2 57 C9
   303)      7877.290 1  Rx        0459 -  8    3B 0C 5F 61 51 14 CE EC
   304)      7877.546 1  Rx        0451 -  8    C1 34 5F 9F 00 54 3B FF
   305)      7877.802 1  Rx        0441 -  8    FC BE 2B 6A 9A D0 9E B9
   306)      7878.143 1  Rx    1AFB1C04 -  8    7C 7D E9 1C C2 48 F4 89
   307)      7878.399 1  Rx    1AFB1C00 -  8    16 58 1F 80 58 61 16 1F
   308)      7878.655 1  Rx        0419 -  8    B3 FB 99 A3 8E 5A EC 3A
   309)      8080.337 1  Rx        0332 -  8    9D 16 A5 5A 91 AA 54 31
   310)      8080.935 1  Rx        011A -  5    DD D7 60 3D 94
   311)      8081.532 1  Rx        0331 -  8    59 DB 96 1D A2 78 86 D5
   312)      8082.172 1  Rx        011B -  7    F9 36 DB 94 59 2C E5
   313)      8082.769 1  Rx        006E -  7    9D 48 88 88 7B 5F 65
   314)      8083.281 1  Rx        0106 -  7    E2 20 76 45 43 51 E8
   315)      8083.751 1  Rx        0132 -  7    54 E2 D8 E2 C6 EF F6
   316)      8084.220 1  Rx        0308 -  8    E1 FB 01 CD 43 3F 9D 75
   317)      8084.732 1  Rx        0206 -  7    5D 0C 10 63 AC 96 E3
   318)      8085.201 1  Rx        0212 -  7    9E 85 9B 14 D9 D0 9D
   319)      8085.927 1  Rx        0222 -  8    51 0F 7E 94 2E 8C 63 13
   320)      8086.396 1  Rx        0459 -  8    3B 0C 5F 56 51 14 CE EC
   321)      8086.951 1  Rx        0451 -  8    93 34 FE 64 00 54 3B E6
   322)      8087.292 1  Rx        0441 -  8    FC E2 2B F3 4E D0 88 B9
   323)      8087.676 1  Rx    1AFB1C04 -  8    42 EA 7F 1C C2 62 F9 89
   324)      8088.060 1  Rx    1AFB1C00 -  8    58 7C 1F 80 58 63 16 21
   325)      8088.401 1  Rx        0419 -  8    B3 04 99 89 8E 3A ED 3A
   326)      8290.169 1  Rx        0332 -  8    9D 86 A5 EC 91 01 54 16
   327)      8290.723 1  Rx        011A -  5    A6 4D F8 3D 57
   328)      8291.449 1  Rx        0331 -  8    59 DB 96 B9 A2 78 E1 BC
   329)      8292.131 1  Rx        011B -  7    F9 F5 DB 94 59 67 04
   330)      8292.686 1  Rx        006E -  7    5C 8B D9 83 7B 5F 65
   331)      8293.155 1  Rx        0106 -  7    3E 20 D7 45 43 B8 E8
   332)      8293.625 1  Rx        0132 -  7    54 E2 D8 E2 C6 EF F6
   333)      8294.137 1  Rx        0308 -  8    7E FB 01 CD E2 D1 EF 70
   334)      8294.478 1  Rx        0206 -  7    2D 0C 6A F0 65 38 E3
   335)      8294.862 1  Rx        0212 -  7    9E 85 9B 4F BD A4 9D
   336)      8295.331 1  Rx        0222 -  8    85 41 7E 94 2E B6 B3 13
   337)      8295.673 1  Rx        0459 -  8    3B 0C 5F 56 51 14 4F EC
   338)      8296.014 1  Rx        0451 -  8    93 43 FE 59 26 FD 9B E6
   339)      8296.313 1  Rx        0441 -  8    43 E2 FD 15 4E 4A FE 05
   340)      8296.611 1  Rx    1AFB1C04 -  8    50 EA F5 1C C2 32 34 89
   341)      8296.910 1  Rx    1AFB1C00 -  8    58 A0 1F 07 58 63 ED 21
   342)      8297.209 1  Rx        0419 -  8    CB 18 99 89 C3 4A 8B 3A
   343)      8496.800 1  Rx        033B -  8    C9 6B 90 E4 B2 9B 88 41
   344)      8497.483 1  Rx        0339 -  8    50 16 20 D8 F7 17 6F A5
   345)      8498.251 1  Rx        0337 -  7    E3 BA 2E 79 87 70 E6
   346)      8498.934 1  Rx        0332 -  8    9E FC 67 EC ED 01 43 16
   347)      8499.318 1  Rx        001F -  5    78 2B D1 F3 53
   348)      8500.000 1  Rx        0333 -  4    79 C9 24 BE
   349)      8500.256 1  Rx        011A -  5    69 4D 73 3D 80
   350)      8500.939 1  Rx        0335 -  8    A0 F6 FF 70 CB 35 F6 79
   351)      8501.067 1  Rx        0331 -  8    59 96 3A B9 20 78 E1 08
   352)      8501.494 1  Rx        0121 -  4    5A 08 E8 CA
   353)      8501.707 1  Rx        011B -  7    F9 F5 A1 94 30 E4 58
   354)      8502.048 1  Rx        067F -  8    BF D0 95 01 02 49 DD 78
   355)      8502.176 1  Rx        006E -  7    5C 8B A2 8D 58 5F D7
   356)      8502.517 1  Rx        0681 -  8    CE F4 43 55 49 86 76 ED
   357)      8502.731 1  Rx        0106 -  7    20 20 FE 45 43 B8 0C
   358)      8502.944 1  Rx        0309 -  8    53 38 34 5A 78 9E 4D 28
   359)      8503.413 1  Rx        0132 -  7    54 E2 87 F3 C6 33 0D
   360)      8503.584 1  Rx        030A -  8    05 B1 21 9D 66 9C EC 76
   361)      8504.096 1  Rx        0622 -  6    42 13 79 2B 14 E0
   362)      8504.267 1  Rx        0308 -  8    54 DA BF F5 E2 D1 05 2D
   363)      8504.693 1  Rx        0413 -  6    FA EC 04 30 14 AB
   364)      8504.821 1  Rx        0206 -  7    3B 0C 6A 2B 65 38 E3
   365)      8505.077 1  Rx        0402 -  3    D7 2A B1
   366)      8505.248 1  Rx        0212 -  7    9E AB F3 4D BD B7 9D
   367)      8505.589 1  Rx        0739 -  8    D2 5D 6B 83 61 7B FE 8B
   368)      8505.760 1  Rx        0222 -  8    3A 41 07 C5 E3 93 B3 E0
   369)      8505.973 1  Rx        0411 -  8    B4 C8 6C 21 65 FB B1 7E
   370)      8506.144 1  Rx        0459 -  8    70 5D 5F 26 99 14 6E EC
   371)      8506.443 1  Rx        0729 -  8    F2 9B CA 58 28 BE E8 E5
   372)      8506.613 1  Rx        0451 -  8    93 F0 72 38 0F 23 41 E6
   373)      8507.040 1  Rx        0728 -  8    6B 78 D5 A7 2F 43 A5 81
   374)      8507.211 1  Rx        0441 -  8    43 F9 DE 15 11 4F 5C C5
   375)      8507.467 1  Rx        0709 -  8    EB 7D 15 11 4B AE 98 D5
   376)      8507.637 1  Rx    1AFB1C04 -  8    C0 EA F5 82 C2 B2 A9 89
   377)      8507.893 1  Rx        0711 -  8    D7 90 25 95 24 3A EB 7F
   378)      8508.064 1  Rx    1AFB1C00 -  8    02 A0 D9 07 58 63 52 A7
   379)      8508.235 1  Rx        0419 -  8    3A 18 CC 89 C3 F2 8B A2
   380)      8709.606 1  Rx        0332 -  8    9E F7 15 EC ED 94 43 0A
   381)      8710.160 1  Rx        011A -  5    69 40 73 3D 9C
   382)      8710.715 1  Rx        0331 -  8    59 20 F2 B9 20 A6 E1 08
   383)      8711.227 1  Rx        011B -  7    A4 F5 A1 94 2C 0C 7B
   384)      8711.696 1  Rx        006E -  7    E7 8B AF 8D A4 5F CF
   385)      8712.080 1  Rx        0106 -  7    20 20 FE 45 72 B8 B1
   386)      8712.422 1  Rx        0132 -  7    54 E2 87 41 61 58 A1
   387)      8712.763 1  Rx        0308 -  8    54 DA BF F5 4F D1 FD 8F
   388)      8713.062 1  Rx        0206 -  7    3B 0C 6A 0C 65 FE 23
   389)      8713.403 1  Rx        0212 -  7    9E AB DE 7F DD 51 55
   390)      8713.744 1  Rx        0222 -  8    3A 19 8D D0 18 07 B3 E0
   391)      8714.043 1  Rx        0459 -  8    70 5D 5F 5B 99 36 6E EC
   392)      8714.384 1  Rx        0451 -  8    3F E5 A0 84 0F 3E 9D A2
   393)      8714.726 1  Rx        0441 -  8    43 F9 A8 15 11 32 8B D2
   394)      8715.024 1  Rx    1AFB1C04 -  8    C0 D9 F0 82 C2 D3 A9 89
   395)      8715.323 1  Rx    1AFB1C00 -  8    60 CA D9 80 58 63 52 1C
   396)      8715.621 1  Rx        0419 -  8    EB 36 22 89 1D F2 03 77
   397)      8916.706 1  Rx        0332 -  8    9E F7 33 EC ED 94 9F 96
   398)      8917.218 1  Rx        011A -  5    69 40 73 B3 9C
   399)      8917.773 1  Rx        0331 -  8    59 20 F2 B9 20 A6 B9 E9
   400)      8918.370 1  Rx        011B -  7    4D F5 A1 78 EA 0C DD
   401)      8918.968 1  Rx        006E -  7    E7 66 44 90 A4 CA CF
   402)      8919.437 1  Rx        0106 -  7    0A 20 B0 45 D7 B0 1B
   403)      8919.949 1  Rx        0132 -  7    54 9B 87 DB 61 92 69
   404)      8920.376 1  Rx        0308 -  8    54 DA BF F5 4F B8 B7 EE
   405)      8920.717 1  Rx        0206 -  7    3B 0C CA 7B 65 88 23
   406)      8921.144 1  Rx        0212 -  7    9E 46 DE 91 54 38 7E
   407)      8921.698 1  Rx        0222 -  8    3A 19 8D 36 18 9A 0D E0
   408)      8921.997 1  Rx        0459 -  8    70 96 13 7F 99 4A 6E 4A
   409)      8922.296 1  Rx        0451 -  8    47 8E 64 84 E1 3E 74 ED
   410)      8922.637 1  Rx        0441 -  8    43 3C A8 CD 11 32 4F D2
   411)      8922.978 1  Rx    1AFB1C04 -  8    0D 58 F0 82 B5 CA B5 89
   412)      8923.320 1  Rx    1AFB1C00 -  8    60 CA 70 80 58 D2 38 7E
   413)      8923.661 1  Rx        0419 -  8    EB 36 36 A0 1D 16 67 F9
   414)      9124.532 1  Rx        0332 -  8    82 B7 D2 A7 ED 94 65 B1
   415)      9125.002 1  Rx        011A -  5    69 30 73 1A 86
   416)      9125.556 1  Rx        0331 -  8    76 20 F2 B9 3E 73 06 E9
   417)      9125.983 1  Rx        011B -  7    4D 74 BB 2C EA 0C DD
   418)      9126.452 1  Rx        006E -  7    E7 66 44 90 A4 71 B0
   419)      9126.836 1  Rx        0106 -  7    0A 20 B0 C8 D7 44 1B
   420)      9127.178 1  Rx        0132 -  7    7E F2 50 D3 61 92 E8
   421)      9127.434 1  Rx        0308 -  8    54 DA BF F5 0C CD 47 2D
   422)      9127.775 1  Rx        0206 -  7    EA F6 F0 EE D2 88 23
   423)      9128.031 1  Rx        0212 -  7    9E DC 0E 91 E8 D3 7E
   424)      9128.372 1  Rx        0222 -  8    3A BF 8D 09 9D 9A 45 E0
   425)      9128.628 1  Rx        0459 -  8    A8 B3 76 7F D0 4A E9 48
   426)      9128.927 1  Rx        0451 -  8    47 8E 64 6F B1 F3 74 ED
   427)      9129.268 1  Rx        0441 -  8    43 3C A9 74 11 0D 4F D2
   428)      9129.610 1  Rx    1AFB1C04 -  8    94 3D F0 7C B5 EB B5 40
   429)      9129.908 1  Rx    1AFB1C00 -  8    72 18 91 80 58 27 38 7E
   430)      9130.292 1  Rx        0419 -  8    EB 36 73 3E 1D AD 67 D3
   431)      9331.036 1  Rx        0332 -  8    FC 28 35 7F D8 C1 F9 7C
   432)      9331.164 1  Rx        011A -  5    46 E7 BC F8 62
   433)      9331.292 1  Rx        0331 -  8    EE 23 F7 62 42 E2 57 DA
   434)      9331.420 1  Rx        011B -  7    89 A9 4B 8C 83 3C DE
   435)      9331.548 1  Rx        006E -  7    B4 D7 DD D3 69 15 FD
   436)      9331.676 1  Rx        0106 -  7    A9 6B 6C 16 E0 46 B7
   437)      9331.804 1  Rx        0132 -  7    95 5D CB D2 A5 DA 79
   438)      9331.932 1  Rx        0308 -  8    DB A6 BC C0 8B BB 06 3A
   439)      9332.060 1  Rx        0206 -  7    ED 74 4F 5E EE 27 B8
   440)      9332.188 1  Rx        0212 -  7    D8 49 59 5C 8A 7A E6
   441)      9332.316 1  Rx        0222 -  8    6F FE 59 C6 60 CE 93 04
   442)      9332.444 1  Rx        0459 -  8    B9 DC A8 34 BA 65 38 25
   443)      9332.572 1  Rx        0451 -  8    CD B6 E0 F5 27 CA 73 75
   444)      9332.700 1  Rx        0441 -  8    7C 3C 1C 4D 97 ED 31 7A
   445)      9332.871 1  Rx    1AFB1C04 -  8    4E B0 35 F5 C9 32 FB 36
   446)      9332.999 1  Rx    1AFB1C00 -  8    14 DE FA 7F 59 76 AE A6
   447)      9333.127 1  Rx        0419 -  8    A5 A7 A2 6F 94 43 DC 78
   448)      9509.294 1  Rx        033B -  8    70 6B 84 5D 52 14 88 41
   449)      9510.020 1  Rx        0339 -  8    6F 93 20 D8 D9 17 6F 8E
   450)      9510.702 1  Rx        0337 -  7    E3 BA E3 EB 87 A8 E6
   451)      9511.300 1  Rx        001F -  5    78 2B D1 56 53
   452)      9511.812 1  Rx        0333 -  4    1A F3 6B BE
   453)      9512.452 1  Rx        0335 -  8    A0 C0 FF 70 CB 3E 0B 8A
   454)      9512.921 1  Rx        0121 -  4    5A 08 E8 14
   455)      9513.476 1  Rx        067F -  8    BF B2 95 01 7A D1 DD 27
   456)      9513.988 1  Rx        0681 -  8    C6 33 43 55 BE 86 76 66
   457)      9514.585 1  Rx        0309 -  8    53 38 34 9E EB 9E 95 53
   458)      9515.310 1  Rx        030A -  8    61 B1 21 AD CF 9C EC 76
   459)      9515.822 1  Rx        0622 -  6    42 7D 79 2B CE 2D
   460)      9516.206 1  Rx        0413 -  6    FA EC BF E0 14 AB
   461)      9516.548 1  Rx        0402 -  3    D7 2A 4C
   462)      9516.889 1  Rx        0739 -  8    D2 5D 8D 65 61 7B FE 30
   463)      9517.230 1  Rx        0411 -  8    B4 C8 02 21 64 FB B3 7E
   464)      9517.486 1  Rx        0729 -  8    44 9B CA 84 28 5D E8 24
   465)      9517.742 1  Rx        0728 -  8    1A 78 D5 A7 2F DC A5 81
   466)      9518.041 1  Rx        0709 -  8    B5 7D 15 11 CF 96 98 D5
   467)      9518.297 1  Rx        0711 -  8    D7 90 21 95 19 3A 9D 8C
   468)      9532.633 1  Rx        0332 -  8    FC B7 35 8A F2 C1 9B 7C
   469)      9533.273 1  Rx        011A -  5    46 CE B6 AA 62
   470)      9534.041 1  Rx        0331 -  8    EE 2B D3 62 42 E2 CD DA
   471)      9534.638 1  Rx        011B -  7    89 A9 4B B9 F5 3C DE
   472)      9535.193 1  Rx        006E -  7    52 9F 77 D3 35 15 B6
   473)      9535.918 1  Rx        0106 -  7    A9 6B 6C 31 2B 4C B7
   474)      9536.473 1  Rx        0132 -  7    7E 5D CB 7B A5 95 79
   475)      9537.070 1  Rx        0308 -  8    DB 7E BC C0 8B BB 06 3A
   476)      9537.667 1  Rx        0206 -  7    ED 74 E5 B8 D8 27 B8
   477)      9538.307 1  Rx        0212 -  7    D8 49 59 A2 7D 69 E6
   478)      9538.905 1  Rx        0222 -  8    6F 12 59 C6 60 62 8E F4
   479)      9539.459 1  Rx        0459 -  8    B9 3D 6B 94 BA 0B D5 F3
   480)      9540.014 1  Rx        0451 -  8    CD 95 7F F5 1D FD 73 08
   481)      9540.483 1  Rx        0441 -  8    7C 60 71 AE 27 60 0E 7A
   482)      9541.038 1  Rx    1AFB1C04 -  8    A5 80 85 A0 4D 32 D5 1A
   483)      9541.550 1  Rx    1AFB1C00 -  8    45 DE E2 45 CD 68 B0 A6
   484)      9541.934 1  Rx        0419 -  8    D7 10 A2 6F 94 6A DC 78
   485)      9743.561 1  Rx        0332 -  8    FC 8D D3 56 F2 7F 9B E7
   486)      9744.073 1  Rx        011A -  5    46 CE 32 5F B6
   487)      9744.713 1  Rx        0331 -  8    FC 2B D3 0E 42 D9 CD DA
   488)      9745.182 1  Rx        011B -  7    89 A9 32 B9 F5 3C DE
   489)      9745.694 1  Rx        006E -  7    1D F5 77 00 35 6A B0
   490)      9746.121 1  Rx        0106 -  7    A9 E3 6C 31 2B E0 B7
   491)      9746.505 1  Rx        0132 -  7    7E 93 CB 7B A5 FB FC
   492)      9746.889 1  Rx        0308 -  8    6D 7E 02 E1 70 2D 06 3A
   493)      9747.230 1  Rx        0206 -  7    ED 9D E5 B8 54 27 85
   494)      9747.529 1  Rx        0212 -  7    E1 F4 59 A2 F2 79 E6
   495)      9747.827 1  Rx        0222 -  8    6F 12 8D E3 31 E5 8E F4
   496)      9748.211 1  Rx        0459 -  8    B9 D6 0D 58 BA 0B 0E F3
   497)      9748.553 1  Rx        0451 -  8    D9 95 09 F5 1D 3E 73 C5
   498)      9748.851 1  Rx        0441 -  8    B0 16 83 31 27 7B 91 53
   499)      9749.193 1  Rx    1AFB1C04 -  8    A5 80 20 90 4D 86 75 1A
   500)      9749.534 1  Rx    1AFB1C00 -  8    D1 25 7F AC 93 07 B0 30
   501)      9749.833 1  Rx        0419 -  8    D7 84 A2 6F 56 6A DC F3
   502)      9784.648 1  Rx        033A -  8    C4 96 9B 84 38 EB C8 6F
   503)      9785.331 1  Rx        0336 -  8    4C 14 BD 3E C9 75 7F D9
   504)      9786.056 1  Rx        0334 -  8    1C 66 FD 70 B8 C0 73 63
   505)      9786.739 1  Rx        06DD -  8    87 1F 5C CA 84 DC 99 53
   506)      9787.507 1  Rx        0799 -  8    78 9C AD F3 5A 9D 3D 75
   507)      9951.344 1  Rx        0332 -  8    61 8D 68 56 EF 7F 8C E7
   508)      9951.942 1  Rx        011A -  5    C9 11 32 5F B6
   509)      9952.539 1  Rx        0331 -  8    FC E2 A3 B7 1A AD CD DA
   510)      9953.136 1  Rx        011B -  7    89 23 EA 25 F5 3C DE
   511)      9953.648 1  Rx        006E -  7    8A F5 77 40 CB 56 DC
   512)      9954.117 1  Rx        0106 -  7    A9 E3 E8 31 5F 7D 13
   513)      9954.544 1  Rx        0132 -  7    DC 93 CB D0 A5 FB FC
   514)      9955.013 1  Rx        0308 -  8    F2 FD 77 36 7E 2D 35 EE
   515)      9955.397 1  Rx        0206 -  7    DF 9D 74 E3 54 27 25
   516)      9955.781 1  Rx        0212 -  7    98 F4 59 81 8C 79 E6
   517)      9956.208 1  Rx        0222 -  8    19 12 8D 20 11 53 BA 58
   518)      9956.592 1  Rx        0459 -  8    5D 49 25 58 BA 15 5A F3
   519)      9956.933 1  Rx        0451 -  8    D9 F4 09 F5 E2 8D 73 C5
   520)      9957.275 1  Rx        0441 -  8    B0 7E 64 44 27 E2 FA 53
   521)      9957.659 1  Rx    1AFB1C04 -  8    9C 80 20 B8 E7 86 B9 1A
   522)      9958.000 1  Rx    1AFB1C00 -  8    D1 DD 53 AC 93 F6 B0 30
   523)      9958.341 1  Rx        0419 -  8    D7 1B 2F FB 88 6A DC 86
   524)     10160.280 1  Rx        0332 -  8    B1 75 2D 60 EF 7F 2E E9
   525)     10160.792 1  Rx        011A -  5    C9 11 C4 5F 2D
   526)     10161.389 1  Rx        0331 -  8    5F E2 A3 B7 42 AD CD 4A
   527)     10162.114 1  Rx        011B -  7    80 0F EA 43 42 3C DE
   528)     10162.669 1  Rx        006E -  7    BC 99 5C 40 40 29 29
   529)     10163.138 1  Rx        0106 -  7    92 E3 F6 31 A3 6B 13
   530)     10163.693 1  Rx        0132 -  7    DC 97 CB 81 A5 CC 37
   531)     10164.162 1  Rx        0308 -  8    F2 FD 77 34 7E 66 35 EE
   532)     10164.632 1  Rx        0206 -  7    7B B8 CD E3 54 35 25
   533)     10165.144 1  Rx        0212 -  7    35 F4 59 81 8C F5 E6
   534)     10165.570 1  Rx        0222 -  8    19 12 0E 20 11 6C BA 58
   535)     10166.040 1  Rx        0459 -  8    7E 49 25 58 4E 15 11 74
   536)     10166.423 1  Rx        0451 -  8    11 F4 3C B9 D5 30 73 C5
   537)     10166.765 1  Rx        0441 -  8    BC 7E 64 A9 57 E2 FA 45
   538)     10167.063 1  Rx    1AFB1C04 -  8    9C 80 20 B8 64 BF B9 1A
   539)     10167.362 1  Rx    1AFB1C00 -  8    17 F7 15 95 81 8F 54 DC
   540)     10167.618 1  Rx        0419 -  8    D7 1B 2F 94 3E 6A 04 F6
   541)     10368.788 1  Rx        0332 -  8    D5 75 B7 60 EF 7F 2E 42
   542)     10369.471 1  Rx        011A -  5    59 11 C4 5F A1
   543)     10370.239 1  Rx        0331 -  8    5F E2 BB B7 2E AD CD 89
   544)     10370.922 1  Rx        011B -  7    AC 69 EA 51 14 17 DE
   545)     10371.604 1  Rx        006E -  7    5B 4C 5C C7 40 29 E7
   546)     10372.202 1  Rx        0106 -  7    95 E3 F6 31 34 F9 13
   547)     10372.799 1  Rx        0132 -  7    B4 97 25 64 A5 49 37
   548)     10373.354 1  Rx        0308 -  8    F2 DF 77 34 E2 B6 F8 6F
   549)     10373.908 1  Rx        0206 -  7    7B B8 CD EB 54 A8 1D
   550)     10374.420 1  Rx        0212 -  7    F8 C2 AC 81 56 F5 E6
   551)     10374.932 1  Rx        0222 -  8    87 12 86 E2 49 6C BA 58
   552)     10375.487 1  Rx        0459 -  8    7E 6C 25 80 38 15 8E 74
   553)     10376.042 1  Rx        0451 -  8    11 F4 9B 6B EB 30 73 C5
   554)     10376.468 1  Rx        0441 -  8    55 7E 64 A9 C5 76 7F C5
   555)     10376.810 1  Rx    1AFB1C04 -  8    13 80 5D B8 0D BF B9 D9
   556)     10377.108 1  Rx    1AFB1C00 -  8    17 C3 15 95 81 0A 8A B5
   557)     10377.407 1  Rx        0419 -  8    D7 1B 2F 94 69 6A C2 BC
   558)     10519.442 1  Rx        033B -  8    E9 6B 84 41 52 14 8E B7
   559)     10520.039 1  Rx        0339 -  8    50 BC 8A C3 D9 33 6F 0F
   560)     10520.594 1  Rx        0337 -  7    C1 BA 76 4C 16 A8 C6
   561)     10521.063 1  Rx        001F -  5    19 1F 75 EE 53
   562)     10521.447 1  Rx        0333 -  4    1A 0E FC BE
   563)     10521.831 1  Rx        0335 -  8    A0 C0 F5 70 CB 87 0B 67
   564)     10522.130 1  Rx        0121 -  4    5A 08 E8 14
   565)     10522.471 1  Rx        067F -  8    BF 2E 95 01 97 04 F8 27
   566)     10522.813 1  Rx        0681 -  8    C6 51 43 D4 02 86 76 67
   567)     10523.154 1  Rx        0309 -  8    53 CD CC 37 EB 9E 95 53
   568)     10523.453 1  Rx        030A -  8    EE B1 25 AD CF 9C F2 76
   569)     10523.709 1  Rx        0622 -  6    3D 05 3C 2B CE 2D
   570)     10524.050 1  Rx        0413 -  6    8A EC BF E0 36 87
   571)     10524.519 1  Rx        0402 -  3    0A 74 4C
   572)     10524.989 1  Rx        0739 -  8    A8 5D B3 5A B5 55 FE E4
   573)     10525.287 1  Rx        0411 -  8    B4 98 72 21 64 FB C5 7E
   574)     10525.586 1  Rx        0729 -  8    30 22 CA 73 B0 5D E8 6C
   575)     10525.842 1  Rx        0728 -  8    F0 78 05 A7 2F 9A CD 81
   576)     10526.183 1  Rx        0709 -  8    B5 F8 C8 22 DA 96 C9 66
   577)     10526.482 1  Rx        0711 -  8    D7 94 C3 D3 19 3A 3A 8C
   578)     10578.662 1  Rx        0332 -  8    D5 54 B7 60 94 8E 7E 42
   579)     10579.217 1  Rx        011A -  5    71 60 C4 5F A1
   580)     10579.857 1  Rx        0331 -  8    EC B9 E1 B7 AA AD CD 89
   581)     10580.412 1  Rx        011B -  7    AC 2D 90 83 5C E0 DE
   582)     10580.881 1  Rx        006E -  7    EB 4C 5C 75 40 57 D8
   583)     10581.222 1  Rx        0106 -  7    BF E3 7A 97 E1 F9 13
   584)     10581.564 1  Rx        0132 -  7    7E 96 25 38 A5 49 37
   585)     10581.948 1  Rx        0308 -  8    F2 D2 77 8E 60 06 56 69
   586)     10582.289 1  Rx        0206 -  7    7B 8B 99 EB 87 29 B6
   587)     10582.673 1  Rx        0212 -  7    F8 22 21 0A 5A F5 D1
   588)     10582.972 1  Rx        0222 -  8    1C 12 86 E2 49 0F 12 59
   589)     10583.270 1  Rx        0459 -  8    45 E4 25 FE 38 15 D4 74
   590)     10583.526 1  Rx        0451 -  8    F5 01 9B 6B EB 0B 1D C5
   591)     10583.782 1  Rx        0441 -  8    55 7E EF A9 C5 76 7F C5
   592)     10584.081 1  Rx    1AFB1C04 -  8    13 DB 5D B8 A9 BF B9 31
   593)     10584.380 1  Rx    1AFB1C00 -  8    17 C3 15 52 A4 0A 8A B5
   594)     10584.636 1  Rx        0419 -  8    D7 1B 2F 94 B5 6A 94 67
   595)     10786.285 1  Rx        0332 -  8    D5 99 B7 60 68 8E 7E 03
   596)     10786.925 1  Rx        011A -  5    49 60 C4 5F F0
   597)     10787.778 1  Rx        0331 -  8    05 B9 E1 F6 AA 22 BE B4
   598)     10788.333 1  Rx        011B -  7    5D 43 90 6B 5C E0 04
   599)     10788.888 1  Rx        006E -  7    42 4C 5C 8A F7 57 D8
   600)     10789.528 1  Rx        0106 -  7    CC E3 71 B8 76 F9 F3
   601)     10790.082 1  Rx        0132 -  7    7E 96 21 75 67 20 37
   602)     10790.680 1  Rx        0308 -  8    F2 19 42 8E 73 06 EC 69
   603)     10791.192 1  Rx        0206 -  7    7B 33 99 EB 87 29 5B
   604)     10791.704 1  Rx        0212 -  7    41 22 27 F4 BD F5 D1
   605)     10792.344 1  Rx        0222 -  8    1C 63 45 E2 E5 06 12 F9
   606)     10792.898 1  Rx        0459 -  8    79 E4 25 F5 38 15 99 74
   607)     10793.368 1  Rx        0451 -  8    B9 5F 9B 6B DC 0B CD C5
   608)     10793.837 1  Rx        0441 -  8    55 7E 47 A9 D5 33 7F 96
   609)     10794.221 1  Rx    1AFB1C04 -  8    D9 DB C4 C9 A9 43 90 31
   610)     10794.690 1  Rx    1AFB1C00 -  8    17 C3 FA 09 46 0A 0F 67
   611)     10795.245 1  Rx        0419 -  8    D7 1B 77 94 B5 6A 5A 67
   612)     10996.842 1  Rx        0332 -  8    D5 08 64 D1 1A A0 AB BF
   613)     10997.354 1  Rx        011A -  5    AF 08 D7 5F F0
   614)     10997.951 1  Rx        0331 -  8    05 B9 E1 E4 62 B7 2C B4
   615)     10998.591 1  Rx        011B -  7    0D 43 90 6B 5C E0 6D
   616)     10999.060 1  Rx        006E -  7    42 11 5C 22 F7 57 18
   617)     10999.572 1  Rx        0106 -  7    DE B4 A6 84 76 90 F3
   618)     10999.956 1  Rx        0132 -  7    7E 96 D3 75 C1 20 37
   619)     11000.298 1  Rx        0308 -  8    EA 19 42 8E 73 33 AD AF
   620)     11000.596 1  Rx        0206 -  7    7B 33 99 EB 87 54 5B
   621)     11000.938 1  Rx        0212 -  7    41 22 63 36 5C C8 D1
   622)     11001.322 1  Rx        0222 -  8    1C 63 A8 9C E5 22 12 0D
   623)     11001.791 1  Rx        0459 -  8    79 E4 25 F5 38 45 56 E3
   624)     11002.303 1  Rx        0451 -  8    B9 A4 9B 6B F6 9A CD C5
   625)     11002.687 1  Rx        0441 -  8    55 FA 7F A9 90 C1 7F 96
   626)     11003.071 1  Rx    1AFB1C04 -  8    D9 DB C4 C9 B9 90 1A F5
   627)     11003.412 1  Rx    1AFB1C00 -  8    17 61 C9 09 2B 0A 0F 67
   628)     11003.711 1  Rx        0419 -  8    62 1B 2E 94 B5 6A 5A 8C
   629)     11204.711 1  Rx        0332 -  8    D5 08 1D D1 20 A0 AB A9
   630)     11205.308 1  Rx        011A -  5    E1 33 D7 A4 F0
   631)     11205.905 1  Rx        0331 -  8    05 8E E1 92 90 B7 2C B4
   632)     11206.545 1  Rx        011B -  7    0D 43 1A 6B 5C E0 82
   633)     11206.929 1  Rx        006E -  7    5E 11 5C BD 7C CC 18
   634)     11207.399 1  Rx        0106 -  7    0C B4 A6 84 76 3D F3
   635)     11207.996 1  Rx        0132 -  7    47 7E 60 82 AA 20 A9
   636)     11208.380 1  Rx        0308 -  8    A8 19 76 8E 73 33 DE DA
   637)     11208.935 1  Rx        0206 -  7    C7 8F 10 EB 29 DC 5B
   638)     11209.233 1  Rx        0212 -  7    41 22 AC 36 5C A5 D1
   639)     11209.788 1  Rx        0222 -  8    1C 63 A8 3A E5 A5 0B 39
   640)     11210.215 1  Rx        0459 -  8    DB CE 25 F5 10 45 56 E3
   641)     11210.727 1  Rx        0451 -  8    D1 A4 9B 6B F6 9A 0A C5
   642)     11211.111 1  Rx        0441 -  8    55 FA 7F A9 1A 49 7F 96
   643)     11211.494 1  Rx    1AFB1C04 -  8    F2 DB 4F FF F2 31 1A F5
   644)     11211.793 1  Rx    1AFB1C00 -  8    A3 61 C9 09 2B D2 A3 65
   645)     11212.177 1  Rx        0419 -  8    62 1B 2E 52 B0 6A 5A 2E
   646)     11412.409 1  Rx        0332 -  8    44 F1 FE D8 D5 D0 44 44
   647)     11412.494 1  Rx        011A -  5    4C 79 37 E8 73
   648)     11412.622 1  Rx        0331 -  8    3E 44 12 05 8A 6D DC EF
   649)     11412.750 1  Rx        011B -  7    DD FD C7 BD FD B3 FC
   650)     11412.878 1  Rx        006E -  7    D2 83 C6 93 EB AF A6
   651)     11413.006 1  Rx        0106 -  7    B3 5F C3 AA 32 81 76
   652)     11413.134 1  Rx        0132 -  7    1F FC 35 43 7B F2 66
   653)     11413.262 1  Rx        0308 -  8    00 5A D1 EC F0 C0 85 C1
   654)     11413.390 1  Rx        0206 -  7    03 9F 75 57 19 87 D9
   655)     11413.518 1  Rx        0212 -  7    B3 77 34 99 72 B3 A7
   656)     11413.646 1  Rx        0222 -  8    8B 3E 21 88 82 9E 52 52
   657)     11413.774 1  Rx        0459 -  8    79 AD 75 7B 9C FD EF 07
   658)     11413.902 1  Rx        0451 -  8    D2 42 8B 38 11 7A B4 CA
   659)     11414.030 1  Rx        0441 -  8    34 26 FB 03 4A 5F B0 45
   660)     11414.201 1  Rx    1AFB1C04 -  8    D5 9B 52 9E D7 76 AD 51
   661)     11414.329 1  Rx    1AFB1C00 -  8    28 FC BE A3 7A D1 30 BC
   662)     11414.457 1  Rx        0419 -  8    FB 49 B8 61 37 56 5B D0
   663)     11527.820 1  Rx        033B -  8    E9 6B 84 1E 02 14 8E 06
   664)     11528.546 1  Rx        0339 -  8    50 BC 8A D7 D9 49 2C 2A
   665)     11529.442 1  Rx        0337 -  7    F5 C5 76 4C EB A8 FA
   666)     11529.996 1  Rx        001F -  5    8D 1F 75 73 53
   667)     11530.551 1  Rx        0333 -  4    1A 56 FC 5B
   668)     11531.148 1  Rx        0335 -  8    12 36 F5 E2 FD 87 0B 3E
   669)     11531.532 1  Rx        0121 -  4    27 08 5B 28
   670)     11532.087 1  Rx        067F -  8    BF C2 0C 01 97 04 F8 0D
   671)     11532.556 1  Rx        0681 -  8    C6 67 43 D4 02 86 76 84
   672)     11532.897 1  Rx        0309 -  8    53 CD CC 99 EB B6 DA 22
   673)     11533.239 1  Rx        030A -  8    24 1D B3 AD CF 9C F2 76
   674)     11533.665 1  Rx        0622 -  6    3D 6E D2 15 CE F2
   675)     11534.092 1  Rx        0413 -  6    8A C6 E5 2B 59 40
   676)     11534.391 1  Rx        0402 -  3    63 70 4C
   677)     11534.817 1  Rx        0739 -  8    36 5D B3 E5 B5 55 FE F0
   678)     11535.159 1  Rx        0411 -  8    B4 98 72 21 64 CF 55 7E
   679)     11535.585 1  Rx        0729 -  8    30 21 57 73 BD 06 6F 6E
   680)     11535.927 1  Rx        0728 -  8    27 78 05 A7 2F 9A 8D E2
   681)     11536.396 1  Rx        0709 -  8    B5 F8 2E 22 81 96 01 EA
   682)     11536.780 1  Rx        0711 -  8    F4 DF A3 2A 99 3A 3A 81
   683)     11614.304 1  Rx        0332 -  8    44 2E FE D8 D5 3B B5 5A
   684)     11614.731 1  Rx        011A -  5    4C FA 37 91 29
   685)     11615.243 1  Rx        0331 -  8    3E 44 12 05 8A EB DC C5
   686)     11615.755 1  Rx        011B -  7    DD 9A 7D E5 55 B3 FC
   687)     11616.139 1  Rx        006E -  7    D2 83 C6 E1 EB AF A6
   688)     11616.566 1  Rx        0106 -  7    26 06 07 AF FD A0 87
   689)     11616.949 1  Rx        0132 -  7    1F 93 8A AB 7B F2 66
   690)     11617.291 1  Rx        0308 -  8    00 8B 1C EC F0 C0 85 5B
   691)     11617.632 1  Rx        0206 -  7    24 1C EB 57 F7 87 D9
   692)     11618.016 1  Rx        0212 -  7    23 65 34 03 72 B3 A7
   693)     11618.443 1  Rx        0222 -  8    08 3E 6A 88 82 9E 3B 9A
   694)     11618.869 1  Rx        0459 -  8    79 E0 75 7B 9C 7A EF 03
   695)     11619.296 1  Rx        0451 -  8    63 EA 8B E5 1A B9 93 10
   696)     11619.680 1  Rx        0441 -  8    34 26 FB 10 4A 5F 30 32
   697)     11620.021 1  Rx    1AFB1C04 -  8    D5 A0 52 9E DB 76 AD 51
   698)     11620.448 1  Rx    1AFB1C00 -  8    49 90 F6 A3 84 14 30 BC
   699)     11621.003 1  Rx        0419 -  8    FB 49 B8 61 37 56 5B 54
   700)     11788.494 1  Rx        033A -  8    26 96 9B 00 FB 75 3F 81
   701)     11788.921 1  Rx        0336 -  8    4C 14 CD 3E 88 75 17 D9
   702)     11789.476 1  Rx        0334 -  8    1C 66 FE 70 B8 FF 73 63
   703)     11789.988 1  Rx        06DD -  8    87 36 5C CA 43 9E 99 53
   704)     11790.500 1  Rx        0799 -  8    46 9C AD F3 5A CC 90 75
   705)     11822.670 1  Rx        0332 -  8    44 2E FE 6D D5 D6 B5 9C
   706)     11823.182 1  Rx        011A -  5    B6 5B 0F 91 29
   707)     11823.737 1  Rx        0331 -  8    3E 44 12 05 28 EB DC F0
   708)     11824.249 1  Rx        011B -  7    51 9A 7D CF D5 7E 1D
   709)     11824.761 1  Rx        006E -  7    B5 F7 C6 18 EB AF A6
   710)     11825.187 1  Rx        0106 -  7    1C 06 07 6E A7 C7 87
   711)     11825.529 1  Rx        0132 -  7    55 89 DD AB 7B F9 66
   712)     11825.998 1  Rx        0308 -  8    39 2D 1C DE 0E C0 7A 5B
   713)     11826.382 1  Rx        0206 -  7    D1 1C EB BB F6 9C D9
   714)     11826.681 1  Rx        0212 -  7    23 BD 3D 03 B4 41 A7
   715)     11827.065 1  Rx        0222 -  8    DA 57 0F 88 7F 66 6C 9A
   716)     11827.406 1  Rx        0459 -  8    79 1A 75 7B 9C 7A 57 91
   717)     11827.705 1  Rx        0451 -  8    DB EA 8E 39 35 16 F9 36
   718)     11828.003 1  Rx        0441 -  8    34 E9 FB 46 54 5F 47 4F
   719)     11828.302 1  Rx    1AFB1C04 -  8    26 A0 52 9E DB 91 A8 51
   720)     11828.558 1  Rx    1AFB1C00 -  8    49 90 5D 7E 84 27 30 3D
   721)     11828.814 1  Rx        0419 -  8    D8 CB 3C 6B 7F 56 A7 AC
   722)     12030.496 1  Rx        0332 -  8    9A E4 01 E1 D5 9A 54 9C
   723)     12031.093 1  Rx        011A -  5    D2 5B B8 91 29
   724)     12031.733 1  Rx        0331 -  8    3E 44 12 DF 28 4B E6 F0
   725)     12032.544 1  Rx        011B -  7    51 7F 1D CF D5 5F B1
   726)     12033.312 1  Rx        006E -  7    B5 E0 C6 7D EB AF A6
   727)     12033.824 1  Rx        0106 -  7    FF 06 9C 6E B9 C7 04
   728)     12034.293 1  Rx        0132 -  7    55 C7 DD AB F3 F9 28
   729)     12034.805 1  Rx        0308 -  8    36 6C 1C 32 0E C0 7A AD
   730)     12035.275 1  Rx        0206 -  7    CD A9 EB BB F6 9C 44
   731)     12035.616 1  Rx        0212 -  7    54 BD 3D 18 B4 41 49
   732)     12036.256 1  Rx        0222 -  8    CE 57 0F 11 2A 66 D5 41
   733)     12036.725 1  Rx        0459 -  8    DC EF 75 7B 9C D3 57 91
   734)     12037.152 1  Rx        0451 -  8    DB EA 8E EC C9 16 F9 36
   735)     12037.536 1  Rx        0441 -  8    34 39 FB 46 54 5F EA 4F
   736)     12037.835 1  Rx    1AFB1C04 -  8    CB A0 52 E5 E6 98 A8 CE
   737)     12038.219 1  Rx    1AFB1C00 -  8    49 45 85 7E 19 2E 30 3D
   738)     12038.688 1  Rx        0419 -  8    84 FD 3C 6B CD 56 D4 2E
   739)     12240.413 1  Rx        0332 -  8    FF E4 01 E1 D5 20 54 9C
   740)     12241.053 1  Rx        011A -  5    D2 65 FE 91 15
   741)     12241.650 1  Rx        0331 -  8    3E 44 12 DF 28 4B E6 61
   742)     12242.162 1  Rx        011B -  7    51 7F 7F 9B D5 C6 B1
   743)     12242.589 1  Rx        006E -  7    BD E0 23 7D EB AF A7
   744)     12242.973 1  Rx        0106 -  7    FF 69 9C 6E 8A C7 04
   745)     12243.357 1  Rx        0132 -  7    E7 C7 DD AB D3 4E 28
   746)     12243.698 1  Rx        0308 -  8    C9 6C 5B 93 0E 8F 7A AD
   747)     12243.997 1  Rx        0206 -  7    4A A9 52 BB F6 90 CF
   748)     12244.338 1  Rx        0212 -  7    54 22 3D 9D B4 41 49
   749)     12244.594 1  Rx        0222 -  8    CE 43 0F 11 78 66 D5 04
   750)     12244.893 1  Rx        0459 -  8    DE CA 9C 7B 9A 7B 57 91
   751)     12245.149 1  Rx        0451 -  8    48 EA 8E EC 7B 36 F9 36
   752)     12245.447 1  Rx        0441 -  8    34 39 E7 46 34 AC EA 4F
   753)     12245.746 1  Rx    1AFB1C04 -  8    CB A0 52 BC E6 98 05 CE
   754)     12246.045 1  Rx    1AFB1C00 -  8    49 56 42 7E 6B 2E 30 EA
   755)     12246.258 1  Rx        0419 -  8    97 D0 DD 3F C5 56 D4 2E
   756)     12447.386 1  Rx        0332 -  8    FF E4 01 A9 D5 20 54 C9
   757)     12447.983 1  Rx        011A -  5    26 CA DA 35 15
   758)     12448.623 1  Rx        0331 -  8    2E 44 42 50 28 4B D7 61
   759)     12449.177 1  Rx        011B -  7    70 7F BA 89 D5 8D B2
   760)     12449.647 1  Rx        006E -  7    BD 33 23 9F 86 14 A7
   761)     12450.201 1  Rx        0106 -  7    D7 69 3C E1 91 C7 3A
   762)     12450.756 1  Rx        0132 -  7    E7 C7 99 AB D3 EF 28
   763)     12451.396 1  Rx        0308 -  8    C6 9F EA 20 0E 1F 7A D5
   764)     12451.823 1  Rx        0206 -  7    01 00 41 F5 11 90 C9
   765)     12452.292 1  Rx        0212 -  7    05 02 99 A7 B4 41 49
   766)     12452.719 1  Rx        0222 -  8    CE 43 0F 11 85 66 D5 D5
   767)     12453.188 1  Rx        0459 -  8    DE F2 52 7B 9A 39 57 91
   768)     12453.700 1  Rx        0451 -  8    48 46 DB EC 7B 36 F9 36
   769)     12454.041 1  Rx        0441 -  8    BF 39 E7 1F 34 74 26 4F
   770)     12454.425 1  Rx    1AFB1C04 -  8    AA 90 F4 CA A8 98 05 23
   771)     12454.809 1  Rx    1AFB1C00 -  8    49 56 48 7E E1 52 BB 73
   772)     12455.151 1  Rx        0419 -  8    97 36 DD E4 AD 56 D4 2E
   773)     12538.136 1  Rx        033B -  8    7E 75 1C 1E 3B DD A1 6F
   774)     12538.648 1  Rx        0339 -  8    50 4E 00 54 D9 49 68 2A
   775)     12539.203 1  Rx        0337 -  7    30 C5 76 4C EB A8 FA
   776)     12539.757 1  Rx        001F -  5    27 1F 75 2D 53
   777)     12540.184 1  Rx        0333 -  4    1A 4F FC 5B
   778)     12540.653 1  Rx        0335 -  8    12 77 E2 E2 E9 27 0B 8C
   779)     12540.952 1  Rx        0121 -  4    27 08 A9 28
   780)     12541.592 1  Rx        067F -  8    B8 6B DF 01 97 04 7F 0D
   781)     12542.019 1  Rx        0681 -  8    54 67 44 31 02 86 00 84
   782)     12542.531 1  Rx        0309 -  8    ED CD 34 99 EB F3 DF 22
   783)     12543.000 1  Rx        030A -  8    C4 1D B3 0E D2 BC F2 76
   784)     12543.299 1  Rx        0622 -  6    3D 6E 06 15 CE C3
   785)     12543.597 1  Rx        0413 -  6    8A C6 E5 2B 9D C0
   786)     12543.768 1  Rx        0402 -  3    63 70 4C
   787)     12544.109 1  Rx        0739 -  8    36 34 B3 78 8B 16 FE AC
   788)     12544.408 1  Rx        0411 -  8    42 0B 82 21 64 CF 08 75
   789)     12544.707 1  Rx        0729 -  8    30 21 F0 73 BD 06 6F 36
   790)     12545.005 1  Rx        0728 -  8    27 78 05 80 2F 9A 8D 6A
   791)     12545.261 1  Rx        0709 -  8    20 F8 2E C4 F6 3A 90 D9
   792)     12545.517 1  Rx        0711 -  8    F4 DF B4 B1 99 3A 3A 81
   793)     12656.308 1  Rx        0332 -  8    D5 EF 01 A9 D5 20 54 76
   794)     12656.820 1  Rx        011A -  5    26 CA DA DF 15
   795)     12657.375 1  Rx        0331 -  8    2E CB A7 50 11 4B D7 61
   796)     12657.972 1  Rx        011B -  7    1B 94 BA C2 D5 9D 0A
   797)     12658.399 1  Rx        006E -  7    BD 33 23 9F 86 42 B3
   798)     12658.783 1  Rx        0106 -  7    46 69 3C E1 91 81 F0
   799)     12659.167 1  Rx        0132 -  7    E7 C7 99 D7 B9 EF 28
   800)     12659.551 1  Rx        0308 -  8    C6 D8 EA 20 0E 4F 29 67
   801)     12659.892 1  Rx        0206 -  7    01 FA 41 F5 11 5A 97
   802)     12660.191 1  Rx        0212 -  7    03 58 BD A7 B4 41 49
   803)     12660.575 1  Rx        0222 -  8    CE 43 5E 11 85 28 D5 F8
   804)     12660.874 1  Rx        0459 -  8    83 45 97 7B D9 39 C3 91
   805)     12661.215 1  Rx        0451 -  8    48 46 DB 65 7B 36 F9 36
   806)     12661.471 1  Rx        0441 -  8    BF 39 1D A0 34 74 26 4F
   807)     12661.812 1  Rx    1AFB1C04 -  8    AA 2F 06 2B 5E 68 6F 23
   808)     12662.196 1  Rx    1AFB1C00 -  8    49 56 52 D1 E0 52 0A 4B
   809)     12662.537 1  Rx        0419 -  8    97 36 FC 7C 83 56 DE 2E
   810)     12864.177 1  Rx        0332 -  8    6C EF 07 F8 DC 20 54 76
   811)     12864.817 1  Rx        011A -  5    D4 CA DA 28 15
   812)     12865.585 1  Rx        0331 -  8    2E CB 40 5C 2E 4B C2 C3
   813)     12866.310 1  Rx        011B -  7    E3 94 BA 2B 6E 9D 0A
   814)     12866.865 1  Rx        006E -  7    3A 7A 23 56 C6 BB B6
   815)     12867.462 1  Rx        0106 -  7    46 D1 C2 1A 34 62 6D
   816)     12867.974 1  Rx        0132 -  7    BA C7 91 D7 B9 EF 28
   817)     12868.572 1  Rx        0308 -  8    3B 3F EA CD 0E FC 84 3A
   818)     12869.084 1  Rx        0206 -  7    2D FA 2E 27 11 5A EB
   819)     12869.596 1  Rx        0212 -  7    03 58 42 A7 B4 41 49
   820)     12869.980 1  Rx        0222 -  8    8C 7B 5E 11 85 0D 29 F8
   821)     12870.492 1  Rx        0459 -  8    45 45 2D 7B D9 39 13 91
   822)     12870.876 1  Rx        0451 -  8    48 46 CE 33 67 36 F9 3E
   823)     12871.302 1  Rx        0441 -  8    BF 39 B6 AC 34 56 26 4F
   824)     12871.686 1  Rx    1AFB1C04 -  8    AA 2F 06 2B 5E DD 10 94
   825)     12872.070 1  Rx    1AFB1C00 -  8    49 40 A0 D1 10 41 7C 54
   826)     12872.412 1  Rx        0419 -  8    B3 49 49 86 59 56 DE 56
   827)     13073.880 1  Rx        0332 -  8    6C EF 07 4B 79 58 44 76
   828)     13074.392 1  Rx        011A -  5    D4 CA 17 28 15
   829)     13075.032 1  Rx        0331 -  8    4E 30 40 1E 85 4B 42 49
   830)     13075.630 1  Rx        011B -  7    E3 94 59 2B 6E 9D 33
   831)     13076.142 1  Rx        006E -  7    D8 81 23 59 C6 0A B6
   832)     13076.526 1  Rx        0106 -  7    46 D1 C2 1A 34 62 6D
   833)     13076.995 1  Rx        0132 -  7    14 C7 91 02 33 EF 28
   834)     13077.550 1  Rx        0308 -  8    3B 4C EA 9A 0E FC 84 EE
   835)     13078.019 1  Rx        0206 -  7    B6 F3 B4 43 85 E6 EB
   836)     13078.318 1  Rx        0212 -  7    E9 37 42 A1 C3 41 BF
   837)     13078.744 1  Rx        0222 -  8    8C 7B D9 EC E8 58 29 F8
   838)     13079.171 1  Rx        0459 -  8    16 19 2D 19 8D 1B 22 91
   839)     13079.470 1  Rx        0451 -  8    48 46 1E F0 22 EF EF 15
   840)     13079.768 1  Rx        0441 -  8    EE FC B6 AC 3B 99 42 4F
   841)     13080.024 1  Rx    1AFB1C04 -  8    AD 2F 06 2B 5E DD 10 14
   842)     13080.323 1  Rx    1AFB1C00 -  8    49 40 67 D1 10 41 47 7A
   843)     13080.579 1  Rx        0419 -  8    B3 49 49 A5 59 56 35 56
   844)     13281.834 1  Rx        0332 -  8    6C EF 07 4B 79 58 44 76
   845)     13282.432 1  Rx        011A -  5    D4 CA 36 DA 15
   846)     13282.986 1  Rx        0331 -  8    4E 30 40 1E 85 75 96 49
   847)     13283.584 1  Rx        011B -  7    28 0A E1 35 39 9D 3D
   848)     13284.096 1  Rx        006E -  7    6F 1B 23 59 A2 0A 4A
   849)     13284.650 1  Rx        0106 -  7    46 D1 C2 A5 34 62 CD
   850)     13285.162 1  Rx        0132 -  7    CA B2 55 02 33 EF BF
   851)     13285.674 1  Rx        0308 -  8    F0 C0 EA 9A ED 1E 7B EE
   852)     13286.144 1  Rx        0206 -  7    10 F3 B4 16 85 E6 A3
   853)     13286.826 1  Rx        0212 -  7    E9 EC 28 FA C3 41 F2
   854)     13287.125 1  Rx        0222 -  8    A1 7B 00 EC CD DA E0 F8
   855)     13287.509 1  Rx        0459 -  8    16 19 20 19 8F 94 22 2E
   856)     13288.021 1  Rx        0451 -  8    48 46 45 E7 22 EF EF EA
   857)     13288.448 1  Rx        0441 -  8    EE AA B6 74 3B 99 42 0C
   858)     13288.917 1  Rx    1AFB1C04 -  8    08 24 66 6D 5E DD 5B 96
   859)     13289.386 1  Rx    1AFB1C00 -  8    49 6E 67 CA AC 40 34 CE
   860)     13289.856 1  Rx        0419 -  8    B3 49 49 6A 59 56 35 0E
   861)     13490.130 1  Rx        0332 -  8    EA 9B 26 1E 80 A7 4C CE
   862)     13490.258 1  Rx        011A -  5    71 07 24 A5 90
   863)     13490.386 1  Rx        0331 -  8    B0 29 02 36 79 8B D3 B7
   864)     13490.514 1  Rx        011B -  7    5A 19 C7 56 E0 D0 B6
   865)     13490.642 1  Rx        006E -  7    EB 3A FB D6 18 05 7E
   866)     13490.770 1  Rx        0106 -  7    B4 38 05 68 07 A4 FE
   867)     13490.855 1  Rx        0132 -  7    F9 CC 72 67 BD 6F 7F
   868)     13491.026 1  Rx        0308 -  8    00 EC 99 1E 18 09 E0 AA
   869)     13491.111 1  Rx        0206 -  7    7E 92 76 8C 76 C8 96
   870)     13491.239 1  Rx        0212 -  7    F0 CC AB 42 8E EC 71
   871)     13491.367 1  Rx        0222 -  8    D2 C9 14 89 86 02 07 9B
   872)     13491.538 1  Rx        0459 -  8    05 87 2B 98 F1 80 C8 F2
   873)     13491.666 1  Rx        0451 -  8    8F 66 FF FA 93 55 68 36
   874)     13491.794 1  Rx        0441 -  8    24 C2 1C FB 07 3B 23 A5
   875)     13491.922 1  Rx    1AFB1C04 -  8    01 55 9C BA FF A4 67 59
   876)     13492.093 1  Rx    1AFB1C00 -  8    6A 83 20 6E 6B E8 02 7F
   877)     13492.221 1  Rx        0419 -  8    FA 44 F1 FD 94 1E F0 79
   878)     13547.132 1  Rx        033B -  8    7E 2E 1C 1E E7 DD A1 6F
   879)     13547.644 1  Rx        0339 -  8    50 4E 13 54 69 54 E5 43
   880)     13548.326 1  Rx        0337 -  7    71 C5 76 4C 53 E4 FA
   881)     13548.838 1  Rx        001F -  5    64 35 75 2A 53
   882)     13549.222 1  Rx        0333 -  4    1A 4F FC 5B
   883)     13549.777 1  Rx        0335 -  8    12 59 77 AB E9 83 17 3B
   884)     13550.118 1  Rx        0121 -  4    27 08 66 D1
   885)     13550.673 1  Rx        067F -  8    D2 6B 2D E4 97 53 AA 7B
   886)     13551.270 1  Rx        0681 -  8    54 BF FF 4E 02 99 6D 24
   887)     13551.740 1  Rx        0309 -  8    1B CD 34 CE EB 65 A1 A6
   888)     13552.124 1  Rx        030A -  8    C4 1D 22 B8 D2 BC F2 F6
   889)     13552.422 1  Rx        0622 -  6    3D 8E B1 CC CE 5A
   890)     13552.892 1  Rx        0413 -  6    8A 34 E5 2B 20 C0
   891)     13553.190 1  Rx        0402 -  3    63 AE 4C
   892)     13553.532 1  Rx        0739 -  8    04 34 68 78 B5 FF E7 58
   893)     13553.830 1  Rx        0411 -  8    C1 6F 82 05 64 9B 7E 75
   894)     13554.129 1  Rx        0729 -  8    30 21 B9 73 75 92 6F 36
   895)     13554.428 1  Rx        0728 -  8    47 87 05 94 2F BE D1 DC
   896)     13554.769 1  Rx        0709 -  8    20 21 CB F7 F6 E1 CE 0C
   897)     13555.068 1  Rx        0711 -  8    F4 5C B4 B1 07 3A 3A 81
   898)     13692.695 1  Rx        0332 -  8    EA 9B F4 CE B9 A7 49 0D
   899)     13693.250 1  Rx        011A -  5    A1 0F FC FE 90
   900)     13693.847 1  Rx        0331 -  8    B0 29 54 55 3C 8B 87 B7
   901)     13694.317 1  Rx        011B -  7    5A 19 B6 56 C5 D0 B6
   902)     13694.786 1  Rx        006E -  7    EB 3A FB 8B 18 05 7E
   903)     13695.213 1  Rx        0106 -  7    B4 38 C4 C6 07 A4 ED
   904)     13695.597 1  Rx        0132 -  7    F9 CC 72 4B BD 42 95
   905)     13696.066 1  Rx        0308 -  8    31 AF 05 74 91 09 4F AA
   906)     13696.407 1  Rx        0206 -  7    B8 92 76 8C A4 57 F1
   907)     13696.749 1  Rx        0212 -  7    69 CC AB 69 F3 D7 71
   908)     13697.218 1  Rx        0222 -  8    1C 6F FA E3 15 88 55 9B
   909)     13697.517 1  Rx        0459 -  8    C7 87 17 98 FE 04 C8 F2
   910)     13697.901 1  Rx        0451 -  8    D4 66 04 C9 22 CC 68 36
   911)     13698.199 1  Rx        0441 -  8    B2 C2 1C FB FB EF 23 F7
   912)     13698.583 1  Rx    1AFB1C04 -  8    01 F4 9C 52 FF A4 1A 59
   913)     13698.882 1  Rx    1AFB1C00 -  8    D4 83 20 6E 6B 1B 02 A6
   914)     13699.309 1  Rx        0419 -  8    FA 44 F1 FD EA 1E 62 79
   915)     13791.809 1  Rx        033A -  8    33 F5 9B 21 FB 9A B3 81
   916)     13792.406 1  Rx        0336 -  8    4C 27 2D 3E 95 B4 4A 4F
   917)     13793.046 1  Rx        0334 -  8    BA 66 FE 70 B8 48 73 63
   918)     13793.558 1  Rx        06DD -  8    19 36 5C 02 13 9E 31 13
   919)     13793.942 1  Rx        0799 -  8    18 0C D2 F3 5A CC 90 0E
   920)     13900.180 1  Rx        0332 -  8    CC 9B F4 11 28 76 49 0D
   921)     13900.735 1  Rx        011A -  5    F0 82 47 FE 90
   922)     13901.375 1  Rx        0331 -  8    B0 29 40 55 C6 75 7D D1
   923)     13902.015 1  Rx        011B -  7    D3 30 15 4A C5 D0 7C
   924)     13902.441 1  Rx        006E -  7    00 3A FB 59 18 D3 DF
   925)     13902.868 1  Rx        0106 -  7    B4 0C C4 F9 07 BE B2
   926)     13903.252 1  Rx        0132 -  7    C4 32 72 4B BD 42 11
   927)     13903.679 1  Rx        0308 -  8    31 4C 91 06 91 4E 4B AA
   928)     13903.977 1  Rx        0206 -  7    7E 92 C3 8C EE 57 F1
   929)     13904.191 1  Rx        0212 -  7    DA CC AB 69 19 1E 1A
   930)     13904.532 1  Rx        0222 -  8    6A 6F 80 A8 15 C8 3A 4C
   931)     13904.788 1  Rx        0459 -  8    59 87 FC 98 FE 04 60 F2
   932)     13905.044 1  Rx        0451 -  8    E4 66 04 72 1E FA DD C1
   933)     13905.343 1  Rx        0441 -  8    B2 70 40 F6 FB EF 23 F7
   934)     13905.641 1  Rx    1AFB1C04 -  8    01 43 9C FA FF A4 1A 56
   935)     13905.940 1  Rx    1AFB1C00 -  8    D4 83 20 6E 6B 25 B7 E2
   936)     13906.196 1  Rx        0419 -  8    FA 69 F1 FD 93 1E 1D 79
   937)     14108.006 1  Rx        0332 -  8    E1 FA F4 11 28 76 E0 7E
   938)     14108.646 1  Rx        011A -  5    38 82 47 FE E6
   939)     14109.414 1  Rx        0331 -  8    B0 D2 19 74 C6 D5 FB 23
   940)     14110.097 1  Rx        011B -  7    D3 52 59 4A 98 A5 1E
   941)     14110.780 1  Rx        006E -  7    B9 51 59 59 73 D3 BC
   942)     14111.462 1  Rx        0106 -  7    FE 0C F7 8E B4 67 B2
   943)     14111.889 1  Rx        0132 -  7    C4 4B 72 4B BC 42 11
   944)     14112.444 1  Rx        0308 -  8    5E 4C 91 06 D9 D2 10 AA
   945)     14112.870 1  Rx        0206 -  7    7E 5E C3 8C EE 57 F1
   946)     14113.254 1  Rx        0212 -  7    F6 A8 F9 41 21 EB A4
   947)     14113.766 1  Rx        0222 -  8    6A 6F 80 FA 8F D5 24 4C
   948)     14114.193 1  Rx        0459 -  8    7F EF FC 98 D5 DC 60 F2
   949)     14114.662 1  Rx        0451 -  8    E4 78 04 75 E6 E4 A7 8D
   950)     14115.174 1  Rx        0441 -  8    77 70 40 F6 50 95 12 F7
   951)     14115.558 1  Rx    1AFB1C04 -  8    01 43 9C 30 59 27 5B EF
   952)     14115.899 1  Rx    1AFB1C00 -  8    D4 83 20 6E F1 25 58 E2
   953)     14116.198 1  Rx        0419 -  8    9F BB F1 FD 93 1E 1D 15
   954)     14317.966 1  Rx        0332 -  8    55 C1 33 0A 70 65 24 83
   955)     14318.734 1  Rx        011A -  5    38 82 47 C9 E6
   956)     14319.416 1  Rx        0331 -  8    AC D2 19 BB 3B D5 51 23
   957)     14319.928 1  Rx        011B -  7    78 4F 59 4A 98 4F 1E
   958)     14320.440 1  Rx        006E -  7    4C 7E 59 59 73 D3 97
   959)     14320.910 1  Rx        0106 -  7    7C 0C A2 8E B4 CE 5E
   960)     14321.379 1  Rx        0132 -  7    1B 80 A5 05 46 42 11
   961)     14321.848 1  Rx        0308 -  8    45 5D 61 A1 12 D2 10 AA
   962)     14322.318 1  Rx        0206 -  7    7E C8 1D 8C EE 61 D7
   963)     14322.744 1  Rx        0212 -  7    55 A8 F7 41 0A EB DD
   964)     14323.171 1  Rx        0222 -  8    6A 63 23 A6 8F D5 DB 4C
   965)     14323.683 1  Rx        0459 -  8    7F EF FC 99 59 DC 60 F2
   966)     14323.982 1  Rx        0451 -  8    8C 62 E3 75 DD E4 FB D0
   967)     14324.366 1  Rx        0441 -  8    77 77 40 F6 50 C0 BF BE
   968)     14324.750 1  Rx    1AFB1C04 -  8    01 43 A4 D4 59 27 9B EF
   969)     14325.006 1  Rx    1AFB1C00 -  8    D4 83 20 6E 91 D0 F5 E2
   970)     14325.262 1  Rx        0419 -  8    CC 88 0B A1 93 23 1D 15
   971)     14527.072 1  Rx        0332 -  8    BD CB 6F 13 74 65 24 2E
   972)     14527.669 1  Rx        011A -  5    05 53 4F C9 1E
   973)     14528.224 1  Rx        0331 -  8    AC 89 19 0F 3B D2 83 E2
   974)     14528.778 1  Rx        011B -  7    17 4F 59 C3 42 F3 E1
   975)     14529.546 1  Rx        006E -  7    4C ED 4F 10 73 20 92
   976)     14530.144 1  Rx        0106 -  7    79 0C 56 66 54 81 46
   977)     14530.570 1  Rx        0132 -  7    1B BB A5 2D D7 42 43
   978)     14531.082 1  Rx        0308 -  8    5A 5D 61 A1 12 D2 56 D8
   979)     14531.552 1  Rx        0206 -  7    7E 1F FF 61 09 C4 D7
   980)     14531.936 1  Rx        0212 -  7    4F A8 11 41 0A 4F E3
   981)     14532.277 1  Rx        0222 -  8    ED 63 EA 69 8F 9D 76 4C
   982)     14532.661 1  Rx        0459 -  8    7F EF EC 48 4F 03 2A F2
   983)     14532.960 1  Rx        0451 -  8    C1 4B 64 75 98 6D FB D0
   984)     14533.301 1  Rx        0441 -  8    60 DB 40 F6 06 8A BF C3
   985)     14533.600 1  Rx    1AFB1C04 -  8    25 E6 52 D4 59 27 48 1A
   986)     14533.898 1  Rx    1AFB1C00 -  8    45 83 D5 BC FB D0 1E E2
   987)     14534.154 1  Rx        0419 -  8    CC 8A A9 A1 E2 FC 1D F5
   988)     14556.383 1  Rx        033B -  8    7D 2E 1C 8B E7 92 60 6F
   989)     14557.023 1  Rx        0339 -  8    50 3B 13 D3 69 DD 83 5F
   990)     14557.578 1  Rx        0337 -  7    B8 E5 76 4C 53 F0 FA
   991)     14558.047 1  Rx        001F -  5    64 61 75 FE 53
   992)     14558.431 1  Rx        0333 -  4    1A 22 45 5B
   993)     14558.858 1  Rx        0335 -  8    17 08 8C AB 37 17 17 68
   994)     14559.114 1  Rx        0121 -  4    C3 08 66 E7
   995)     14559.626 1  Rx        067F -  8    AC D3 A8 3F 97 2A AA 79
   996)     14559.967 1  Rx        0681 -  8    54 66 90 02 02 BB 6D 88
   997)     14560.266 1  Rx        0309 -  8    1B CD CC 06 D9 65 A1 A6
   998)     14560.565 1  Rx        030A -  8    E6 9F 66 E8 D2 EA 1C 0E
   999)     14560.906 1  Rx        0622 -  6    E1 A7 B1 24 CE D4
  1000)     14561.375 1  Rx        0413 -  6    36 A9 E5 67 D2 35
  1001)     14561.588 1  Rx        0402 -  3    63 AE 4C
  1002)     14561.887 1  Rx        0739 -  8    04 34 68 78 B5 FF E7 26
  1003)     14562.186 1  Rx        0411 -  8    1C 62 82 05 48 DE E6 7D
  1004)     14562.442 1  Rx        0729 -  8    D5 21 CA 73 EB 92 6F 36
  1005)     14562.740 1  Rx        0728 -  8    94 17 74 94 32 FB D1 DC
  1006)     14562.954 1  Rx        0709 -  8    20 32 CB B3 F6 6B CE 40
  1007)     14563.252 1  Rx        0711 -  8    F4 57 32 69 FF 3A D3 81
  1008)     14735.824 1  Rx        0332 -  8    6C EC 6F 30 45 65 24 68
  1009)     14736.336 1  Rx        011A -  5    05 53 82 C9 1E
  1010)     14736.848 1  Rx        0331 -  8    81 89 79 21 3B D2 83 DA
  1011)     14737.445 1  Rx        011B -  7    17 F5 C3 C3 1E F1 00
  1012)     14737.957 1  Rx        006E -  7    80 ED 4F 10 0A 20 DF
  1013)     14738.384 1  Rx        0106 -  7    A7 67 56 55 54 C3 DB
  1014)     14738.768 1  Rx        0132 -  7    C2 89 A5 2D D7 42 A2
  1015)     14739.194 1  Rx        0308 -  8    5A CC 9A CF CC D2 9A 43
  1016)     14739.493 1  Rx        0206 -  7    7E 1F FF A7 09 C4 D7
  1017)     14739.834 1  Rx        0212 -  7    4F A8 11 41 0A 4F DB
  1018)     14740.133 1  Rx        0222 -  8    ED BF DB 69 8F 9D 94 7F
  1019)     14740.432 1  Rx        0459 -  8    7F 0D EC 62 4F 03 2A 5C
  1020)     14740.730 1  Rx        0451 -  8    C1 4B 64 75 F3 81 1C 31
  1021)     14741.029 1  Rx        0441 -  8    3D 07 40 F6 CC 86 BF C3
  1022)     14741.285 1  Rx    1AFB1C04 -  8    25 EA E5 5F 10 27 48 1A
  1023)     14741.584 1  Rx    1AFB1C00 -  8    F1 83 E0 6B FB 6F 1E E2
  1024)     14741.882 1  Rx        0419 -  8    94 8A A9 A1 E2 25 03 BD
  1025)     14942.882 1  Rx        0332 -  8    28 03 6F 65 15 65 24 43
  1026)     14943.437 1  Rx        011A -  5    14 53 82 C9 01
  1027)     14944.034 1  Rx        0331 -  8    81 89 61 21 05 D2 83 46
  1028)     14944.589 1  Rx        011B -  7    1B F5 C3 AA 9F F1 00
  1029)     14945.015 1  Rx        006E -  7    28 32 4F 53 0A 20 DF
  1030)     14945.442 1  Rx        0106 -  7    A7 B5 56 3D 2E C3 DB
  1031)     14945.826 1  Rx        0132 -  7    69 89 A5 2D D7 42 65
  1032)     14946.252 1  Rx        0308 -  8    11 0F 9A CF CC 9E 9A B6
  1033)     14946.636 1  Rx        0206 -  7    0D 96 FF A7 09 ED D7
  1034)     14947.063 1  Rx        0212 -  7    4F A8 2F C9 8F 4F DB
  1035)     14947.575 1  Rx        0222 -  8    ED BF 25 69 39 9D F4 1B
  1036)     14948.002 1  Rx        0459 -  8    F2 0D EC A9 4C 03 DD 5C
  1037)     14948.300 1  Rx        0451 -  8    01 4B 64 75 BC 81 1C 84
  1038)     14948.642 1  Rx        0441 -  8    3D 07 40 C3 CC 86 C5 BF
  1039)     14948.940 1  Rx    1AFB1C04 -  8    25 EA E5 5F 92 00 48 2E
  1040)     14949.196 1  Rx    1AFB1C00 -  8    F1 DA E0 58 FB 6F FE E5
  1041)     14949.452 1  Rx        0419 -  8    D4 10 A9 9A E2 25 1D BD
  1042)     15150.708 1  Rx        0332 -  8    28 03 19 65 15 65 24 EE
  1043)     15151.348 1  Rx        011A -  5    14 2E 17 C9 01
  1044)     15151.988 1  Rx        0331 -  8    81 89 61 21 D2 87 51 E9
  1045)     15152.500 1  Rx        011B -  7    20 F5 C3 AA 9F C6 00
  1046)     15153.055 1  Rx        006E -  7    28 32 5E EF 0A 20 DF
  1047)     15153.439 1  Rx        0106 -  7    8B B5 56 83 97 C3 55
  1048)     15153.865 1  Rx        0132 -  7    E6 F2 41 BC D7 DA 25
  1049)     15154.292 1  Rx        0308 -  8    45 0F 81 AC C3 9E 1E B6
  1050)     15154.719 1  Rx        0206 -  7    78 5B AB 0C 0B ED D7
  1051)     15155.188 1  Rx        0212 -  7    A6 A8 4D C9 8F 5F DC
  1052)     15155.657 1  Rx        0222 -  8    51 BF F1 BD 25 9D F4 1B
  1053)     15155.999 1  Rx        0459 -  8    F2 BA 8D EB 2B 03 66 1F
  1054)     15156.340 1  Rx        0451 -  8    E4 02 7E 38 BC 81 BC 2C
  1055)     15156.767 1  Rx        0441 -  8    2A 07 E0 5E CC 7C C5 47
  1056)     15157.065 1  Rx    1AFB1C04 -  8    25 EA 37 09 92 29 48 2E
  1057)     15157.449 1  Rx    1AFB1C00 -  8    F1 DA E0 42 FB A8 76 D1
  1058)     15157.705 1  Rx        0419 -  8    18 10 69 9A 4C 25 1D 4E
  1059)     15358.747 1  Rx        0332 -  8    28 A7 1F 65 15 4E 24 EE
  1060)     15359.473 1  Rx        011A -  5    DC 84 9E C9 27
  1061)     15360.369 1  Rx        0331 -  8    81 89 61 21 FC 59 51 52
  1062)     15361.009 1  Rx        011B -  7    20 DB 51 52 0F C6 6B
  1063)     15361.521 1  Rx        006E -  7    A9 C0 5E DD 43 01 DF
  1064)     15362.075 1  Rx        0106 -  7    8B B5 56 4C 13 28 55
  1065)     15362.545 1  Rx        0132 -  7    E6 25 41 BC 92 DA A9
  1066)     15363.099 1  Rx        0308 -  8    45 0F DF AC C3 0D BE B6
  1067)     15363.739 1  Rx        0206 -  7    62 5B 13 C0 82 9E D7
  1068)     15364.550 1  Rx        0212 -  7    A6 60 FF C9 8F 23 95
  1069)     15365.019 1  Rx        0222 -  8    5C BF 29 58 FE CE DF 1B
  1070)     15365.489 1  Rx        0459 -  8    F2 59 8D 61 2B 03 66 CB
  1071)     15365.915 1  Rx        0451 -  8    E4 02 7E 38 BC 03 87 62
  1072)     15366.214 1  Rx        0441 -  8    4A 07 E0 5E 86 6B 24 47
  1073)     15366.555 1  Rx    1AFB1C04 -  8    97 EA 37 09 92 29 51 2E
  1074)     15366.854 1  Rx    1AFB1C00 -  8    D7 48 B9 42 FB A8 76 D1
  1075)     15367.153 1  Rx        0419 -  8    78 9A EA 9A 4C D1 50 4E
  1076)     15563.971 1  Rx        033B -  8    EC 7F 9D D8 CE 18 E3 7A
  1077)     15564.099 1  Rx        0339 -  8    4B 3D FE 57 C7 B0 4F FD
  1078)     15564.227 1  Rx        0337 -  7    47 4F D7 35 3A 85 1B
  1079)     15564.312 1  Rx        001F -  5    C5 71 C2 02 A4
  1080)     15564.440 1  Rx        0333 -  4    3E 29 40 9C
  1081)     15564.568 1  Rx        0335 -  8    57 2A 4E 02 8E 4B 50 25
  1082)     15564.653 1  Rx        0121 -  4    FF 17 7E F8
  1083)     15564.781 1  Rx        067F -  8    C3 65 76 43 B5 4B 62 06
  1084)     15564.909 1  Rx        0681 -  8    04 C5 AD 5E 50 22 93 C9
  1085)     15565.037 1  Rx        0309 -  8    61 67 D1 88 AF C2 21 91
  1086)     15565.165 1  Rx        030A -  8    28 E8 4C 75 53 3B 4F 96
  1087)     15565.336 1  Rx        0622 -  6    16 00 D8 7E 38 5F
  1088)     15565.464 1  Rx        0413 -  6    F3 58 97 D7 35 EE
  1089)     15565.549 1  Rx        0402 -  3    EA 64 C9
  1090)     15565.677 1  Rx        0739 -  8    EA 9D 35 20 AF 2C 12 CE
  1091)     15565.805 1  Rx        0411 -  8    8A CF 7D 43 BE C0 06 DC
  1092)     15565.933 1  Rx        0729 -  8    EF 1D 42 50 70 B2 45 9A
  1093)     15566.061 1  Rx        0728 -  8    8E 4C CB DD F1 C4 09 99
  1094)     15566.189 1  Rx        0709 -  8    0C 5B 43 4D 43 98 B9 00
  1095)     15566.360 1  Rx        0711 -  8    A8 F0 E3 AC 90 B6 58 26
  1096)     15567.683 1  Rx        0332 -  8    7B E6 33 B4 CB 4C 8B 48
  1097)     15567.811 1  Rx        011A -  5    F5 8B 84 A8 05
  1098)     15567.939 1  Rx        0331 -  8    61 81 F6 DA E8 F3 63 6D
  1099)     15568.067 1  Rx        011B -  7    8A 9A E5 C6 8F 53 96
  1100)     15568.195 1  Rx        006E -  7    C9 55 B5 5E 33 BE 25
  1101)     15568.323 1  Rx        0106 -  7    38 88 1B FB 8F 55 BA
  1102)     15568.451 1  Rx        0132 -  7    B1 2E EE 55 24 43 87
  1103)     15568.579 1  Rx        0308 -  8    71 9A 3C 88 84 F6 4C 26
  1104)     15568.707 1  Rx        0206 -  7    BB 94 04 E4 BD 56 84
  1105)     15568.835 1  Rx        0212 -  7    82 DA A6 DB 50 ED F6
  1106)     15568.963 1  Rx        0222 -  8    8C 3B 9E 25 09 B6 E1 04
  1107)     15569.091 1  Rx        0459 -  8    DE 65 03 59 B4 25 41 BC
  1108)     15569.219 1  Rx        0451 -  8    4D 76 9F 5A A3 32 EB 28
  1109)     15569.347 1  Rx        0441 -  8    48 AB 48 70 05 70 65 7D
  1110)     15569.517 1  Rx    1AFB1C04 -  8    20 E4 49 12 07 A2 F9 2D
  1111)     15569.688 1  Rx    1AFB1C00 -  8    FA 3C F9 00 48 74 0B CE
  1112)     15569.816 1  Rx        0419 -  8    8B 5A 2A 21 4B AF 98 89
  1113)     15770.419 1  Rx        0332 -  8    7B 82 80 B4 CB BF 0E 48
  1114)     15771.059 1  Rx        011A -  5    BF 1C D7 39 8C
  1115)     15771.656 1  Rx        0331 -  8    61 81 F6 F2 E8 F3 54 6D
  1116)     15772.467 1  Rx        011B -  7    88 C4 E5 C6 D8 49 29
  1117)     15773.064 1  Rx        006E -  7    23 55 85 E8 1C C8 25
  1118)     15773.747 1  Rx        0106 -  7    38 88 BE DE 75 55 BA
  1119)     15774.430 1  Rx        0132 -  7    B1 29 04 55 24 43 87
  1120)     15774.942 1  Rx        0308 -  8    77 E1 3C 88 84 54 9C 26
  1121)     15775.454 1  Rx        0206 -  7    BB 94 94 E4 BD 33 84
  1122)     15776.051 1  Rx        0212 -  7    82 01 3F DB 50 ED 6F
  1123)     15776.520 1  Rx        0222 -  8    8C 3B 67 82 09 B6 E1 04
  1124)     15776.989 1  Rx        0459 -  8    DE B0 03 19 6F 25 4A 68
  1125)     15777.331 1  Rx        0451 -  8    4D 76 9F 5A A3 32 EB 28
  1126)     15777.672 1  Rx        0441 -  8    6E 37 10 42 05 73 65 7D
  1127)     15777.928 1  Rx    1AFB1C04 -  8    20 F4 49 F9 88 A2 F9 2D
  1128)     15778.269 1  Rx    1AFB1C00 -  8    FA 3C F9 00 55 1D 49 CE
  1129)     15778.568 1  Rx        0419 -  8    4B 5A 2A E8 F2 51 98 8F
  1130)     15795.549 1  Rx        033A -  8    5A F5 FC 21 FB D2 B3 81
  1131)     15796.403 1  Rx        0336 -  8    E6 47 2D 9A 95 B4 4A A9
  1132)     15797.171 1  Rx        0334 -  8    9B 66 5F AD B8 48 73 7E
  1133)     15797.853 1  Rx        06DD -  8    19 73 7C 02 13 9E 31 45
  1134)     15798.493 1  Rx        0799 -  8    18 5C D2 F3 5A E5 90 0E
  1135)     15979.738 1  Rx        0332 -  8    86 2D 80 B4 7A 2A 0E 8B
  1136)     15980.250 1  Rx        011A -  5    3C 1C D7 ED 38
  1137)     15980.890 1  Rx        0331 -  8    61 81 22 F2 AA ED 54 16
  1138)     15981.488 1  Rx        011B -  7    6F 83 BD C6 D8 49 95
  1139)     15982.085 1  Rx        006E -  7    23 55 85 0F 1C B7 25
  1140)     15982.554 1  Rx        0106 -  7    38 88 DC E4 31 55 3A
  1141)     15983.024 1  Rx        0132 -  7    7D 15 04 7E 24 43 8E
  1142)     15983.493 1  Rx        0308 -  8    77 E1 DE B9 84 6C 9C 26
  1143)     15983.877 1  Rx        0206 -  7    1F 94 49 E4 0F 7F F1
  1144)     15984.261 1  Rx        0212 -  7    F4 38 7A 5E D7 ED EF
  1145)     15984.773 1  Rx        0222 -  8    27 92 67 82 09 0D 9E 04
  1146)     15985.242 1  Rx        0459 -  8    9A B0 03 19 6F 25 4A E4
  1147)     15985.584 1  Rx        0451 -  8    0B 76 C1 5A A3 4B EB 28
  1148)     15985.840 1  Rx        0441 -  8    6E 37 10 89 05 2B 65 7D
  1149)     15986.266 1  Rx    1AFB1C04 -  8    20 AC 49 B3 88 A2 F9 0F
  1150)     15986.608 1  Rx    1AFB1C00 -  8    FA DA 91 9A 55 2A 49 CE
  1151)     15986.864 1  Rx        0419 -  8    4B 8D 6B E8 F2 51 55 8F
  1152)     16188.631 1  Rx        0332 -  8    DD 2D 3C 04 7A 11 0E 8B
  1153)     16189.186 1  Rx        011A -  5    FE 1C D7 ED B4
  1154)     16189.826 1  Rx        0331 -  8    61 5B 22 A5 AA ED 18 3B
  1155)     16190.423 1  Rx        011B -  7    6F 83 BD B2 D8 66 95
  1156)     16190.892 1  Rx        006E -  7    50 08 3D 0F 1C DE 69
  1157)     16191.362 1  Rx        0106 -  7    38 88 63 47 31 55 C1
  1158)     16191.874 1  Rx        0132 -  7    DF EE 04 7E 6D 43 19
  1159)     16192.343 1  Rx        0308 -  8    77 A9 DB D8 2C 6C 9C 1F
  1160)     16192.727 1  Rx        0206 -  7    7A D5 1E E4 0F 43 39
  1161)     16193.154 1  Rx        0212 -  7    F4 38 7A 5E 66 4C 94
  1162)     16193.623 1  Rx        0222 -  8    9E 0D 67 82 41 76 9E BC
  1163)     16194.007 1  Rx        0459 -  8    9A B0 7F 19 3B 25 9A 1C
  1164)     16194.348 1  Rx        0451 -  8    0D C1 C1 5A A3 4B 60 BA
  1165)     16194.647 1  Rx        0441 -  8    60 37 10 9E 05 2B 65 7D
  1166)     16194.903 1  Rx    1AFB1C04 -  8    45 47 1E B3 84 A2 F9 0F
  1167)     16195.202 1  Rx    1AFB1C00 -  8    FA DA 91 44 55 D9 49 CE
  1168)     16195.415 1  Rx        0419 -  8    4B 8D 6B 09 0A 69 F9 66
  1169)     16396.628 1  Rx        0332 -  8    D3 2D 36 04 7A 11 0E 72
  1170)     16397.268 1  Rx        011A -  5    E7 1C 73 ED 7F
  1171)     16397.950 1  Rx        0331 -  8    13 06 22 A5 AA F9 95 19
  1172)     16398.718 1  Rx        011B -  7    6F 83 BD B2 92 66 95
  1173)     16399.401 1  Rx        006E -  7    54 08 D0 0F 47 DE D6
  1174)     16399.870 1  Rx        0106 -  7    6E E8 63 47 DD 43 26
  1175)     16400.340 1  Rx        0132 -  7    5F A3 F8 7E 6D 3E 19
  1176)     16401.065 1  Rx        0308 -  8    38 A9 DB D8 94 3E 77 1F
  1177)     16401.534 1  Rx        0206 -  7    2C 8F 1E E4 FB 43 39
  1178)     16401.961 1  Rx        0212 -  7    21 B6 7A 5E B3 4C E7
  1179)     16402.430 1  Rx        0222 -  8    9E E0 E1 30 2E 80 9A BC
  1180)     16402.900 1  Rx        0459 -  8    9A B0 7F 19 3B 8B 2F 1C
  1181)     16403.412 1  Rx        0451 -  8    0D C1 23 5A 80 9D B7 08
  1182)     16403.753 1  Rx        0441 -  8    60 37 FB 9E 05 FD 65 7D
  1183)     16404.222 1  Rx    1AFB1C04 -  8    37 47 1E B3 84 B1 F9 F7
  1184)     16404.564 1  Rx    1AFB1C00 -  8    FA DA 91 44 55 D9 49 94
  1185)     16404.905 1  Rx        0419 -  8    62 8D DF 09 95 69 F9 24
  1186)     16566.396 1  Rx        033B -  8    EC 13 B0 82 3F 1E D3 7A
  1187)     16566.950 1  Rx        0339 -  8    6E D0 82 22 38 B0 5E 95
  1188)     16567.590 1  Rx        0337 -  7    47 4F 2E B4 3A 40 6A
  1189)     16568.145 1  Rx        001F -  5    C5 71 C2 F5 A4
  1190)     16568.700 1  Rx        0333 -  4    3E 18 40 9C
  1191)     16569.254 1  Rx        0335 -  8    57 2A 22 9D 8E 84 17 25
  1192)     16569.596 1  Rx        0121 -  4    FF 77 B7 F8
  1193)     16570.108 1  Rx        067F -  8    21 BA 76 80 B5 06 1F 68
  1194)     16570.577 1  Rx        0681 -  8    04 C5 AD 5E 41 D0 93 C9
  1195)     16570.961 1  Rx        0309 -  8    61 58 D1 55 AF C2 DE 7C
  1196)     16571.260 1  Rx        030A -  8    32 E8 4C 2C 28 3B 58 96
  1197)     16571.644 1  Rx        0622 -  6    16 00 D8 7E 38 5F
  1198)     16571.942 1  Rx        0413 -  6    F3 1C 97 D7 35 A6
  1199)     16572.156 1  Rx        0402 -  3    EA 64 7E
  1200)     16572.497 1  Rx        0739 -  8    B6 BA 35 20 AF 2C 9F EF
  1201)     16572.753 1  Rx        0411 -  8    8A CF 56 43 BE C5 06 6D
  1202)     16573.052 1  Rx        0729 -  8    EF 1D 42 3F 70 B2 45 9A
  1203)     16573.393 1  Rx        0728 -  8    8E 27 D1 DD F1 A2 09 C9
  1204)     16573.606 1  Rx        0709 -  8    0C 5B 43 4D F6 83 B9 00
  1205)     16573.862 1  Rx        0711 -  8    A8 F0 9B AC 90 B6 58 26
  1206)     16606.331 1  Rx        0332 -  8    F6 2D A1 9B 09 C1 0E 69
  1207)     16606.929 1  Rx        011A -  5    0C 1C 73 AE CB
  1208)     16607.483 1  Rx        0331 -  8    D5 2C 22 10 AA F9 95 EE
  1209)     16608.038 1  Rx        011B -  7    6F 83 DC B2 67 A1 95
  1210)     16608.465 1  Rx        006E -  7    54 A5 3F 0F 47 DE AF
  1211)     16608.934 1  Rx        0106 -  7    0E 84 63 D1 DD 43 EE
  1212)     16609.446 1  Rx        0132 -  7    CB A3 9B E5 B8 25 BB
  1213)     16610.128 1  Rx        0308 -  8    C7 A9 59 D8 DF E2 E2 6E
  1214)     16610.512 1  Rx        0206 -  7    54 C7 E0 E4 98 43 77
  1215)     16610.939 1  Rx        0212 -  7    21 B6 D8 B8 B3 4C A9
  1216)     16611.366 1  Rx        0222 -  8    9E E0 F1 30 5E 80 9A A8
  1217)     16611.707 1  Rx        0459 -  8    9A 74 7F D4 0F 8B 99 1C
  1218)     16612.176 1  Rx        0451 -  8    0D EC B9 5A F7 9D B7 A8
  1219)     16612.518 1  Rx        0441 -  8    EF 9A A7 13 05 6C 6F 7D
  1220)     16612.859 1  Rx    1AFB1C04 -  8    01 E2 A4 79 84 2D 46 F7
  1221)     16613.200 1  Rx    1AFB1C00 -  8    FA DA 91 44 55 D9 EA 94
  1222)     16613.456 1  Rx        0419 -  8    62 8D BE 09 95 96 1A 44
  1223)     16814.699 1  Rx        0332 -  8    F6 B3 6C 35 09 C1 8B 69
  1224)     16815.297 1  Rx        011A -  5    0C 1C D0 D6 CB
  1225)     16816.022 1  Rx        0331 -  8    7F 2C FB E8 AA F9 95 CB
  1226)     16816.662 1  Rx        011B -  7    6F 83 DC 20 94 C5 3B
  1227)     16817.217 1  Rx        006E -  7    54 64 4E 2E 2C D2 AE
  1228)     16817.729 1  Rx        0106 -  7    0E 84 63 D1 DD 08 EE
  1229)     16818.283 1  Rx        0132 -  7    CB 56 9B E5 B7 25 BB
  1230)     16818.838 1  Rx        0308 -  8    FA A9 59 2F CD 8E E2 00
  1231)     16819.222 1  Rx        0206 -  7    54 54 12 E4 49 43 77
  1232)     16819.563 1  Rx        0212 -  7    21 B6 86 B8 B3 4C 56
  1233)     16820.161 1  Rx        0222 -  8    9E 32 F1 30 44 80 08 A8
  1234)     16820.587 1  Rx        0459 -  8    9A B9 09 53 0C 86 2B 1C
  1235)     16821.099 1  Rx        0451 -  8    0D EC B9 5A F7 9D B7 A8
  1236)     16821.526 1  Rx        0441 -  8    EF 9A A7 EB C0 B2 6F 56
  1237)     16821.953 1  Rx    1AFB1C04 -  8    C7 E2 A4 D9 8B 15 46 F7
  1238)     16822.550 1  Rx    1AFB1C00 -  8    FA F8 B1 44 55 86 EA CB
  1239)     16823.062 1  Rx        0419 -  8    1E 77 E3 09 09 51 1A B9
  1240)     17024.061 1  Rx        0332 -  8    F6 B3 7A 7E 09 C1 6E 69
  1241)     17024.659 1  Rx        011A -  5    78 1C D0 D6 83
  1242)     17025.256 1  Rx        0331 -  8    02 2C 82 E8 0B A7 D3 33
  1243)     17025.640 1  Rx        011B -  7    6F 00 DC F3 94 4E 70
  1244)     17026.067 1  Rx        006E -  7    57 DE 4E 2E 2C A8 04
  1245)     17026.536 1  Rx        0106 -  7    0E 84 63 D1 DD 87 99
  1246)     17026.920 1  Rx        0132 -  7    CB 56 9B 0A BA 25 BB
  1247)     17027.432 1  Rx        0308 -  8    FA BC 59 2F 6B 8E E2 00
  1248)     17027.816 1  Rx        0206 -  7    AD F7 12 0D 1A A8 77
  1249)     17028.029 1  Rx        0212 -  7    21 BA 86 4B B3 4C 56
  1250)     17028.371 1  Rx        0222 -  8    52 32 F1 30 44 80 08 DD
  1251)     17028.627 1  Rx        0459 -  8    2C B9 09 53 5F 86 2B 1C
  1252)     17029.053 1  Rx        0451 -  8    1F EC 3D 5A 55 9D 1D A8
  1253)     17029.437 1  Rx        0441 -  8    EF 9A 16 93 C0 B2 6F 94
  1254)     17029.821 1  Rx    1AFB1C04 -  8    A2 E2 A4 D9 8B 15 46 51
  1255)     17030.205 1  Rx    1AFB1C00 -  8    E1 F8 B1 44 55 86 EA A0
  1256)     17030.504 1  Rx        0419 -  8    A6 A9 FD 45 67 08 FE 13
  1257)     17232.271 1  Rx        0332 -  8    75 B3 FC 7E E3 C1 6E DD
  1258)     17232.826 1  Rx        011A -  5    78 1C F9 D6 4A
  1259)     17233.509 1  Rx        0331 -  8    41 A9 D8 E8 0B A7 52 33
  1260)     17234.277 1  Rx        011B -  7    6F 00 18 F3 94 58 70
  1261)     17234.959 1  Rx        006E -  7    57 DE 4E BC 2C DA 04
  1262)     17235.429 1  Rx        0106 -  7    0E 84 63 D1 17 94 99
  1263)     17235.813 1  Rx        0132 -  7    CB 56 9B 0A BA 25 6D
  1264)     17236.239 1  Rx        0308 -  8    FA 63 9D BF 6B 32 D6 00
  1265)     17236.538 1  Rx        0206 -  7    F6 96 80 82 57 F2 37
  1266)     17236.837 1  Rx        0212 -  7    21 50 86 4B B3 4C 56
  1267)     17237.178 1  Rx        0222 -  8    AD CC F1 30 00 C9 08 DD
  1268)     17237.477 1  Rx        0459 -  8    AA B9 B8 53 5F 09 4F 1C
  1269)     17237.775 1  Rx        0451 -  8    1F 1C 93 5A 55 9D 1D A8
  1270)     17238.074 1  Rx        0441 -  8    C3 F9 99 5C C0 B2 70 94
  1271)     17238.458 1  Rx    1AFB1C04 -  8    A2 BA B6 EC 12 15 A0 EC
  1272)     17238.757 1  Rx    1AFB1C00 -  8    00 F8 B1 80 82 AF EA A7
  1273)     17238.970 1  Rx        0419 -  8    A6 A9 FD 36 67 08 FE 13
  1274)     17440.098 1  Rx        0332 -  8    A9 B3 FC 7E 56 D9 C1 9F
  1275)     17440.652 1  Rx        011A -  5    22 03 F9 D6 13
  1276)     17441.292 1  Rx        0331 -  8    41 A9 37 E8 5C B8 19 33
  1277)     17441.889 1  Rx        011B -  7    6F 00 18 D1 94 A1 93
  1278)     17442.401 1  Rx        006E -  7    57 C4 E7 BC 2C DA 8C
  1279)     17442.913 1  Rx        0106 -  7    0E 84 63 79 DD 94 99
  1280)     17443.340 1  Rx        0132 -  7    D1 AD 65 0A 89 44 6D
  1281)     17443.809 1  Rx        0308 -  8    FA 63 60 84 6B B1 07 00
  1282)     17444.236 1  Rx        0206 -  7    F6 96 FA 82 57 F2 37
  1283)     17444.833 1  Rx        0212 -  7    5C 97 0F 54 79 C1 96
  1284)     17445.217 1  Rx        0222 -  8    89 40 28 30 00 C9 08 DD
  1285)     17445.601 1  Rx        0459 -  8    AA 0C B8 53 5F 14 19 90
  1286)     17445.943 1  Rx        0451 -  8    1F 1C 63 5A 55 9D 1A A8
  1287)     17446.327 1  Rx        0441 -  8    C3 F9 8F 4F 73 B2 70 0D
  1288)     17446.711 1  Rx    1AFB1C04 -  8    A2 34 B6 EC 12 15 11 EC
  1289)     17446.967 1  Rx    1AFB1C00 -  8    7E 6A D3 5C 8F 0D EA A7
  1290)     17447.223 1  Rx        0419 -  8    A6 85 FD 36 67 ED BF 49
  1291)     17575.391 1  Rx        033B -  8    C2 02 84 82 3E 1E D3 13
  1292)     17575.989 1  Rx        0339 -  8    6E D0 82 22 38 5E 5E 21
  1293)     17576.586 1  Rx        0337 -  7    04 83 2E B4 3A 40 6A
  1294)     17577.226 1  Rx        001F -  5    35 71 CA 79 54
  1295)     17577.695 1  Rx        0333 -  4    3E 07 40 9C
  1296)     17578.207 1  Rx        0335 -  8    7E 2A B1 02 8E 84 17 29
  1297)     17578.549 1  Rx        0121 -  4    9F 20 B7 F8
  1298)     17578.890 1  Rx        067F -  8    CC 24 76 80 F4 7F 05 B4
  1299)     17579.274 1  Rx        0681 -  8    B0 BA AD 5E 40 6D 93 9F
  1300)     17579.530 1  Rx        0309 -  8    61 58 A9 55 AF E5 DE 6C
  1301)     17579.786 1  Rx        030A -  8    87 E8 4C 2C 28 3B 58 96
  1302)     17580.127 1  Rx        0622 -  6    16 00 D8 82 C5 5F
  1303)     17580.383 1  Rx        0413 -  6    F3 1C 97 D7 AC A6
  1304)     17580.682 1  Rx        0402 -  3    EA 64 8F
  1305)     17581.109 1  Rx        0739 -  8    B6 BA 25 12 AF 2C 6F 62
  1306)     17581.450 1  Rx        0411 -  8    8A CF 66 FA BE C5 06 40
  1307)     17581.919 1  Rx        0729 -  8    9A E0 42 3F 42 E1 45 57
  1308)     17582.389 1  Rx        0728 -  8    8E 49 31 F2 F1 A2 18 C8
  1309)     17582.687 1  Rx        0709 -  8    0C 54 43 4D F6 E6 B9 00
  1310)     17582.986 1  Rx        0711 -  8    DD F0 9B AC 11 B6 4C 08
  1311)     17648.133 1  Rx        0332 -  8    DC C3 C3 B0 67 59 49 FC
  1312)     17648.218 1  Rx        011A -  5    3C 39 A9 C7 9A
  1313)     17648.346 1  Rx        0331 -  8    A4 D8 68 4F FA 3F DF 73
  1314)     17648.474 1  Rx        011B -  7    28 C6 A2 5C 20 EC F9
  1315)     17648.602 1  Rx        006E -  7    03 67 D9 7A 1D C8 60
  1316)     17648.730 1  Rx        0106 -  7    62 59 BF 95 83 FA 20
  1317)     17648.858 1  Rx        0132 -  7    17 5B 91 B9 53 93 D0
  1318)     17648.986 1  Rx        0308 -  8    4B 8B 3B 5A 4B 16 0C 46
  1319)     17649.114 1  Rx        0206 -  7    F5 2A E2 5F B1 4A FA
  1320)     17649.242 1  Rx        0212 -  7    62 6B 98 50 07 34 F5
  1321)     17649.370 1  Rx        0222 -  8    BE 74 9E 5C 7C 6B 4F F9
  1322)     17649.498 1  Rx        0459 -  8    33 B8 52 48 C0 22 47 49
  1323)     17649.626 1  Rx        0451 -  8    5B 8C EB BC 61 7E 5B 26
  1324)     17649.754 1  Rx        0441 -  8    C5 66 89 15 B1 91 9E 55
  1325)     17649.882 1  Rx    1AFB1C04 -  8    27 BF D9 9E 80 73 1C 27
  1326)     17650.053 1  Rx    1AFB1C00 -  8    AA 78 4A 15 12 68 98 FA
  1327)     17650.181 1  Rx        0419 -  8    00 56 64 50 E5 C0 DC 13
  1328)     17800.237 1  Rx        033A -  8    5A F5 FC 77 FB D2 B8 81
  1329)     17800.835 1  Rx        0336 -  8    E6 47 35 9A 03 B4 4A 23
  1330)     17801.688 1  Rx        0334 -  8    9B E4 5A 02 02 48 21 7E
  1331)     17802.157 1  Rx        06DD -  8    B9 87 7C 02 8A F9 A6 8B
  1332)     17802.499 1  Rx        0799 -  8    18 5C C8 F3 50 D2 90 6A
  1333)     17850.540 1  Rx        0332 -  8    45 C3 81 B0 67 59 49 E1
  1334)     17851.095 1  Rx        011A -  5    69 39 A9 A4 9A
  1335)     17851.906 1  Rx        0331 -  8    0D FE 75 0D C9 46 DF A2
  1336)     17852.759 1  Rx        011B -  7    E0 BB 34 5C 20 13 21
  1337)     17853.271 1  Rx        006E -  7    92 67 8D 7A 1D C0 60
  1338)     17853.655 1  Rx        0106 -  7    62 59 BF 95 83 FA 42
  1339)     17854.082 1  Rx        0132 -  7    19 4C D5 B9 B0 93 D0
  1340)     17854.508 1  Rx        0308 -  8    4B 8B 3B 7B BA 16 0C 91
  1341)     17854.935 1  Rx        0206 -  7    F5 2A 13 65 31 44 70
  1342)     17855.234 1  Rx        0212 -  7    62 6B B4 D4 F3 34 D0
  1343)     17855.660 1  Rx        0222 -  8    BE 74 09 5C 7C 6B 24 34
  1344)     17856.044 1  Rx        0459 -  8    33 B8 FB B9 C0 07 8A 49
  1345)     17856.428 1  Rx        0451 -  8    C2 15 E1 16 61 7E 94 26
  1346)     17856.770 1  Rx        0441 -  8    82 72 4A 15 29 91 9E 55
  1347)     17857.111 1  Rx    1AFB1C04 -  8    27 BF D9 0E 80 74 BA 54
  1348)     17857.452 1  Rx    1AFB1C00 -  8    AA 78 4A 53 12 71 98 FA
  1349)     17857.794 1  Rx        0419 -  8    49 14 64 D2 E5 C0 D7 D5
  1350)     18059.391 1  Rx        0332 -  8    E1 C3 81 B0 35 59 49 6E
  1351)     18059.988 1  Rx        011A -  5    93 39 18 A4 9A
  1352)     18060.628 1  Rx        0331 -  8    0D FE 52 0D B5 78 0F A2
  1353)     18061.396 1  Rx        011B -  7    E0 49 7B 99 EF 4C E6
  1354)     18062.036 1  Rx        006E -  7    9E 67 8D 7A BC C0 60
  1355)     18062.676 1  Rx        0106 -  7    AB 59 BF C5 C4 FA 41
  1356)     18063.188 1  Rx        0132 -  7    19 DE 33 B9 B0 BF E0
  1357)     18063.657 1  Rx        0308 -  8    4C 8B 3B D9 BA 0D 0C BC
  1358)     18064.212 1  Rx        0206 -  7    F5 09 13 9C 31 44 E3
  1359)     18064.681 1  Rx        0212 -  7    EE 6B B8 D2 E4 06 26
  1360)     18065.065 1  Rx        0222 -  8    BE 74 09 C7 7C BE DA 34
  1361)     18065.406 1  Rx        0459 -  8    67 B8 C3 B9 A9 D4 C0 E2
  1362)     18065.876 1  Rx        0451 -  8    DF CC E1 16 38 7E 94 26
  1363)     18066.217 1  Rx        0441 -  8    46 72 4A 8D 03 CF A7 A7
  1364)     18066.558 1  Rx    1AFB1C04 -  8    27 7C D9 0E 7F A0 BA 54
  1365)     18066.985 1  Rx    1AFB1C00 -  8    AA 89 4A 55 12 48 98 FA
  1366)     18067.284 1  Rx        0419 -  8    49 14 64 D2 B5 C0 D7 3A
  1367)     18268.667 1  Rx        0332 -  8    93 A3 81 F6 35 59 49 50
  1368)     18269.222 1  Rx        011A -  5    93 A3 CF E3 4F
  1369)     18269.777 1  Rx        0331 -  8    0D FE DA 0D 2C 92 0F A2
  1370)     18270.459 1  Rx        011B -  7    E0 BD 7B F7 EF 74 E6
  1371)     18271.142 1  Rx        006E -  7    1D 64 8D 25 BC 7B 76
  1372)     18271.611 1  Rx        0106 -  7    7F BC BF C5 C4 41 5E
  1373)     18272.038 1  Rx        0132 -  7    19 DE A9 B9 D8 26 E0
  1374)     18272.507 1  Rx        0308 -  8    9B 8B 1F D9 EC 0D C7 BC
  1375)     18272.934 1  Rx        0206 -  7    F5 3C 53 9C 31 44 CF
  1376)     18273.360 1  Rx        0212 -  7    43 6B F3 33 F2 06 1D
  1377)     18273.830 1  Rx        0222 -  8    BE FE B9 C7 7C 99 DA 34
  1378)     18274.086 1  Rx        0459 -  8    67 69 7D E1 98 D4 93 E2
  1379)     18274.384 1  Rx        0451 -  8    DF CC 6C 16 38 7E 94 96
  1380)     18274.811 1  Rx        0441 -  8    59 BE A1 8D 0E CF A7 A7
  1381)     18275.195 1  Rx    1AFB1C04 -  8    AE 7C 05 C9 7F A0 09 80
  1382)     18275.494 1  Rx    1AFB1C00 -  8    D5 7F FA C4 12 1F 98 FA
  1383)     18275.750 1  Rx        0419 -  8    49 14 64 30 53 52 D7 3A
  1384)     18476.835 1  Rx        0332 -  8    AE C3 81 E7 35 59 AF D4
  1385)     18477.432 1  Rx        011A -  5    7C A3 CF E3 4F
  1386)     18478.072 1  Rx        0331 -  8    0D FE 84 0D EB 92 0F B9
  1387)     18478.883 1  Rx        011B -  7    E0 69 7B E6 3E 74 E6
  1388)     18479.437 1  Rx        006E -  7    C0 64 8D 25 81 7B 2E
  1389)     18479.992 1  Rx        0106 -  7    7F C1 8E 6F C4 7D 5E
  1390)     18480.589 1  Rx        0132 -  7    32 DB 6D B9 52 26 C5
  1391)     18481.144 1  Rx        0308 -  8    9B 8B 1F D9 65 0D 04 4D
  1392)     18481.656 1  Rx        0206 -  7    F5 3C 53 9C 31 44 2E
  1393)     18482.467 1  Rx        0212 -  7    CD 6B 04 33 53 06 53
  1394)     18483.149 1  Rx        0222 -  8    BE FE F1 C7 8D FC DA 24
  1395)     18483.619 1  Rx        0459 -  8    67 69 5D E1 98 D4 93 E2
  1396)     18484.003 1  Rx        0451 -  8    16 75 6C 75 38 7E 94 96
  1397)     18484.557 1  Rx        0441 -  8    59 08 D2 0B 44 EF FB A7
  1398)     18485.155 1  Rx    1AFB1C04 -  8    66 C9 05 2C 7F 09 86 EB
  1399)     18485.539 1  Rx    1AFB1C00 -  8    D5 7F FA 00 41 73 98 FA
  1400)     18485.880 1  Rx        0419 -  8    62 14 A7 30 DE 52 A5 AB
  1401)     18585.036 1  Rx        033B -  8    C2 02 A5 B5 3E 1E D3 33
  1402)     18585.676 1  Rx        0339 -  8    E3 DF 82 5B 38 F7 5E 09
  1403)     18586.230 1  Rx        0337 -  7    04 DD 94 03 F5 34 6A
  1404)     18586.742 1  Rx        001F -  5    9E 66 77 79 54
  1405)     18587.126 1  Rx        0333 -  4    3E E2 83 3C
  1406)     18587.425 1  Rx        0335 -  8    E0 2A BE 26 8E 84 2A 29
  1407)     18587.766 1  Rx        0121 -  4    86 2E B7 F8
  1408)     18588.150 1  Rx        067F -  8    CC 24 E4 80 F4 1E 33 B4
  1409)     18588.492 1  Rx        0681 -  8    08 BA 26 E9 40 A6 93 C7
  1410)     18588.876 1  Rx        0309 -  8    61 58 A9 85 A2 EF B1 A5
  1411)     18589.260 1  Rx        030A -  8    87 E8 CC 2C 7C 3B 4D 96
  1412)     18589.601 1  Rx        0622 -  6    D6 9A 0E ED C5 5F
  1413)     18589.900 1  Rx        0413 -  6    CC 72 02 33 96 D7
  1414)     18590.113 1  Rx        0402 -  3    18 64 8F
  1415)     18590.369 1  Rx        0739 -  8    B6 BA 25 64 4C F9 B6 62
