;$FILEVERSION=1.3
;$STARTTIME=45252.6738728728742
;
;   Start time: 22/11/2023 16:10:22.616.2
;   Generated by PCAN-Explorer v6.6.1.2744
;-------------------------------------------------------------------------------
;   Bus  Connection   Net Connection    Protocol  Bit rate
;   1    Connection1  CAN_USB@pcan_usb  CAN       1 Mbit/s
;-------------------------------------------------------------------------------
;   Message   Time    Bus  Type   ID    Reserved
;   Number    Offset  |    |      [hex] |   Data Length Code
;   |         [ms]    |    |      |     |   |    Data [hex] ...
;   |         |       |    |      |     |   |    |
;---+-- ------+------ +- --+-- ---+---- +- -+-- -+ -- -- -- -- -- -- --
     1)      5529.626 1  Rx        0332 -  8    74 50 04 8D 3C 9F 25 62
     2)      5529.711 1  Rx        011A -  5    19 84 42 D1 BD
     3)      5529.839 1  Rx        0331 -  8    60 8F B7 22 B4 C1 09 5F
     4)      5529.967 1  Rx        011B -  7    48 A0 5D 08 7A 94 8A
     5)      5530.095 1  Rx        006E -  7    67 77 23 15 1E 76 CC
     6)      5530.223 1  Rx        0106 -  7    B8 4C 16 48 FC B5 E9
     7)      5530.351 1  Rx        0132 -  7    F0 29 01 F9 B7 D3 6C
     8)      5530.479 1  Rx        0308 -  8    FF 19 B6 9F 50 D5 47 5A
     9)      5530.607 1  Rx        0206 -  7    5B 5A CE 33 E4 7F D3
    10)      5530.692 1  Rx        0212 -  7    03 F2 18 CC 42 9A 4B
    11)      5530.863 1  Rx        0222 -  8    57 AC 15 EC 99 7D 0A 1B
    12)      5530.991 1  Rx        0459 -  8    C0 9A 0E A3 C0 4E 66 B2
    13)      5531.119 1  Rx        0451 -  8    C5 2F 27 89 1C 64 1A 4E
    14)      5531.247 1  Rx        0441 -  8    AB DD 24 3C AA 0F 17 1C
    15)      5531.375 1  Rx    1AFB1C04 -  8    9C 58 EB 1E 1A B5 A3 8D
    16)      5531.546 1  Rx    1AFB1C00 -  8    1D A0 7B 7A 9D CB AD 23
    17)      5531.674 1  Rx        0419 -  8    ED 38 42 78 D4 F4 53 41
    18)      5531.802 1  Rx        0332 -  8    B5 50 16 84 24 9F 25 2B
    19)      5531.930 1  Rx        011A -  5    19 84 E6 C9 96
    20)      5532.058 1  Rx        0331 -  8    5C 69 B2 22 0A C1 A3 5F
    21)      5532.143 1  Rx        011B -  7    A5 4C E7 0C 7A 11 01
    22)      5532.271 1  Rx        006E -  7    41 86 23 A8 1E 76 7E
    23)      5532.399 1  Rx        0106 -  7    4D A7 16 48 27 B5 E9
    24)      5532.527 1  Rx        0132 -  7    F0 29 01 F9 B7 A0 6C
    25)      5532.655 1  Rx        0308 -  8    FF 11 58 79 50 D5 98 29
    26)      5532.783 1  Rx        0206 -  7    5B CF CE 0E C7 7F 5C
    27)      5532.911 1  Rx        0212 -  7    A7 F2 18 4F 16 9A 4B
    28)      5533.039 1  Rx        0222 -  8    57 11 41 EC 99 7D 0A CE
    29)      5533.167 1  Rx        0459 -  8    C0 E9 0E 7E 6B 4E 66 76
    30)      5533.295 1  Rx        0451 -  8    C5 41 27 37 CD 64 1A 04
    31)      5533.423 1  Rx        0441 -  8    D5 DD 24 DB BA D2 6A 34
    32)      5533.594 1  Rx    1AFB1C04 -  8    E9 59 EB 1E 1A B5 A3 7B
    33)      5533.764 1  Rx    1AFB1C00 -  8    E0 35 C8 BA 9D 76 B9 E3
    34)      5533.892 1  Rx        0419 -  8    ED 38 42 78 AB F4 53 98
    35)      5534.020 1  Rx        0332 -  8    86 60 C6 85 24 9F 7F 2B
    36)      5534.106 1  Rx        011A -  5    C5 33 ED C9 96
    37)      5534.234 1  Rx        0331 -  8    07 88 1B 35 0A C1 6C 5F
    38)      5534.362 1  Rx        011B -  7    A5 4C CF E6 7A 11 01
    39)      5534.490 1  Rx        006E -  7    41 86 23 BD 1E 18 BD
    40)      5534.618 1  Rx        0106 -  7    08 A7 20 48 A3 B5 E9
    41)      5534.746 1  Rx        0132 -  7    F0 29 01 D1 B7 04 6C
    42)      5534.874 1  Rx        0308 -  8    FF 11 58 79 56 D5 98 29
    43)      5535.002 1  Rx        0206 -  7    5B CF CE 3F 72 7F 5C
    44)      5535.130 1  Rx        0212 -  7    A7 F2 B1 4F 16 9A A2
    45)      5535.258 1  Rx        0222 -  8    57 11 41 EC 6A 7D 34 CE
    46)      5535.386 1  Rx        0459 -  8    76 14 0E 7E 76 4E 66 6F
    47)      5535.514 1  Rx        0451 -  8    C5 34 27 60 65 64 1A 56
    48)      5535.642 1  Rx        0441 -  8    83 DD 24 DB 0B D2 FE D7
    49)      5535.813 1  Rx    1AFB1C04 -  8    E9 6E 71 4B 4A B5 A3 7B
    50)      5535.941 1  Rx    1AFB1C00 -  8    E0 BA C8 BA 0A 76 6C E3
    51)      5536.069 1  Rx        0419 -  8    3D 38 B9 AD AB F4 53 1C
    52)      5536.197 1  Rx        033B -  8    F0 8E 8C 7B 10 13 77 60
    53)      5536.367 1  Rx        0339 -  8    03 36 AF 69 BF 17 68 77
    54)      5536.453 1  Rx        0337 -  7    3B 9B EE 09 F8 89 D0
    55)      5536.581 1  Rx        001F -  5    AD E2 70 29 DC
    56)      5536.666 1  Rx        0333 -  4    8F 96 83 89
    57)      5536.794 1  Rx        0335 -  8    9B 62 A4 71 2D AA C6 AC
    58)      5536.879 1  Rx        0121 -  4    CF 89 F9 31
    59)      5537.007 1  Rx        067F -  8    63 CA FC BD 0C 67 D3 C4
    60)      5537.178 1  Rx        0681 -  8    D3 74 1F A7 8A 2F CA C2
    61)      5537.306 1  Rx        0309 -  8    76 20 DD 01 ED 5C F3 7D
    62)      5537.434 1  Rx        030A -  8    30 94 E2 ED CD 73 B4 C7
    63)      5537.519 1  Rx        0622 -  6    DB 00 FC A5 0F 55
    64)      5537.647 1  Rx        0413 -  6    B6 2A 85 29 20 2B
    65)      5537.733 1  Rx        0402 -  3    E0 01 C5
    66)      5537.861 1  Rx        0739 -  8    8C 29 56 D3 38 9D B5 B5
    67)      5538.031 1  Rx        0411 -  8    10 FE 18 B9 B3 07 38 A9
    68)      5538.159 1  Rx        0729 -  8    64 01 81 AD 9F 1B 23 7B
    69)      5538.287 1  Rx        0728 -  8    3E 61 A9 0B 78 31 AF 78
    70)      5538.415 1  Rx        0709 -  8    5F DA DD DF 61 AC A6 C4
    71)      5538.543 1  Rx        0711 -  8    B4 0F D5 4F 6D A2 56 4D
    72)      5538.671 1  Rx        0332 -  8    86 60 4D 85 24 51 7F 20
    73)      5538.799 1  Rx        011A -  5    00 33 ED 40 48
    74)      5538.927 1  Rx        0331 -  8    07 82 8F BF 0E C1 6C 5F
    75)      5539.055 1  Rx        011B -  7    A5 36 C4 24 7A 13 90
    76)      5539.183 1  Rx        006E -  7    41 A4 23 BD 1E 30 BD
    77)      5539.269 1  Rx        0106 -  7    28 DA 83 4A A3 F3 E9
    78)      5539.397 1  Rx        0132 -  7    BE 29 C5 56 B7 B2 6C
    79)      5539.525 1  Rx        0308 -  8    FF 12 58 79 09 25 98 BA
    80)      5539.653 1  Rx        0206 -  7    5B CF B7 3F 72 7F 5C
    81)      5539.781 1  Rx        0212 -  7    3F F2 57 4F 93 11 3D
    82)      5539.909 1  Rx        0222 -  8    57 11 41 EC B7 7D 34 CE
    83)      5540.079 1  Rx        0459 -  8    76 C5 C7 5F F0 C3 66 6F
    84)      5540.207 1  Rx        0451 -  8    C5 34 27 60 65 64 1A 91
    85)      5540.335 1  Rx        0441 -  8    53 95 01 96 0B D2 71 BC
    86)      5540.463 1  Rx    1AFB1C04 -  8    BC 85 71 4B 4A B5 CC 0D
    87)      5540.634 1  Rx    1AFB1C00 -  8    E0 5C C8 BA 38 76 6C 53
    88)      5540.762 1  Rx        0419 -  8    E8 59 B9 04 AB 82 D3 1C
    89)      5540.890 1  Rx        0332 -  8    56 6E FB 85 A9 51 7F 20
    90)      5540.975 1  Rx        011A -  5    00 33 ED 5F 31
    91)      5541.103 1  Rx        0331 -  8    07 82 8F BF 0E 5E 6C ED
    92)      5541.231 1  Rx        011B -  7    F8 36 BF 9B 7A 13 90
    93)      5541.359 1  Rx        006E -  7    7B A4 23 BB 69 30 BD
    94)      5541.487 1  Rx        0106 -  7    CF DA 21 14 A3 F3 E9
    95)      5541.615 1  Rx        0132 -  7    E1 EC D8 BC B1 B2 6C
    96)      5541.743 1  Rx        0308 -  8    3F C5 FE 79 09 39 98 C3
    97)      5541.871 1  Rx        0206 -  7    5B EE B7 C3 7B 7F D0
    98)      5541.999 1  Rx        0212 -  7    3F F2 09 4F 52 00 EC
    99)      5542.127 1  Rx        0222 -  8    50 11 41 EC B7 7D 37 CE
   100)      5542.255 1  Rx        0459 -  8    76 E6 32 5F F0 38 08 6F
   101)      5542.383 1  Rx        0451 -  8    E6 34 27 60 65 64 1A 91
   102)      5542.554 1  Rx        0441 -  8    7F 95 A4 90 0B 80 71 BC
   103)      5542.682 1  Rx    1AFB1C04 -  8    BC 85 71 4B 4A B5 56 88
   104)      5542.853 1  Rx    1AFB1C00 -  8    C6 F2 C8 BA 95 76 6C 53
   105)      5542.981 1  Rx        0419 -  8    E8 F5 21 04 EA B1 98 EC
   106)      5543.109 1  Rx        0332 -  8    56 6E FB E8 6D 51 F8 20
   107)      5543.237 1  Rx        011A -  5    00 33 ED AE DF
   108)      5543.365 1  Rx        0331 -  8    07 8D 46 E6 0D 5E 7C ED
   109)      5543.493 1  Rx        011B -  7    7D DA BF 55 E9 13 73
   110)      5543.578 1  Rx        006E -  7    7B A4 23 89 69 30 BD
   111)      5543.706 1  Rx        0106 -  7    32 1F 21 F5 A3 F3 E9
   112)      5543.834 1  Rx        0132 -  7    E1 42 D8 FC 4A B2 C5
   113)      5544.005 1  Rx        0308 -  8    88 8C 02 79 D5 39 98 E2
   114)      5544.133 1  Rx        0206 -  7    5B F0 B7 C3 85 39 D0
   115)      5544.218 1  Rx        0212 -  7    DC 72 09 D6 52 2E EC
   116)      5544.389 1  Rx        0222 -  8    50 1F 41 EC B7 7D 37 BB
   117)      5544.517 1  Rx        0459 -  8    CC 7A 8B 5F 41 38 5F 1B
   118)      5544.645 1  Rx        0451 -  8    05 34 27 24 65 64 D4 91
   119)      5544.773 1  Rx        0441 -  8    7F 95 A4 51 0B 68 71 BC
   120)      5544.901 1  Rx    1AFB1C04 -  8    BC 85 C7 23 50 8A 56 1B
   121)      5545.071 1  Rx    1AFB1C00 -  8    C6 F2 C8 7B 95 76 5F F3
   122)      5545.199 1  Rx        0419 -  8    E8 F4 21 04 EA C8 46 EC
   123)      5545.327 1  Rx        033A -  8    26 D9 2D A4 8C 7A DF FC
   124)      5545.455 1  Rx        0336 -  8    11 BB E7 19 A8 50 C7 F6
   125)      5545.583 1  Rx        0334 -  8    0C AD A9 EF 49 5E 08 61
   126)      5545.711 1  Rx        06DD -  8    21 9A 3D 00 31 87 0D F1
   127)      5545.882 1  Rx        0799 -  8    3C 2F F4 99 EF 60 A7 BD
   128)      5546.010 1  Rx        0332 -  8    6A 6E FB E8 C0 30 22 20
   129)      5546.095 1  Rx        011A -  5    00 60 ED 94 DF
   130)      5546.223 1  Rx        0331 -  8    E6 47 46 E6 3A E8 7C ED
   131)      5546.351 1  Rx        011B -  7    C5 DA BF 55 73 13 73
   132)      5546.479 1  Rx        006E -  7    1B A6 23 37 69 94 BD
   133)      5546.607 1  Rx        0106 -  7    1B 78 9D F5 74 65 E9
   134)      5546.735 1  Rx        0132 -  7    5A 42 17 60 4F 5E C1
   135)      5546.863 1  Rx        0308 -  8    3E 4A 02 94 D5 39 1F E2
   136)      5546.991 1  Rx        0206 -  7    AE AA B7 C3 07 39 D0
   137)      5547.119 1  Rx        0212 -  7    DC 72 09 D6 52 2E EC
   138)      5547.247 1  Rx        0222 -  8    50 1F 7F 29 B7 7D 37 DD
   139)      5547.375 1  Rx        0459 -  8    7E EA 8B 5F 62 38 06 1B
   140)      5547.503 1  Rx        0451 -  8    05 76 27 24 65 2F 6C 97
   141)      5547.631 1  Rx        0441 -  8    7F 95 96 8E 0B CF 73 BC
   142)      5547.802 1  Rx    1AFB1C04 -  8    1C A2 98 D4 BF 56 6F 1B
   143)      5547.930 1  Rx    1AFB1C00 -  8    C6 F2 C8 7B 73 74 0A F3
   144)      5548.101 1  Rx        0419 -  8    E8 24 AC 04 EA 9C 46 EC
   145)      5548.229 1  Rx        0332 -  8    6A 9E B0 B5 C0 30 22 20
   146)      5548.314 1  Rx        011A -  5    27 60 D9 94 DF
   147)      5548.442 1  Rx        0331 -  8    90 47 8E E6 3A E8 7C 4A
   148)      5548.570 1  Rx        011B -  7    ED 12 BF 9A 73 F7 73
   149)      5548.698 1  Rx        006E -  7    1B A6 25 22 69 F7 BD
   150)      5548.826 1  Rx        0106 -  7    1B 78 53 37 B2 89 E9
   151)      5548.954 1  Rx        0132 -  7    09 6D D5 60 4F 5E 7C
   152)      5549.082 1  Rx        0308 -  8    0A 4A 4B 94 D5 E6 FE E2
   153)      5549.210 1  Rx        0206 -  7    AE AA B7 C3 07 42 D0
   154)      5549.338 1  Rx        0212 -  7    DC 72 09 D6 52 DB EC
   155)      5549.466 1  Rx        0222 -  8    01 1F A4 29 93 EB 37 C2
   156)      5549.594 1  Rx        0459 -  8    A4 EA 8B 5F E9 38 95 1B
   157)      5549.722 1  Rx        0451 -  8    05 76 8F 47 65 2F 6C A2
   158)      5549.850 1  Rx        0441 -  8    A1 DE 04 8E 06 9F 73 BC
   159)      5550.021 1  Rx    1AFB1C04 -  8    1C 30 98 F9 BF 58 13 17
   160)      5550.149 1  Rx    1AFB1C00 -  8    B2 F2 C8 E6 73 74 01 F3
   161)      5550.319 1  Rx        0419 -  8    E8 93 EA 48 EA 45 46 4E
   162)      5550.447 1  Rx        033B -  8    D1 11 64 7B BD 21 5E 60
   163)      5550.575 1  Rx        0339 -  8    AA 36 9A 69 99 CF 28 77
   164)      5550.703 1  Rx        0337 -  7    FC 58 EE 09 F8 89 D0
   165)      5550.789 1  Rx        001F -  5    D0 E2 70 2D B1
   166)      5550.917 1  Rx        0333 -  4    68 96 74 F0
   167)      5551.045 1  Rx        0335 -  8    9B 91 15 E2 F7 59 E8 AC
   168)      5551.130 1  Rx        0121 -  4    22 C6 4A 31
   169)      5551.258 1  Rx        067F -  8    71 CA FC E7 0C 93 D3 C4
   170)      5551.386 1  Rx        0681 -  8    D3 74 CB DC E3 2F 3A D4
   171)      5551.514 1  Rx        0309 -  8    76 20 75 01 78 5C E4 E4
   172)      5551.642 1  Rx        030A -  8    72 94 E2 3B CD C8 B4 C7
   173)      5551.770 1  Rx        0622 -  6    DB 22 A1 5E 0F 9D
   174)      5551.898 1  Rx        0413 -  6    7C 2A 85 48 20 AB
   175)      5551.983 1  Rx        0402 -  3    E0 01 DF
   176)      5552.111 1  Rx        0739 -  8    8C 79 56 D3 EA A4 B5 6D
   177)      5552.239 1  Rx        0411 -  8    10 FE 18 B9 58 FF BF DA
   178)      5552.367 1  Rx        0729 -  8    64 01 81 1D 9F 1B 23 13
   179)      5552.495 1  Rx        0728 -  8    B8 F0 A9 0B 78 14 AF 78
   180)      5552.623 1  Rx        0709 -  8    D4 15 DD CF 61 AC A6 C4
   181)      5552.751 1  Rx        0711 -  8    B4 0F E2 4F 5F A2 69 4D
   182)      5552.879 1  Rx        0332 -  8    78 90 3C CC C0 65 22 20
   183)      5553.007 1  Rx        011A -  5    AF DC AF 94 E7
   184)      5553.135 1  Rx        0331 -  8    11 64 DE 07 3A E8 7C 4A
   185)      5553.263 1  Rx        011B -  7    ED 7B CA 9E 73 F7 73
   186)      5553.391 1  Rx        006E -  7    1B CD 25 22 DF F7 BD
   187)      5553.519 1  Rx        0106 -  7    D7 78 5C 23 ED 89 D8
   188)      5553.605 1  Rx        0132 -  7    09 20 D5 60 4F 39 5B
   189)      5553.775 1  Rx        0308 -  8    43 E4 AD 94 D5 BF FE 19
   190)      5553.903 1  Rx        0206 -  7    2A AA B7 56 77 42 D0
   191)      5553.989 1  Rx        0212 -  7    DC F2 8E D6 52 DB EC
   192)      5554.117 1  Rx        0222 -  8    A3 1F A4 29 39 EB 2C AB
   193)      5554.287 1  Rx        0459 -  8    A4 CB 8B 5F 7D 38 95 1B
   194)      5554.415 1  Rx        0451 -  8    05 76 A3 47 65 4B 6C A2
   195)      5554.543 1  Rx        0441 -  8    E2 89 04 8E 1B 7C FB BC
   196)      5554.671 1  Rx    1AFB1C04 -  8    2B 30 FE F9 E4 62 08 17
   197)      5554.842 1  Rx    1AFB1C00 -  8    B2 0D F0 E6 3D F5 01 F3
   198)      5554.970 1  Rx        0419 -  8    8D EF 83 48 EA 76 4E 4E
   199)      5555.098 1  Rx        0332 -  8    30 6E 3C B0 86 65 22 23
   200)      5555.226 1  Rx        011A -  5    AF 67 AF 30 E7
   201)      5555.354 1  Rx        0331 -  8    77 CA C5 40 3A E8 30 03
   202)      5555.482 1  Rx        011B -  7    B9 7B CA D1 63 BB 3B
   203)      5555.610 1  Rx        006E -  7    1B BC 25 AC DF 7F 08
   204)      5555.738 1  Rx        0106 -  7    42 CE 5C B0 50 9F AF
   205)      5555.866 1  Rx        0132 -  7    09 F5 D5 60 4F 39 E5
   206)      5555.994 1  Rx        0308 -  8    A1 4E DA 74 98 C4 FE 19
   207)      5556.122 1  Rx        0206 -  7    A6 AA B7 06 77 42 E4
   208)      5556.250 1  Rx        0212 -  7    F7 F2 2C D6 52 DB 4B
   209)      5556.378 1  Rx        0222 -  8    52 1F A4 6B 39 EB 2C 5C
   210)      5556.506 1  Rx        0459 -  8    A4 CB 8B 7D 42 E5 0E 32
   211)      5556.634 1  Rx        0451 -  8    05 5E A3 47 65 4B 6C 0A
   212)      5556.762 1  Rx        0441 -  8    DD 6F 56 8E DF FC FB BC
   213)      5556.933 1  Rx    1AFB1C04 -  8    2B 02 FE D9 E4 FC 59 17
   214)      5557.061 1  Rx    1AFB1C00 -  8    75 03 86 E6 FA DD 22 F3
   215)      5557.189 1  Rx        0419 -  8    8D EA 83 48 14 E6 4E 97
   216)      5557.317 1  Rx        0332 -  8    F4 BD DC DF 36 53 F9 27
   217)      5557.445 1  Rx        011A -  5    D5 79 9E 92 07
   218)      5557.573 1  Rx        0331 -  8    9E 67 1F 94 71 17 26 DA
   219)      5557.701 1  Rx        011B -  7    89 8C 92 D8 04 6E 99
   220)      5557.829 1  Rx        006E -  7    15 4E F2 8F C0 98 DA
   221)      5557.957 1  Rx        0106 -  7    89 97 88 0E 6F 19 0B
   222)      5558.085 1  Rx        0132 -  7    3C 0A 08 55 9D 4A CA
   223)      5558.213 1  Rx        0308 -  8    3F 08 A3 99 F5 B3 92 29
   224)      5558.341 1  Rx        0206 -  7    ED B4 92 F8 FB 7C 0C
   225)      5558.469 1  Rx        0212 -  7    FB C3 37 64 75 6F 3B
   226)      5558.597 1  Rx        0222 -  8    3A 2B 11 BE 38 40 37 4E
   227)      5558.725 1  Rx        0459 -  8    E8 CF 09 8F EC 53 86 84
   228)      5558.853 1  Rx        0451 -  8    0B 23 80 4A 60 82 5D 12
   229)      5558.981 1  Rx        0441 -  8    74 F4 A4 F5 7B 2E A2 FA
   230)      5559.151 1  Rx    1AFB1C04 -  8    DB EB 98 42 82 70 3A 97
   231)      5559.279 1  Rx    1AFB1C00 -  8    28 32 18 CC 9C 53 44 94
   232)      5559.407 1  Rx        0419 -  8    ED 8B 60 72 01 D9 6F 8C
   233)      5559.535 1  Rx        0332 -  8    F4 BD 28 DF 41 35 F8 27
   234)      5559.663 1  Rx        011A -  5    4E 79 A7 92 07
   235)      5559.791 1  Rx        0331 -  8    9E 89 72 94 71 17 26 5B
   236)      5559.919 1  Rx        011B -  7    89 8C A9 D8 04 53 F5
   237)      5560.047 1  Rx        006E -  7    18 4E 9E 8F C0 98 FB
   238)      5560.175 1  Rx        0106 -  7    89 07 8A 0E A9 7C C8
   239)      5560.303 1  Rx        0132 -  7    3C 86 08 55 20 4A CA
   240)      5560.431 1  Rx        0308 -  8    70 22 A3 99 F5 B3 5E E7
   241)      5560.559 1  Rx        0206 -  7    ED B4 92 51 FB 7C 0C
   242)      5560.687 1  Rx        0212 -  7    5F C3 37 64 45 6F 15
   243)      5560.815 1  Rx        0222 -  8    3A F5 12 90 39 4B 1B A2
   244)      5560.943 1  Rx        0459 -  8    E8 32 09 8F EC 53 97 A7
   245)      5561.071 1  Rx        0451 -  8    47 C1 80 4A 60 82 93 12
   246)      5561.199 1  Rx        0441 -  8    74 1C 95 E1 7B 2E A2 FA
   247)      5561.370 1  Rx    1AFB1C04 -  8    14 EB 98 42 AB A5 1C 33
   248)      5561.498 1  Rx    1AFB1C00 -  8    28 D2 18 23 4D A1 52 DD
   249)      5561.626 1  Rx        0419 -  8    E1 8B 52 A9 C9 D9 6F 8C
   250)      5561.754 1  Rx        0332 -  8    F4 BD FE 5F 41 35 97 1B
   251)      5561.882 1  Rx        011A -  5    4E 68 A7 DC F5
   252)      5562.010 1  Rx        0331 -  8    9E 28 EA 94 F9 E5 CA 6C
   253)      5562.138 1  Rx        011B -  7    89 1B A9 A7 37 53 91
   254)      5562.266 1  Rx        006E -  7    18 4E 9E 8F C0 EF 48
   255)      5562.394 1  Rx        0106 -  7    89 02 8A 0E 06 73 FE
   256)      5562.522 1  Rx        0132 -  7    14 2D 0B 69 FD 4A 06
   257)      5562.650 1  Rx        0308 -  8    CE FF 14 99 F5 B3 5E E7
   258)      5562.778 1  Rx        0206 -  7    32 75 92 51 FB BC 81
   259)      5562.906 1  Rx        0212 -  7    A7 C3 29 64 23 02 15
   260)      5563.034 1  Rx        0222 -  8    3A F5 03 1D AA 80 81 13
   261)      5563.162 1  Rx        0459 -  8    E8 32 33 A1 96 53 D9 A7
   262)      5563.290 1  Rx        0451 -  8    67 68 17 4A 1E 4E 93 2B
   263)      5563.418 1  Rx        0441 -  8    D4 0A 95 E1 7B 2E A2 FA
   264)      5563.589 1  Rx    1AFB1C04 -  8    8D 76 44 CB C6 A5 2B 16
   265)      5563.717 1  Rx    1AFB1C00 -  8    28 D2 26 23 78 A1 52 4D
   266)      5563.845 1  Rx        0419 -  8    E1 8B 52 A9 C9 BD 31 8C
   267)      5563.973 1  Rx        033B -  8    24 11 BD 7B BD 86 2D 6E
   268)      5564.101 1  Rx        0339 -  8    AA 30 9A 6D 99 CF 28 77
   269)      5564.229 1  Rx        0337 -  7    85 61 EE 21 39 89 8F
   270)      5564.357 1  Rx        001F -  5    A8 E2 90 5C AF
   271)      5564.442 1  Rx        0333 -  4    68 96 74 06
   272)      5564.570 1  Rx        0335 -  8    57 91 15 04 45 59 E8 AC
   273)      5564.655 1  Rx        0121 -  4    22 C6 4A 31
   274)      5564.783 1  Rx        067F -  8    71 CA 26 E7 B9 57 F1 C4
   275)      5564.954 1  Rx        0681 -  8    D3 74 CB DC E3 2F 36 D4
   276)      5565.082 1  Rx        0309 -  8    76 20 5D 01 CF 5C C4 37
   277)      5565.210 1  Rx        030A -  8    FD 94 E2 EC 74 2E 3F C7
   278)      5565.338 1  Rx        0622 -  6    E6 22 22 5E 0F 9D
   279)      5565.466 1  Rx        0413 -  6    C4 2A DF 48 20 AB
   280)      5565.551 1  Rx        0402 -  3    9F 9F DF
   281)      5565.679 1  Rx        0739 -  8    16 79 25 6B EA 89 B5 8B
   282)      5565.807 1  Rx        0411 -  8    10 FE 18 B9 58 E8 BF 78
   283)      5565.978 1  Rx        0729 -  8    68 01 81 1D DD 1B 23 13
   284)      5566.106 1  Rx        0728 -  8    50 F0 0E BE FE 89 AF 78
   285)      5566.234 1  Rx        0709 -  8    E2 15 DD CF 89 62 A6 C4
   286)      5566.362 1  Rx        0711 -  8    D3 0F 66 4F 5F 45 88 93
   287)      5566.490 1  Rx        0332 -  8    2C BD 0E E3 AA 35 97 7D
   288)      5566.618 1  Rx        011A -  5    E3 68 A7 7B F5
   289)      5566.746 1  Rx        0331 -  8    9E 28 AC 94 F9 C0 25 6C
   290)      5566.874 1  Rx        011B -  7    89 59 A9 A7 37 53 B6
   291)      5567.002 1  Rx        006E -  7    18 16 9E 8F A1 33 48
   292)      5567.087 1  Rx        0106 -  7    07 70 8A 0E B3 73 27
   293)      5567.215 1  Rx        0132 -  7    3F 15 0B DE 1E F3 35
   294)      5567.343 1  Rx        0308 -  8    D3 21 E6 94 F5 5E D2 E7
   295)      5567.471 1  Rx        0206 -  7    8B 69 DC 51 47 BC 81
   296)      5567.599 1  Rx        0212 -  7    A7 3F 29 41 23 02 88
   297)      5567.727 1  Rx        0222 -  8    F1 C7 C4 1D 2D 6B C7 59
   298)      5567.855 1  Rx        0459 -  8    D0 32 AF 96 96 56 39 C8
   299)      5568.026 1  Rx        0451 -  8    3E 68 17 F3 5E 72 1E 77
   300)      5568.154 1  Rx        0441 -  8    D4 90 95 E1 A7 24 53 FA
   301)      5568.282 1  Rx    1AFB1C04 -  8    8D 76 D3 D3 C6 CD 2F 16
   302)      5568.453 1  Rx    1AFB1C00 -  8    90 D2 A2 1D 78 1D 52 5D
   303)      5568.581 1  Rx        0419 -  8    E1 8B D4 CD 9A BD 31 09
   304)      5568.709 1  Rx        0332 -  8    2C E1 0E E3 3A 35 08 7D
   305)      5568.837 1  Rx        011A -  5    E3 68 A7 7B F5
   306)      5568.965 1  Rx        0331 -  8    9E 48 0B 94 F9 C0 22 6C
   307)      5569.093 1  Rx        011B -  7    89 14 49 76 37 64 B6
   308)      5569.178 1  Rx        006E -  7    18 1A 5E 6E 77 5D 48
   309)      5569.306 1  Rx        0106 -  7    07 23 54 0E 19 73 27
   310)      5569.434 1  Rx        0132 -  7    3F 15 47 20 21 F3 F1
   311)      5569.562 1  Rx        0308 -  8    D3 21 6A 94 F5 30 D2 8B
   312)      5569.690 1  Rx        0206 -  7    4C 69 45 D8 47 5F 81
   313)      5569.818 1  Rx        0212 -  7    43 3F 65 41 71 55 88
   314)      5569.946 1  Rx        0222 -  8    F1 C7 C4 1D AA 6B F5 E4
   315)      5570.074 1  Rx        0459 -  8    1F 32 AF 96 29 56 39 C8
   316)      5570.245 1  Rx        0451 -  8    3E 4B 9A 83 06 72 C3 78
   317)      5570.330 1  Rx        0441 -  8    D4 78 95 E1 A7 24 53 1A
   318)      5570.501 1  Rx        0332 -  8    E9 F1 64 E0 DB 97 58 7A
   319)      5570.586 1  Rx        011A -  5    0D 2D A7 BA F5
   320)      5570.714 1  Rx        0331 -  8    9E 5C 0B B8 4D 09 22 3C
   321)      5570.842 1  Rx        011B -  7    E6 2B 49 3A 37 FC B6
   322)      5570.970 1  Rx        006E -  7    18 2B 5E 5F 0D 84 01
   323)      5571.098 1  Rx        0106 -  7    D2 23 54 0E DC 73 F7
   324)      5571.226 1  Rx        0132 -  7    3F 15 B5 20 21 1A A9
   325)      5571.354 1  Rx        0308 -  8    D3 44 6A 49 4E BD B7 43
   326)      5571.482 1  Rx        0206 -  7    4C 0F 6B D8 47 72 CB
   327)      5571.610 1  Rx        0212 -  7    B7 49 A2 41 71 55 15
   328)      5571.738 1  Rx        0222 -  8    F1 80 C4 95 31 C7 F5 00
   329)      5571.866 1  Rx        0459 -  8    2A 32 81 15 29 06 F3 C8
   330)      5571.994 1  Rx        0451 -  8    3E B2 9A 0E 06 72 34 78
   331)      5572.122 1  Rx        0441 -  8    40 78 AA 79 68 24 6C 73
   332)      5572.293 1  Rx    1AFB1C04 -  8    8D 4C 15 D3 75 F5 30 6E
   333)      5572.421 1  Rx    1AFB1C00 -  8    90 07 A2 28 78 A7 52 43
   334)      5572.549 1  Rx        0419 -  8    10 8B A3 47 9A BD 31 27
   335)      5663.216 1  Rx        0332 -  8    E9 02 18 E0 DB 97 58 7A
   336)      5663.899 1  Rx        011A -  5    0D 2D A7 7A F5
   337)      5664.539 1  Rx        0331 -  8    9E 1D D0 B8 4D 09 22 79
   338)      5665.051 1  Rx        011B -  7    E6 2B 49 27 7F FC 05
   339)      5665.435 1  Rx        006E -  7    18 AD 5E 9F F5 84 01
   340)      5665.734 1  Rx        0106 -  7    D2 10 54 93 DC 73 B4
   341)      5665.990 1  Rx        0132 -  7    7F 15 8B 09 21 D4 8C
   342)      5666.246 1  Rx        0308 -  8    30 44 07 49 9C BD B7 43
   343)      5666.544 1  Rx        0206 -  7    81 0F 25 D8 47 9B CB
   344)      5666.843 1  Rx        0212 -  7    1E 49 11 41 71 9F 5D
   345)      5667.142 1  Rx        0222 -  8    F1 C1 C4 EB 65 43 F5 49
   346)      5667.355 1  Rx        0459 -  8    36 8F 81 72 29 06 F3 C8
   347)      5667.739 1  Rx        0451 -  8    6D B2 1B 6F D4 72 65 78
   348)      5668.080 1  Rx        0441 -  8    40 E7 FA 79 68 24 BE 73
   349)      5668.379 1  Rx    1AFB1C04 -  8    90 4C AD 5E 20 F5 30 FF
   350)      5668.635 1  Rx    1AFB1C00 -  8    60 FE A2 F3 78 A7 AF 19
   351)      5668.934 1  Rx        0419 -  8    10 8B A3 53 9A F7 3C 27
   352)      5769.414 1  Rx        0332 -  8    27 B0 D5 08 D4 52 B8 6F
   353)      5770.012 1  Rx        011A -  5    0D 4B 51 EC E1
   354)      5770.694 1  Rx        0331 -  8    9E 1D D0 B8 4D 11 22 79
   355)      5771.420 1  Rx        011B -  7    E6 2B 7D 27 7F 6B 05
   356)      5771.889 1  Rx        006E -  7    18 AD 5E 2E A4 84 1E
   357)      5772.316 1  Rx        0106 -  7    EC D8 1C 67 DC 73 5C
   358)      5772.657 1  Rx        0132 -  7    7F 15 8B 09 21 09 12
   359)      5772.956 1  Rx        0308 -  8    30 44 07 49 9C BD B7 55
   360)      5773.297 1  Rx        0206 -  7    0D 0F 25 CF E0 B1 CB
   361)      5773.596 1  Rx        0212 -  7    1E 10 11 0B 71 9F 20
   362)      5773.980 1  Rx        0222 -  8    F1 17 AD EB 65 F4 1D 7F
   363)      5774.236 1  Rx        0459 -  8    36 52 98 72 68 06 F3 7F
   364)      5774.662 1  Rx        0451 -  8    26 B2 29 62 51 72 22 78
   365)      5775.046 1  Rx        0441 -  8    CA E7 B1 B7 C0 54 C5 73
   366)      5775.345 1  Rx    1AFB1C04 -  8    0B DB 87 5E B7 F5 6E 84
   367)      5775.729 1  Rx    1AFB1C00 -  8    60 DC A2 BE C9 93 AF 19
   368)      5775.985 1  Rx        0419 -  8    F8 7F 7E 53 C9 AC B3 E1
   369)      5867.079 1  Rx        033B -  8    55 A3 A6 2C 96 1F 0F 6B
   370)      5867.762 1  Rx        0339 -  8    AB DE CF 6D 99 CF 13 7D
   371)      5868.359 1  Rx        0337 -  7    85 1F EE 1C 39 A3 8F
   372)      5868.956 1  Rx        001F -  5    A8 E2 90 ED C8
   373)      5869.298 1  Rx        0333 -  4    D5 2F DB 3E
   374)      5869.639 1  Rx        0335 -  8    CA C6 E2 04 6A 59 E8 8E
   375)      5869.852 1  Rx        0121 -  4    07 C6 6A CB
   376)      5870.151 1  Rx        067F -  8    71 CA 71 E7 B7 57 5B C4
   377)      5870.578 1  Rx        0681 -  8    55 74 CB F0 E3 2F 48 4A
   378)      5870.962 1  Rx        0309 -  8    C0 20 5D 76 03 70 70 F1
   379)      5871.303 1  Rx        030A -  8    E1 94 E4 EC 74 2E 3F C7
   380)      5871.516 1  Rx        0622 -  6    87 22 06 5E 55 9D
   381)      5871.772 1  Rx        0413 -  6    C4 2A DF E5 20 71
   382)      5872.071 1  Rx        0402 -  3    9F AA DF
   383)      5872.412 1  Rx        0739 -  8    16 0E 41 6B EA 76 88 8B
   384)      5872.839 1  Rx        0411 -  8    10 FE 18 B9 08 E8 8A B7
   385)      5873.266 1  Rx        0729 -  8    58 9E CA 1D DD 13 CC 13
   386)      5873.650 1  Rx        0728 -  8    50 F0 85 24 FE B4 91 88
   387)      5874.034 1  Rx        0709 -  8    E2 06 60 73 00 B2 A6 A0
   388)      5874.375 1  Rx        0711 -  8    D3 0F 66 EC 1A 45 88 90
   389)      5876.807 1  Rx        0332 -  8    27 B0 D5 08 D4 52 FB 44
   390)      5877.191 1  Rx        011A -  5    0D EF 5A 0F AF
   391)      5877.533 1  Rx        0331 -  8    CF 4B D0 B8 68 FA 22 79
   392)      5877.959 1  Rx        011B -  7    E6 D1 C8 67 FA 6B 05
   393)      5878.343 1  Rx        006E -  7    18 BE 28 2E DE 16 1E
   394)      5878.642 1  Rx        0106 -  7    0F 23 1C 67 C8 73 5C
   395)      5878.898 1  Rx        0132 -  7    7F 15 8B E0 21 07 FB
   396)      5879.154 1  Rx        0308 -  8    30 96 07 1D 28 BD B7 E6
   397)      5879.453 1  Rx        0206 -  7    48 52 25 66 D0 5B CB
   398)      5879.751 1  Rx        0212 -  7    1E E2 11 0B 7D 74 ED
   399)      5880.007 1  Rx        0222 -  8    F1 A0 AD 96 65 12 1D 7F
   400)      5880.306 1  Rx        0459 -  8    36 FE 19 72 75 D0 F3 1D
   401)      5880.605 1  Rx        0451 -  8    44 1B 27 52 A9 6D 04 78
   402)      5880.903 1  Rx        0441 -  8    CA E7 B1 F0 C0 54 C5 12
   403)      5881.159 1  Rx    1AFB1C04 -  8    9A 92 87 5E 59 01 1D 84
   404)      5881.415 1  Rx    1AFB1C00 -  8    89 DC A2 92 29 93 80 19
   405)      5881.671 1  Rx        0419 -  8    F8 7F EC 65 C9 ED CC E1
   406)      5983.219 1  Rx        0332 -  8    DB B0 D5 FD B6 22 FB 59
   407)      5983.859 1  Rx        011A -  5    0D B0 F6 64 BC
   408)      5984.456 1  Rx        0331 -  8    CF 4B D0 6D 81 FA 22 79
   409)      5984.925 1  Rx        011B -  7    EB A9 E0 67 FA CF 05
   410)      5985.224 1  Rx        006E -  7    B4 8F 28 2E F0 16 1E
   411)      5985.523 1  Rx        0106 -  7    0F 23 BE 67 C8 B9 28
   412)      5985.864 1  Rx        0132 -  7    22 8F 13 E0 21 84 FB
   413)      5986.120 1  Rx        0308 -  8    39 96 07 1D 28 BD D4 E6
   414)      5986.461 1  Rx        0206 -  7    48 C3 25 66 49 7A FF
   415)      5986.760 1  Rx        0212 -  7    1E 95 61 0B 7D 74 BA
   416)      5987.144 1  Rx        0222 -  8    F1 A0 CA EC 65 12 64 46
   417)      5987.485 1  Rx        0459 -  8    2C 62 19 72 63 D0 F3 61
   418)      5987.912 1  Rx        0451 -  8    44 81 27 49 1F FB AF 52
   419)      5988.339 1  Rx        0441 -  8    57 E7 07 F0 C0 54 C5 12
   420)      5988.808 1  Rx    1AFB1C04 -  8    17 92 B0 5E 59 01 E8 C7
   421)      5989.192 1  Rx    1AFB1C00 -  8    89 28 A6 57 E6 93 80 19
   422)      5989.491 1  Rx        0419 -  8    EE 3A EC 65 C9 ED CC 3E
   423)      6091.252 1  Rx        0332 -  8    DB B0 D5 FD 9A 92 B7 28
   424)      6091.337 1  Rx        011A -  5    9F BA 1B FE D3
   425)      6091.508 1  Rx        0331 -  8    FA 05 F2 1B 26 81 11 C0
   426)      6091.636 1  Rx        011B -  7    AA 27 E6 52 3D AC 09
   427)      6091.721 1  Rx        006E -  7    6C EF CB 87 C7 38 B1
   428)      6091.849 1  Rx        0106 -  7    0C 20 9A 3B D4 2C 9A
   429)      6091.977 1  Rx        0132 -  7    FF BD 6C DF AE A5 18
   430)      6092.105 1  Rx        0308 -  8    61 CD D3 61 89 A1 AD 89
   431)      6092.233 1  Rx        0206 -  7    10 7C C7 32 5E 99 9C
   432)      6092.361 1  Rx        0212 -  7    DB E1 F0 BE 04 ED 4D
   433)      6092.489 1  Rx        0222 -  8    01 08 2D E4 66 C9 6E 62
   434)      6092.617 1  Rx        0459 -  8    C3 02 68 07 AF B4 B3 6A
   435)      6092.788 1  Rx        0451 -  8    3B 44 FC 6C 22 F5 C3 D0
   436)      6092.916 1  Rx        0441 -  8    DB A8 CE F4 07 5E 71 6F
   437)      6093.044 1  Rx    1AFB1C04 -  8    47 2D 9A 8B 6C DE 8A 7D
   438)      6093.214 1  Rx    1AFB1C00 -  8    84 18 44 36 E6 D4 5E 88
   439)      6093.342 1  Rx        0419 -  8    EE 9D F2 1B 65 A9 CC 3E
   440)      6135.455 1  Rx        033A -  8    5C 1A 91 67 4B 74 12 CE
   441)      6136.052 1  Rx        0336 -  8    B9 BB E7 EB A8 D9 33 F6
   442)      6136.607 1  Rx        0334 -  8    0C AD A9 0B 40 A5 D6 2E
   443)      6137.289 1  Rx        06DD -  8    21 9A DF 33 80 87 E3 F1
   444)      6137.801 1  Rx        0799 -  8    3C 44 5D 99 EF 60 84 42
   445)      6194.762 1  Rx        0332 -  8    D7 E4 D5 68 8F 92 B7 28
   446)      6195.359 1  Rx        011A -  5    9F 07 1B 73 D3
   447)      6195.999 1  Rx        0331 -  8    E9 BC F2 E5 26 81 11 C0
   448)      6196.426 1  Rx        011B -  7    0B 6A E6 56 3D AC 09
   449)      6196.852 1  Rx        006E -  7    6C 9F CB CB A3 43 B1
   450)      6197.108 1  Rx        0106 -  7    0C 20 9A EC D4 10 77
   451)      6197.450 1  Rx        0132 -  7    FF 0E B6 7F AE 67 18
   452)      6197.834 1  Rx        0308 -  8    9C 18 2B 61 89 A1 CD D1
   453)      6198.132 1  Rx        0206 -  7    10 7C C7 28 82 99 9C
   454)      6198.474 1  Rx        0212 -  7    E3 E1 F0 BE E1 30 4D
   455)      6198.815 1  Rx        0222 -  8    01 25 2D 6D 66 4A 6E 62
   456)      6199.114 1  Rx        0459 -  8    C3 44 68 8A AF D8 F8 0E
   457)      6199.455 1  Rx        0451 -  8    3B B8 FC 39 48 12 F1 D0
   458)      6199.839 1  Rx        0441 -  8    95 A8 61 F4 07 F7 57 1E
   459)      6200.138 1  Rx    1AFB1C04 -  8    74 7A 9A 13 86 DE 8A 7D
   460)      6200.266 1  Rx    1AFB1C00 -  8    00 41 9D 41 7A DF D0 49
   461)      6200.394 1  Rx        0419 -  8    6E DB 30 01 C8 EE 38 57
   462)      6301.173 1  Rx        0332 -  8    D7 5B 0B D1 26 92 DC 28
   463)      6301.728 1  Rx        011A -  5    CD 3E 54 FC 6E
   464)      6302.368 1  Rx        0331 -  8    E9 A3 8F 71 26 81 11 14
   465)      6302.923 1  Rx        011B -  7    78 6A 47 56 11 AC 09
   466)      6303.264 1  Rx        006E -  7    5A 0F CB CB A3 2D B1
   467)      6303.605 1  Rx        0106 -  7    55 20 9A EC 68 10 77
   468)      6303.947 1  Rx        0132 -  7    EF B1 58 7F 37 8F 18
   469)      6304.373 1  Rx        0308 -  8    A2 18 58 15 9E A8 EA D1
   470)      6304.757 1  Rx        0206 -  7    10 7C B7 EC 82 F8 FC
   471)      6305.056 1  Rx        0212 -  7    AA B5 F0 F6 E1 30 4D
   472)      6305.397 1  Rx        0222 -  8    01 25 53 6B 66 4A 6E FE
   473)      6305.739 1  Rx        0459 -  8    74 44 68 EB 09 9E F8 0E
   474)      6306.165 1  Rx        0451 -  8    3B 3A FC 39 3B 75 E9 57
   475)      6306.421 1  Rx        0441 -  8    95 A8 61 AE 07 F7 57 05
   476)      6306.805 1  Rx    1AFB1C04 -  8    74 7A B0 13 0C 7C 76 7D
   477)      6307.019 1  Rx    1AFB1C00 -  8    00 41 C5 41 7A CA 26 49
   478)      6307.317 1  Rx        0419 -  8    22 DB 57 B3 C8 9A 38 5E
   479)      6375.499 1  Rx        033B -  8    61 2B 50 2C 96 F8 FF B5
   480)      6376.054 1  Rx        0339 -  8    AB DE CF 6D 99 CF 0C 16
   481)      6376.608 1  Rx        0337 -  7    65 24 63 1C 39 ED 8F
   482)      6377.035 1  Rx        001F -  5    9E 88 90 C0 0C
   483)      6377.334 1  Rx        0333 -  4    D5 2F DB 3E
   484)      6377.632 1  Rx        0335 -  8    CA C6 E2 3D 53 59 F4 9E
   485)      6377.931 1  Rx        0121 -  4    8F A6 6A 74
   486)      6378.272 1  Rx        067F -  8    5C CA 50 F3 B7 A9 5B 0E
   487)      6378.571 1  Rx        0681 -  8    55 74 CB 81 E3 2F 48 A0
   488)      6378.870 1  Rx        0309 -  8    83 54 5D 2D FD 41 70 F1
   489)      6379.126 1  Rx        030A -  8    E1 94 D5 EC B7 21 3F C7
   490)      6379.382 1  Rx        0622 -  6    D8 22 06 E7 68 D4
   491)      6379.723 1  Rx        0413 -  6    C4 D0 DF E5 AC 71
   492)      6379.979 1  Rx        0402 -  3    9F 3C DF
   493)      6380.320 1  Rx        0739 -  8    88 46 41 6B 7F 76 88 69
   494)      6380.576 1  Rx        0411 -  8    6A FE 18 B9 14 4F 65 AD
   495)      6380.790 1  Rx        0729 -  8    A8 4F CA 1D 22 13 CC 13
   496)      6381.174 1  Rx        0728 -  8    B6 F0 85 08 F9 B4 C9 AF
   497)      6381.430 1  Rx        0709 -  8    F7 06 60 73 8E 95 C5 FE
   498)      6381.814 1  Rx        0711 -  8    D3 44 66 DE 05 8B 1B 37
   499)      6408.267 1  Rx        0332 -  8    D7 5B 67 5C 26 10 7C 28
   500)      6408.694 1  Rx        011A -  5    04 3E 43 FC 6E
   501)      6409.121 1  Rx        0331 -  8    E9 A3 4B 97 26 81 11 14
   502)      6409.547 1  Rx        011B -  7    4D 6A DB FD 0C AC 70
   503)      6410.059 1  Rx        006E -  7    39 0F 1D CB A3 2D AE
   504)      6410.443 1  Rx        0106 -  7    55 20 3A 13 68 EC 77
   505)      6410.785 1  Rx        0132 -  7    57 B1 D9 FE BE 8F 18
   506)      6411.169 1  Rx        0308 -  8    A2 18 58 15 9E 37 EA AD
   507)      6411.510 1  Rx        0206 -  7    10 33 B7 E9 F8 61 44
   508)      6411.851 1  Rx        0212 -  7    AA B5 43 3D BE 8B AA
   509)      6412.193 1  Rx        0222 -  8    01 04 BF 6B 37 12 6E FC
   510)      6412.491 1  Rx        0459 -  8    29 73 68 57 74 97 F8 6D
   511)      6412.918 1  Rx        0451 -  8    D5 3A FC 85 3B E9 E9 3B
   512)      6413.217 1  Rx        0441 -  8    95 EF 61 F2 18 F7 57 05
   513)      6413.558 1  Rx    1AFB1C04 -  8    2C 0E 62 00 0C 7C 2D 94
   514)      6413.771 1  Rx    1AFB1C00 -  8    00 41 5B 41 7A CA F6 49
   515)      6414.070 1  Rx        0419 -  8    22 2C 0F A2 2A 9A 8B EB
   516)      6515.635 1  Rx        0332 -  8    D7 5B 67 5C 00 5A 7C C7
   517)      6516.190 1  Rx        011A -  5    11 A7 43 F1 6E
   518)      6516.830 1  Rx        0331 -  8    E9 B5 4B 61 29 F1 11 14
   519)      6517.256 1  Rx        011B -  7    4D 4A C4 FD 7B AC 70
   520)      6517.640 1  Rx        006E -  7    39 0F 1D 13 1F 2D A4
   521)      6517.982 1  Rx        0106 -  7    55 20 3A 07 59 EC 77
   522)      6518.323 1  Rx        0132 -  7    A4 7D 19 C8 BE AA 54
   523)      6518.707 1  Rx        0308 -  8    90 E2 63 15 F4 3D EA AD
   524)      6519.006 1  Rx        0206 -  7    85 FA 31 E9 F8 67 80
   525)      6519.262 1  Rx        0212 -  7    AA B5 43 3D BE 8B AA
   526)      6519.603 1  Rx        0222 -  8    2B A7 BF 7B 37 0A DD 4E
   527)      6519.944 1  Rx        0459 -  8    29 A0 68 57 FE 38 F8 6D
   528)      6520.286 1  Rx        0451 -  8    F3 3A A6 85 AA 5B D9 3B
   529)      6520.712 1  Rx        0441 -  8    95 F0 4B F2 18 E5 FE 43
   530)      6521.182 1  Rx    1AFB1C04 -  8    3A 0E 62 00 8C 80 2D 9B
   531)      6521.523 1  Rx    1AFB1C00 -  8    E5 41 5B AD 7A CA 19 49
   532)      6521.822 1  Rx        0419 -  8    AF 2C 0F 26 2A F3 12 02
   533)      6623.412 1  Rx        0332 -  8    D7 67 D2 5C CE 5A 7C C7
   534)      6624.052 1  Rx        011A -  5    11 9E 43 F1 51
   535)      6624.649 1  Rx        0331 -  8    E9 A8 11 27 29 7E 11 13
   536)      6625.118 1  Rx        011B -  7    B2 75 F5 B2 7C AC 70
   537)      6625.460 1  Rx        006E -  7    39 D0 87 F9 44 2D A4
   538)      6625.886 1  Rx        0106 -  7    55 9C 9E 07 85 49 8D
   539)      6626.142 1  Rx        0132 -  7    A4 7D B3 1C BE AA 81
   540)      6626.441 1  Rx        0308 -  8    D9 B5 63 15 F4 D4 EA 83
   541)      6626.825 1  Rx        0206 -  7    0D FA 31 E9 F8 DE 80
   542)      6627.124 1  Rx        0212 -  7    AA B5 43 B7 BE 8B 04
   543)      6627.422 1  Rx        0222 -  8    2B A7 BF 7B 1F 78 DD 18
   544)      6627.806 1  Rx        0459 -  8    4A AE 68 57 1A 38 F8 84
   545)      6628.105 1  Rx        0451 -  8    37 0B 77 85 1A 5B D9 4E
   546)      6628.446 1  Rx        0441 -  8    9D F0 4B F2 18 F7 76 C4
   547)      6628.958 1  Rx    1AFB1C04 -  8    4C EF 62 AF 8C 80 2D CC
   548)      6629.300 1  Rx    1AFB1C00 -  8    BD 41 00 2B 7A CA 19 49
   549)      6629.598 1  Rx        0419 -  8    AF 2C 2C 13 26 54 12 EF
   550)      6731.061 1  Rx        0332 -  8    D7 2F D2 E2 CE A0 7C C7
   551)      6731.658 1  Rx        011A -  5    63 D7 F0 F1 51
   552)      6732.255 1  Rx        0331 -  8    E9 A8 68 27 29 7E 47 19
   553)      6732.767 1  Rx        011B -  7    B2 B4 F5 9F 7C A3 B8
   554)      6733.194 1  Rx        006E -  7    39 F2 DF F9 7F AD 54
   555)      6733.493 1  Rx        0106 -  7    55 9C B3 07 85 59 8D
   556)      6733.834 1  Rx        0132 -  7    98 77 5B 1C 3F AA 81
   557)      6734.175 1  Rx        0308 -  8    D9 6C 03 15 D8 AD EA 83
   558)      6734.517 1  Rx        0206 -  7    57 FA FD E9 F8 80 F9
   559)      6734.815 1  Rx        0212 -  7    DD B5 18 96 BE 8B EA
   560)      6735.114 1  Rx        0222 -  8    99 A7 BF 7B 55 78 BB 18
   561)      6735.498 1  Rx        0459 -  8    4A 10 CD 9F 1A 72 22 47
   562)      6735.839 1  Rx        0451 -  8    FC 0B 22 14 1A 7C 60 4E
   563)      6736.095 1  Rx        0441 -  8    BB F0 79 F2 18 F7 76 51
   564)      6736.437 1  Rx    1AFB1C04 -  8    4C FA 62 AF 8C 78 25 D3
   565)      6736.735 1  Rx    1AFB1C00 -  8    BD 9C ED 2B B1 CA 5D DA
   566)      6737.077 1  Rx        0419 -  8    AF 4A 2C 13 CE 54 58 EF
   567)      6838.325 1  Rx        0332 -  8    04 50 48 C3 96 0C 96 03
   568)      6838.837 1  Rx        011A -  5    63 D7 F0 93 51
   569)      6839.435 1  Rx        0331 -  8    BD A8 68 10 8A 7E 47 19
   570)      6839.989 1  Rx        011B -  7    F2 F3 3E 9F 18 6F B8
   571)      6840.501 1  Rx        006E -  7    39 C5 B1 0C 7F AD F4
   572)      6840.843 1  Rx        0106 -  7    46 A6 B3 DD 40 F2 00
   573)      6841.227 1  Rx        0132 -  7    98 77 5B FB 25 59 45
   574)      6841.568 1  Rx        0308 -  8    D9 6C CD C6 7E 44 EA 83
   575)      6841.909 1  Rx        0206 -  7    57 FA FD C9 F8 80 21
   576)      6842.251 1  Rx        0212 -  7    DD 09 3B 96 BE 58 65
   577)      6842.592 1  Rx        0222 -  8    8D A7 BF 7B DA 78 04 3F
   578)      6842.933 1  Rx        0459 -  8    1A 10 9C CB 1A 72 22 5E
   579)      6843.232 1  Rx        0451 -  8    FC CC 22 14 3D 7C 21 3B
   580)      6843.531 1  Rx        0441 -  8    BB 59 C4 F2 18 4D 76 DD
   581)      6843.829 1  Rx    1AFB1C04 -  8    4C 97 62 AF 4F CB 25 D3
   582)      6844.171 1  Rx    1AFB1C00 -  8    AA 9C 2D 1C 06 6B 0E BF
   583)      6844.427 1  Rx        0419 -  8    73 4A 2C 30 D5 C0 C5 AE
   584)      6882.912 1  Rx        033B -  8    6E 7D EE 2C E5 F8 FF 17
   585)      6883.467 1  Rx        0339 -  8    AB DE F1 6D 24 5B 4E 16
   586)      6883.979 1  Rx        0337 -  7    65 D2 93 64 39 56 3B
   587)      6884.278 1  Rx        001F -  5    2B 88 90 C0 0C
   588)      6884.790 1  Rx        0333 -  4    D5 B9 04 F1
   589)      6885.174 1  Rx        0335 -  8    CA 07 E2 3D E0 59 59 FA
   590)      6885.430 1  Rx        0121 -  4    8F A6 3F 74
   591)      6885.771 1  Rx        067F -  8    5C CA 50 38 0C A9 4A 21
   592)      6886.155 1  Rx        0681 -  8    55 74 A8 81 E3 2F A3 A0
   593)      6886.496 1  Rx        0309 -  8    00 54 5D F6 FD 41 49 F1
   594)      6886.795 1  Rx        030A -  8    E1 94 D5 4E B7 B3 7F 8A
   595)      6887.094 1  Rx        0622 -  6    EE 22 06 87 6C E3
   596)      6887.435 1  Rx        0413 -  6    C4 D0 DF 3E AC 71
   597)      6887.691 1  Rx        0402 -  3    8C 37 DF
   598)      6888.160 1  Rx        0739 -  8    88 46 41 6B 7F 76 88 69
   599)      6888.502 1  Rx        0411 -  8    1D FE 18 B9 14 4F 65 AD
   600)      6888.971 1  Rx        0729 -  8    A8 69 30 1D 22 6C CC 77
   601)      6889.440 1  Rx        0728 -  8    B6 4C 85 9B F9 79 86 AF
   602)      6889.824 1  Rx        0709 -  8    F7 F2 C5 52 8E 95 C5 61
   603)      6890.208 1  Rx        0711 -  8    42 AB 0B DE 87 48 74 37
   604)      6945.590 1  Rx        0332 -  8    04 50 F7 13 B1 0C 96 03
   605)      6946.230 1  Rx        011A -  5    55 9A F0 93 5C
   606)      6946.742 1  Rx        0331 -  8    BD 9F 68 2B D7 7E 98 3E
   607)      6947.297 1  Rx        011B -  7    F2 F3 3E 9F 18 44 B8
   608)      6947.681 1  Rx        006E -  7    89 A5 C4 0C 7F AD F4
   609)      6948.065 1  Rx        0106 -  7    46 A6 B3 DD 40 A1 00
   610)      6948.364 1  Rx        0132 -  7    01 77 C1 FB 01 59 45
   611)      6948.620 1  Rx        0308 -  8    98 6C CD 63 7E 44 EC 8A
   612)      6949.046 1  Rx        0206 -  7    2A 5D 72 C9 ED 80 C4
   613)      6949.345 1  Rx        0212 -  7    93 CF 3B 96 BE 41 65
   614)      6949.729 1  Rx        0222 -  8    8D 2D 2B 84 7A C0 04 6D
   615)      6950.028 1  Rx        0459 -  8    B1 10 3F CB 1A 72 22 5E
   616)      6950.284 1  Rx        0451 -  8    96 EA 22 A1 3D 7C 37 3B
   617)      6950.625 1  Rx        0441 -  8    43 CB C4 C4 1A 4D 76 B3
   618)      6950.966 1  Rx    1AFB1C04 -  8    E1 0F 62 F8 4F E9 39 32
   619)      6951.222 1  Rx    1AFB1C00 -  8    AA 9C 41 1C 05 43 0E BF
   620)      6951.521 1  Rx        0419 -  8    E3 78 15 C4 D5 C0 C5 65
   621)      7053.239 1  Rx        0332 -  8    04 5B F7 F3 B1 5C D0 B6
   622)      7053.623 1  Rx        011A -  5    55 9A F0 93 D8
   623)      7054.263 1  Rx        0331 -  8    BD 9F E2 5A D7 7E 98 F8
   624)      7054.818 1  Rx        011B -  7    F2 F3 34 22 17 A2 8C
   625)      7055.458 1  Rx        006E -  7    89 A5 C4 0C C0 AD F4
   626)      7056.012 1  Rx        0106 -  7    9E 62 92 4F D8 CB 00
   627)      7056.652 1  Rx        0132 -  7    E7 77 C1 FB 01 67 86
   628)      7057.122 1  Rx        0308 -  8    59 EF CD D4 C2 DB EC 8A
   629)      7057.506 1  Rx        0206 -  7    2A 5D 72 C9 5B 80 CA
   630)      7057.932 1  Rx        0212 -  7    E0 CF 3B 96 BE 41 65
   631)      7058.359 1  Rx        0222 -  8    8D 2D 75 84 67 B6 04 F9
   632)      7058.956 1  Rx        0459 -  8    B1 10 3F CB 1A 8B B0 D7
   633)      7059.383 1  Rx        0451 -  8    3A 26 0F FA 28 7C A1 3B
   634)      7059.810 1  Rx        0441 -  8    43 97 8C C4 1A 4D 76 B3
   635)      7060.663 1  Rx    1AFB1C04 -  8    E1 0F CA 55 4F F7 39 3F
   636)      7061.218 1  Rx    1AFB1C00 -  8    2F 9C 41 19 D1 43 02 BF
   637)      7061.644 1  Rx        0419 -  8    30 78 59 B3 D5 C0 C5 65
   638)      7139.170 1  Rx        033A -  8    C7 E9 91 61 4B 35 12 AC
   639)      7139.810 1  Rx        0336 -  8    2C BB E7 F6 57 D9 33 90
   640)      7140.322 1  Rx        0334 -  8    ED 9E A9 27 40 A5 AC 2E
   641)      7140.877 1  Rx        06DD -  8    93 9A FA D6 6F 1E E3 41
   642)      7141.304 1  Rx        0799 -  8    13 44 90 99 EF 60 84 42
   643)      7162.424 1  Rx        0332 -  8    D0 5B C8 BC B1 5C B1 A9
   644)      7162.552 1  Rx        011A -  5    87 A6 A5 E5 3F
   645)      7162.680 1  Rx        0331 -  8    F2 C9 8F F4 F5 BB 4C 5E
   646)      7162.808 1  Rx        011B -  7    1E DD 10 25 5B 66 3D
   647)      7162.936 1  Rx        006E -  7    D5 7C 71 17 7F E7 DA
   648)      7163.064 1  Rx        0106 -  7    2D 4E 33 0C 6E 23 5E
   649)      7163.192 1  Rx        0132 -  7    39 A2 10 A7 8F 50 C4
   650)      7163.320 1  Rx        0308 -  8    22 83 F3 BD DC 46 61 0C
   651)      7163.448 1  Rx        0206 -  7    17 85 78 A0 CD 1A D9
   652)      7163.533 1  Rx        0212 -  7    09 B8 20 E0 D8 9E 13
   653)      7163.661 1  Rx        0222 -  8    61 A6 01 A7 17 1E 51 5D
   654)      7163.832 1  Rx        0459 -  8    ED 83 93 0F 6A 24 82 88
   655)      7163.960 1  Rx        0451 -  8    C2 34 09 CD D6 7A E7 2F
   656)      7164.088 1  Rx        0441 -  8    D9 56 46 05 44 6D F6 A5
   657)      7164.216 1  Rx    1AFB1C04 -  8    02 B5 5D 40 74 6B 77 80
   658)      7164.387 1  Rx    1AFB1C00 -  8    2F 19 41 19 2C 43 02 BF
   659)      7164.643 1  Rx        0419 -  8    30 03 E4 B3 DC C0 7F 74
   660)      7265.934 1  Rx        0332 -  8    A1 5B C8 2A B1 5C 8D 5D
   661)      7266.574 1  Rx        011A -  5    87 A6 C0 07 3F
   662)      7267.299 1  Rx        0331 -  8    B2 C9 8F F4 F5 9C 84 5E
   663)      7267.897 1  Rx        011B -  7    1E DD 10 B1 5B 66 3D
   664)      7268.409 1  Rx        006E -  7    59 7C 32 17 75 62 88
   665)      7268.835 1  Rx        0106 -  7    2D 4E 8A 0C 6E AA 69
   666)      7269.305 1  Rx        0132 -  7    39 D3 67 71 26 50 B3
   667)      7269.689 1  Rx        0308 -  8    58 83 21 70 DC F5 61 E9
   668)      7270.030 1  Rx        0206 -  7    17 EC 26 A0 CD 1A D9
   669)      7270.329 1  Rx        0212 -  7    3F B8 20 E0 D8 9E 87
   670)      7270.798 1  Rx        0222 -  8    61 74 01 35 17 DE 04 5D
   671)      7271.139 1  Rx        0459 -  8    ED 11 93 0F 9C 24 82 A6
   672)      7271.566 1  Rx        0451 -  8    EA 34 D2 CD D6 BE E7 1E
   673)      7271.993 1  Rx        0441 -  8    D9 63 46 DF D4 29 F6 33
   674)      7272.377 1  Rx    1AFB1C04 -  8    02 B5 08 40 3D 59 53 80
   675)      7272.547 1  Rx    1AFB1C00 -  8    B4 D0 E5 4F A8 99 E4 9A
   676)      7272.675 1  Rx        0419 -  8    E0 02 B1 7C 15 4A 43 53
   677)      7373.327 1  Rx        0332 -  8    62 5B C8 7D 33 93 BA 5D
   678)      7373.839 1  Rx        011A -  5    53 66 21 DA 3F
   679)      7374.564 1  Rx        0331 -  8    71 C9 8F F4 F5 19 AB 5E
   680)      7374.906 1  Rx        011B -  7    1E 8D 10 B1 B0 66 60
   681)      7375.247 1  Rx        006E -  7    59 C3 32 21 C9 AB 59
   682)      7375.546 1  Rx        0106 -  7    2D 4E 8A 0C 6E AA 69
   683)      7375.930 1  Rx        0132 -  7    DA D3 67 85 26 50 09
   684)      7376.399 1  Rx        0308 -  8    52 BB 21 67 DC F5 AF E2
   685)      7376.783 1  Rx        0206 -  7    17 07 22 A0 C9 CF D9
   686)      7377.210 1  Rx        0212 -  7    3F B8 2C 4A D8 9E 87
   687)      7377.594 1  Rx        0222 -  8    0C D3 01 35 17 80 3E 5D
   688)      7377.850 1  Rx        0459 -  8    6F 11 93 0F 9C 24 99 A6
   689)      7378.234 1  Rx        0451 -  8    EA 98 D2 CD 7A BE AD F1
   690)      7378.618 1  Rx        0441 -  8    D9 63 57 DF CC AD F6 C3
   691)      7378.959 1  Rx    1AFB1C04 -  8    F0 70 08 40 82 96 53 80
   692)      7379.258 1  Rx    1AFB1C00 -  8    72 D0 E9 4F A8 79 E4 2E
   693)      7379.642 1  Rx        0419 -  8    48 02 18 E7 32 2B 43 53
   694)      7391.930 1  Rx        033B -  8    47 0F EE 2C A8 72 FF 17
   695)      7392.399 1  Rx        0339 -  8    0E DE 7B 6D 6B E3 4E 0F
   696)      7392.996 1  Rx        0337 -  7    6F D2 93 64 39 56 67
   697)      7393.380 1  Rx        001F -  5    86 D4 90 C0 0C
   698)      7393.850 1  Rx        0333 -  4    D5 F8 04 F1
   699)      7394.362 1  Rx        0335 -  8    CA BA 48 C0 E0 59 59 CA
   700)      7394.575 1  Rx        0121 -  4    8F A6 3F 74
   701)      7394.916 1  Rx        067F -  8    F0 CA 90 38 6C A9 9D 21
   702)      7395.215 1  Rx        0681 -  8    D8 A0 D8 81 E3 18 A3 A0
   703)      7395.514 1  Rx        0309 -  8    90 54 5D F6 FD 41 49 AD
   704)      7395.770 1  Rx        030A -  8    E1 94 92 4E AA A1 61 8A
   705)      7396.068 1  Rx        0622 -  6    50 55 06 B7 EB EF
   706)      7396.367 1  Rx        0413 -  6    C4 D0 7A 51 AC 71
   707)      7396.580 1  Rx        0402 -  3    65 0F 07
   708)      7397.050 1  Rx        0739 -  8    88 46 AF 9E 7F 76 07 D5
   709)      7397.348 1  Rx        0411 -  8    1D FE 18 8E 55 5C 65 AD
   710)      7397.647 1  Rx        0729 -  8    A8 22 BC 1D 22 A4 F2 77
   711)      7397.946 1  Rx        0728 -  8    45 4C 85 04 F9 B3 86 AF
   712)      7398.244 1  Rx        0709 -  8    79 F2 C5 52 77 95 CB 5B
   713)      7398.543 1  Rx        0711 -  8    42 2B 0B 28 14 48 B9 7C
   714)      7481.262 1  Rx        0332 -  8    62 3B 5B 7D 8C BC BA 85
   715)      7481.774 1  Rx        011A -  5    53 66 60 2E E4
   716)      7482.499 1  Rx        0331 -  8    78 C9 90 F4 9C 19 AB B2
   717)      7483.182 1  Rx        011B -  7    1E 8D 10 B1 B0 38 60
   718)      7483.694 1  Rx        006E -  7    04 C3 32 21 8B 32 1E
   719)      7484.206 1  Rx        0106 -  7    2D 4E 8A 0C A2 0D 35
   720)      7484.590 1  Rx        0132 -  7    28 6C CE E4 26 50 09
   721)      7485.016 1  Rx        0308 -  8    52 EC 21 67 14 E4 AF E2
   722)      7485.528 1  Rx        0206 -  7    17 46 22 A0 9F CF D9
   723)      7485.955 1  Rx        0212 -  7    F5 DE 2C 4A D8 9E 9F
   724)      7486.467 1  Rx        0222 -  8    0C B3 FE A8 17 0F 3E CD
   725)      7486.979 1  Rx        0459 -  8    86 11 27 0F 3C 24 73 D0
   726)      7487.491 1  Rx        0451 -  8    EA 16 20 CD BE BE AD 16
   727)      7487.960 1  Rx        0441 -  8    98 63 A1 4D 4E AD F6 C3
   728)      7488.430 1  Rx    1AFB1C04 -  8    F0 CC 32 8E 82 96 53 80
   729)      7488.771 1  Rx    1AFB1C00 -  8    2B D0 E9 4F A8 79 E4 2E
   730)      7488.984 1  Rx        0419 -  8    48 70 18 E7 32 7A 43 53
   731)      7590.105 1  Rx        0332 -  8    62 3B 5B B3 52 BC 6A 85
   732)      7590.617 1  Rx        011A -  5    53 66 F3 2E 74
   733)      7591.300 1  Rx        0331 -  8    78 C0 1C F4 BE 19 AB B2
   734)      7591.769 1  Rx        011B -  7    1E 8D AB D7 B0 38 60
   735)      7592.324 1  Rx        006E -  7    54 C3 32 1A 48 21 1E
   736)      7592.708 1  Rx        0106 -  7    2D 4E EC A7 A2 0D FE
   737)      7593.007 1  Rx        0132 -  7    FA B9 CE E4 48 50 07
   738)      7593.348 1  Rx        0308 -  8    2B 15 21 DD A4 82 AF 5B
   739)      7593.604 1  Rx        0206 -  7    FA 46 22 7D 9F 37 11
   740)      7593.903 1  Rx        0212 -  7    F5 2B 2C 4A DE 8E 9F
   741)      7594.159 1  Rx        0222 -  8    83 B3 FE A8 17 0F 3E CD
   742)      7594.543 1  Rx        0459 -  8    86 38 27 A1 3C 42 9D D0
   743)      7595.140 1  Rx        0451 -  8    5E 16 20 C4 06 51 03 16
   744)      7595.567 1  Rx        0441 -  8    98 04 56 4D 4E 05 0C 9A
   745)      7596.164 1  Rx    1AFB1C04 -  8    3C CC FD 8E 82 DA 79 80
   746)      7596.719 1  Rx    1AFB1C00 -  8    E9 D0 E9 4F AB 9E E4 2E
   747)      7597.273 1  Rx        0419 -  8    9E B1 18 BF 32 7A A0 53
   748)      7698.181 1  Rx        0332 -  8    07 1D 5B BF 52 BC 48 78
   749)      7698.821 1  Rx        011A -  5    E3 5D F3 2E 52
   750)      7699.418 1  Rx        0331 -  8    FF C0 50 F4 40 19 73 B2
   751)      7700.101 1  Rx        011B -  7    1E 4D AB 70 6F DC 0F
   752)      7700.570 1  Rx        006E -  7    54 4A 89 1A 48 21 26
   753)      7700.954 1  Rx        0106 -  7    2D 4E EC A7 A2 0D 9E
   754)      7701.381 1  Rx        0132 -  7    05 05 A0 E4 22 50 06
   755)      7701.637 1  Rx        0308 -  8    2B 15 21 DD A4 82 AF 5B
   756)      7701.893 1  Rx        0206 -  7    FA 46 22 7D 9F 37 AB
   757)      7702.191 1  Rx        0212 -  7    97 E5 2C 4A 32 8E 9F
   758)      7702.575 1  Rx        0222 -  8    0D CF 97 62 17 E3 3E ED
   759)      7702.917 1  Rx        0459 -  8    86 38 B6 AC 8F 42 A5 1F
   760)      7703.258 1  Rx        0451 -  8    5E 16 23 3D 06 51 03 16
   761)      7703.557 1  Rx        0441 -  8    B7 04 56 4D 4E 05 0C 9A
   762)      7703.898 1  Rx    1AFB1C04 -  8    3C CC FD 8E 9B E0 BD 98
   763)      7704.197 1  Rx    1AFB1C00 -  8    E9 D0 F6 D3 41 CD BB 2E
   764)      7704.581 1  Rx        0419 -  8    20 B1 18 7C 4C 0E 30 C3
   765)      7805.958 1  Rx        0332 -  8    07 1D 5B BF 11 BC A7 78
   766)      7806.555 1  Rx        011A -  5    4A 62 DC 2E 52
   767)      7807.238 1  Rx        0331 -  8    BC C0 50 0D 40 6C 73 11
   768)      7807.878 1  Rx        011B -  7    1E 54 AB 70 D9 EC 0F
   769)      7808.518 1  Rx        006E -  7    54 AF 89 30 D6 4F 26
   770)      7808.987 1  Rx        0106 -  7    2D 67 1C D8 A2 0D 9E
   771)      7809.499 1  Rx        0132 -  7    9B 05 A0 E4 22 50 06
   772)      7809.840 1  Rx        0308 -  8    2B 15 21 DD EE 82 AF 5B
   773)      7810.267 1  Rx        0206 -  7    49 76 22 EE 6E 80 AB
   774)      7810.651 1  Rx        0212 -  7    52 E5 2C 4A 32 8E 9F
   775)      7811.078 1  Rx        0222 -  8    4B CF DD 62 17 E3 3E ED
   776)      7811.376 1  Rx        0459 -  8    86 38 B6 AC 8F 68 EE 1F
   777)      7811.846 1  Rx        0451 -  8    37 16 60 98 06 51 79 16
   778)      7812.315 1  Rx        0441 -  8    B7 7F 56 4D 4E D4 31 21
   779)      7812.827 1  Rx    1AFB1C04 -  8    3C 08 E2 8E 6B FC C5 98
   780)      7813.339 1  Rx    1AFB1C00 -  8    E9 D0 CF D3 41 CD C2 2E
   781)      7813.808 1  Rx        0419 -  8    BE B1 A4 81 4C 0E 30 81
   782)      7900.636 1  Rx        033B -  8    86 0F 52 2C A8 26 FF 17
   783)      7901.233 1  Rx        0339 -  8    0E DE 7B 6D DB E3 41 0F
   784)      7901.830 1  Rx        0337 -  7    6F D2 01 F0 9E 56 67
   785)      7902.257 1  Rx        001F -  5    86 D4 90 C0 F7
   786)      7902.513 1  Rx        0333 -  4    D5 F8 04 B0
   787)      7902.812 1  Rx        0335 -  8    CA BA 48 5A E0 45 59 CA
   788)      7903.281 1  Rx        0121 -  4    16 A6 3F DD
   789)      7903.836 1  Rx        067F -  8    F0 5B 90 3A 62 A9 9D 21
   790)      7904.262 1  Rx        0681 -  8    3F A0 D8 81 E3 18 76 44
   791)      7904.646 1  Rx        0309 -  8    C2 54 FE F6 FD 41 D9 AD
   792)      7904.988 1  Rx        030A -  8    98 A6 92 4E B9 A1 61 AE
   793)      7905.286 1  Rx        0622 -  6    50 55 06 B7 2E 50
   794)      7905.713 1  Rx        0413 -  6    C4 D0 CC 11 AC A7
   795)      7906.054 1  Rx        0402 -  3    65 0F A6
   796)      7906.609 1  Rx        0739 -  8    75 46 AF 9E 7F 38 07 DD
   797)      7906.993 1  Rx        0411 -  8    1D FE 18 8E 55 5C 65 9D
   798)      7907.334 1  Rx        0729 -  8    BE 87 F9 8D EA A4 C6 77
   799)      7907.633 1  Rx        0728 -  8    BF 4C 85 04 0A E1 86 AF
   800)      7907.932 1  Rx        0709 -  8    79 F2 C5 52 77 A2 CF 5B
   801)      7908.273 1  Rx        0711 -  8    42 2B 0B 28 14 48 95 7C
   802)      7914.374 1  Rx        0332 -  8    DE 8A 9C D8 48 0B 28 CE
   803)      7914.886 1  Rx        011A -  5    4A 62 DC C1 52
   804)      7915.398 1  Rx        0331 -  8    AA 0E 50 0D AC 2E 61 11
   805)      7915.825 1  Rx        011B -  7    60 54 AE 70 D9 BD FF
   806)      7916.294 1  Rx        006E -  7    54 AF B9 30 D6 17 26
   807)      7916.892 1  Rx        0106 -  7    47 2E 33 D8 0B 6F 9E
   808)      7917.617 1  Rx        0132 -  7    9B 05 0D E4 22 50 06
   809)      7918.172 1  Rx        0308 -  8    C8 22 21 A8 4C 7A CB 5B
   810)      7918.641 1  Rx        0206 -  7    26 44 E3 38 6E EB AB
   811)      7918.982 1  Rx        0212 -  7    E2 22 01 9A 32 8E 9F
   812)      7919.324 1  Rx        0222 -  8    C3 CF 20 1E 1A E3 3E 37
   813)      7919.665 1  Rx        0459 -  8    8A 43 11 C2 8F 73 30 1F
   814)      7920.006 1  Rx        0451 -  8    37 01 4F 98 F5 56 98 A0
   815)      7920.348 1  Rx        0441 -  8    E2 7F 56 AA 4E 39 B2 21
   816)      7920.732 1  Rx    1AFB1C04 -  8    27 E7 DC 8E 35 FC 65 98
   817)      7921.073 1  Rx    1AFB1C00 -  8    D2 D0 D4 E9 41 7C D2 D0
   818)      7921.457 1  Rx        0419 -  8    BE B1 A4 81 AA 0E 10 81
   819)      8022.621 1  Rx        0332 -  8    DE 8A FA 0C 48 0B 7A CE
   820)      8023.090 1  Rx        011A -  5    4A 62 DC F3 A8
   821)      8023.687 1  Rx        0331 -  8    AA EE 50 41 01 2E 7F 3D
   822)      8024.242 1  Rx        011B -  7    A2 54 F7 51 4A BD 5F
   823)      8024.583 1  Rx        006E -  7    54 84 B9 30 D6 17 93
   824)      8024.925 1  Rx        0106 -  7    47 04 9B D8 3A F5 B1
   825)      8025.181 1  Rx        0132 -  7    9B 51 0D E3 22 B5 06
   826)      8025.607 1  Rx        0308 -  8    C8 22 B1 F2 4C 7A 5D 57
   827)      8025.863 1  Rx        0206 -  7    AC 44 E3 C5 6E EB AB
   828)      8026.205 1  Rx        0212 -  7    AA 22 01 E7 32 8E 72
   829)      8026.546 1  Rx        0222 -  8    C3 CF 20 1E 1A E3 3E 37
   830)      8026.930 1  Rx        0459 -  8    8A 43 1F 51 97 73 30 9E
   831)      8027.186 1  Rx        0451 -  8    A1 01 4F D8 FC 56 98 A0
   832)      8027.485 1  Rx        0441 -  8    E2 41 45 AA CF 41 B2 A7
   833)      8027.911 1  Rx    1AFB1C04 -  8    27 B1 03 8E 81 FC 65 0F
   834)      8028.125 1  Rx    1AFB1C00 -  8    EA D0 D4 E9 41 7C D2 FE
   835)      8028.466 1  Rx        0419 -  8    D1 E7 A4 81 AA 2C 88 58
   836)      8130.056 1  Rx        0332 -  8    C6 8A FA 0C 48 80 7A CE
   837)      8130.483 1  Rx        011A -  5    F4 5E 34 F3 A8
   838)      8131.123 1  Rx        0331 -  8    44 EE 17 41 01 6E D6 3D
   839)      8131.635 1  Rx        011B -  7    A2 54 F7 AE 6E 13 5F
   840)      8132.019 1  Rx        006E -  7    DF 84 B9 30 B9 17 93
   841)      8132.317 1  Rx        0106 -  7    47 04 9B 71 3A B1 B1
   842)      8132.616 1  Rx        0132 -  7    9B 5B F2 BF 22 AC 06
   843)      8132.915 1  Rx        0308 -  8    C8 CD 92 1B A0 7A 5D 57
   844)      8133.299 1  Rx        0206 -  7    AC 44 35 B5 6E EB 09
   845)      8133.640 1  Rx        0212 -  7    FE 22 E5 E7 32 8E BA
   846)      8133.939 1  Rx        0222 -  8    DD CF 39 AF 1A E3 3E 37
   847)      8134.237 1  Rx        0459 -  8    8A C1 1F 51 F7 A7 98 9E
   848)      8134.621 1  Rx        0451 -  8    A1 01 4F D8 C1 56 98 A0
   849)      8135.133 1  Rx        0441 -  8    7B 76 D1 48 CF 41 B5 A7
   850)      8135.475 1  Rx    1AFB1C04 -  8    27 2A 03 F6 94 1C 65 0F
   851)      8135.773 1  Rx    1AFB1C00 -  8    EA 30 D4 E9 41 7C 45 B7
   852)      8136.072 1  Rx        0419 -  8    D1 E7 E8 81 87 64 A2 A9
   853)      8142.344 1  Rx        033A -  8    13 59 6A 61 53 98 12 AC
   854)      8142.728 1  Rx        0336 -  8    2C BB E7 28 88 D9 86 BC
   855)      8143.070 1  Rx        0334 -  8    ED 98 F5 27 40 A5 9E 08
   856)      8143.454 1  Rx        06DD -  8    93 C3 C8 A9 6F 1E A6 BA
   857)      8143.880 1  Rx        0799 -  8    79 48 D4 99 EF 60 84 01
   858)      8236.937 1  Rx        0332 -  8    C6 8A 97 0C 4C 4F 7A CE
   859)      8237.022 1  Rx        011A -  5    95 DD 84 47 D3
   860)      8237.150 1  Rx        0331 -  8    82 FD 54 73 FA FC DE FC
   861)      8237.278 1  Rx        011B -  7    F2 BF 56 3D 62 76 4D
   862)      8237.406 1  Rx        006E -  7    E7 D5 C9 A7 9A 80 DC
   863)      8237.534 1  Rx        0106 -  7    66 47 99 4F B7 E0 1E
   864)      8237.662 1  Rx        0132 -  7    CE F9 35 96 2B 01 04
   865)      8237.790 1  Rx        0308 -  8    26 5A 4A A2 B5 01 C4 C5
   866)      8237.918 1  Rx        0206 -  7    A3 F9 65 25 AD 18 7A
   867)      8238.046 1  Rx        0212 -  7    CD 3E 9C 64 3B 79 FF
   868)      8238.174 1  Rx        0222 -  8    72 34 0B 79 9E 9B 0A 01
   869)      8238.302 1  Rx        0459 -  8    89 2E 8C 86 59 D3 E7 44
   870)      8238.430 1  Rx        0451 -  8    AD CE 97 B4 B0 0F 30 7C
   871)      8238.558 1  Rx        0441 -  8    A5 16 7A CF 66 80 7B 1D
   872)      8238.729 1  Rx    1AFB1C04 -  8    AC FE 65 85 42 43 15 BD
   873)      8238.857 1  Rx    1AFB1C00 -  8    78 31 D4 E9 41 63 45 B7
   874)      8238.985 1  Rx        0419 -  8    6D D2 49 51 87 7B 22 A9
   875)      8340.575 1  Rx        0332 -  8    D5 66 97 29 1F 4F 5F 3F
   876)      8341.215 1  Rx        011A -  5    14 DD 84 47 D3
   877)      8341.770 1  Rx        0331 -  8    4E EE 54 73 FA 0C 02 FC
   878)      8342.324 1  Rx        011B -  7    0C BF DF 65 76 32 4D
   879)      8342.623 1  Rx        006E -  7    E7 C9 C9 18 9A 80 DC
   880)      8342.964 1  Rx        0106 -  7    66 47 99 4F 3A E0 F6
   881)      8343.306 1  Rx        0132 -  7    CE 26 35 96 2B 00 04
   882)      8343.604 1  Rx        0308 -  8    26 82 F8 A2 B5 6F C4 5D
   883)      8343.860 1  Rx        0206 -  7    A3 F9 0E 11 81 18 7A
   884)      8344.159 1  Rx        0212 -  7    FE 3E 9C 64 3B 79 EB
   885)      8344.458 1  Rx        0222 -  8    5D 8F 0B 5B 96 24 91 01
   886)      8344.756 1  Rx        0459 -  8    89 2E 8C 86 B8 3D E7 03
   887)      8345.012 1  Rx        0451 -  8    AD 65 17 83 B0 0F F3 7C
   888)      8345.311 1  Rx        0441 -  8    BF 16 FE CF 62 80 7B 1D
   889)      8345.610 1  Rx    1AFB1C04 -  8    AC FE 65 85 20 43 74 BD
   890)      8345.780 1  Rx    1AFB1C00 -  8    AE 59 D0 DA 0F 8A A2 9F
   891)      8345.908 1  Rx        0419 -  8    70 EF 49 51 2C 3D B8 2F
   892)      8409.738 1  Rx        033B -  8    BC 0F 52 2C B2 26 03 17
   893)      8410.378 1  Rx        0339 -  8    0E 32 7B 06 FE 80 16 31
   894)      8410.976 1  Rx        0337 -  7    6F D2 01 A6 9E 56 EE
   895)      8411.402 1  Rx        001F -  5    86 04 90 D9 D3
   896)      8411.701 1  Rx        0333 -  4    65 79 04 F0
   897)      8412.085 1  Rx        0335 -  8    CA BA 48 45 22 56 5F CA
   898)      8412.298 1  Rx        0121 -  4    4A A6 DB DD
   899)      8412.597 1  Rx        067F -  8    2D 4E 90 E6 28 A9 5E 21
   900)      8412.853 1  Rx        0681 -  8    5A 33 AE 81 F9 18 76 61
   901)      8413.152 1  Rx        0309 -  8    C2 E0 20 F6 98 DF D9 AD
   902)      8413.408 1  Rx        030A -  8    98 A6 BA 35 86 4F 6F AE
   903)      8413.664 1  Rx        0622 -  6    50 8B 06 B7 2E 8C
   904)      8413.962 1  Rx        0413 -  6    C4 4D 2B E5 AC A7
   905)      8414.133 1  Rx        0402 -  3    60 CC A6
   906)      8414.517 1  Rx        0739 -  8    7C FD C3 9E CF EF 07 72
   907)      8414.901 1  Rx        0411 -  8    89 FE 18 8E AB 5C 65 9D
   908)      8415.242 1  Rx        0729 -  8    BE 87 F9 A6 AE EF 51 77
   909)      8415.968 1  Rx        0728 -  8    BF 16 9E B8 BE F7 CE AF
   910)      8416.864 1  Rx        0709 -  8    79 58 DF 52 77 7D 98 5B
   911)      8417.290 1  Rx        0711 -  8    CD C6 0B 28 11 AE 3D 5D
   912)      8446.967 1  Rx        0332 -  8    DB 4F 1E E0 1F 4F 5F 3F
   913)      8447.393 1  Rx        011A -  5    6C DD 06 3A 2C
   914)      8447.948 1  Rx        0331 -  8    4E B7 B4 73 91 18 91 FC
   915)      8448.588 1  Rx        011B -  7    0D BF DF 30 BF 90 CE
   916)      8449.228 1  Rx        006E -  7    E7 EC C9 2D 9A 80 D2
   917)      8449.740 1  Rx        0106 -  7    66 D3 99 20 5F FD E9
   918)      8450.380 1  Rx        0132 -  7    60 2A 5C 96 2B 31 58
   919)      8451.063 1  Rx        0308 -  8    26 82 CE 96 2A 24 71 DE
   920)      8451.916 1  Rx        0206 -  7    DF B0 2E 11 81 03 3F
   921)      8452.641 1  Rx        0212 -  7    FE 3E 9C 64 49 E1 EB
   922)      8453.239 1  Rx        0222 -  8    5D 8F 09 2B DA EE 91 01
   923)      8453.793 1  Rx        0459 -  8    89 2E 13 86 B8 3D F1 03
   924)      8454.391 1  Rx        0451 -  8    59 65 17 5E E8 0F CF DC
   925)      8455.031 1  Rx        0441 -  8    7D 95 3E 8E C8 A8 7B 59
   926)      8455.372 1  Rx    1AFB1C04 -  8    AC FE 65 3B 20 43 74 A5
   927)      8455.799 1  Rx    1AFB1C00 -  8    76 11 D0 6B 0F 8A A2 85
   928)      8456.311 1  Rx        0419 -  8    70 AE 49 72 2C 3D 63 2F
   929)      8557.986 1  Rx        0332 -  8    DB 4F 1E 24 1F D4 32 3F
   930)      8558.711 1  Rx        011A -  5    6C DD 06 F3 D0
   931)      8559.223 1  Rx        0331 -  8    4E B7 0D 73 91 CF FA 06
   932)      8559.607 1  Rx        011B -  7    0D C3 DF 30 BF 90 CE
   933)      8559.906 1  Rx        006E -  7    E7 F5 92 6C 7B 83 D2
   934)      8560.205 1  Rx        0106 -  7    4E D3 99 DA E7 5C 7D
   935)      8560.461 1  Rx        0132 -  7    60 2A 32 96 2B B2 58
   936)      8560.759 1  Rx        0308 -  8    26 82 F2 96 90 32 71 DE
   937)      8560.973 1  Rx        0206 -  7    DF C7 51 53 81 03 3F
   938)      8561.271 1  Rx        0212 -  7    FE 04 03 E5 E7 E1 A6
   939)      8561.485 1  Rx        0222 -  8    5D EF 09 2B A6 4D B5 01
   940)      8561.783 1  Rx        0459 -  8    89 2E E8 86 B8 3D 04 03
   941)      8562.039 1  Rx        0451 -  8    59 65 A9 B1 94 0F CF DC
   942)      8562.381 1  Rx        0441 -  8    7D 9D 41 8E C8 3E 7B 59
   943)      8562.679 1  Rx    1AFB1C04 -  8    13 48 65 20 20 16 05 A5
   944)      8563.021 1  Rx    1AFB1C00 -  8    76 C4 D0 D4 1E 8A A2 AF
   945)      8563.277 1  Rx        0419 -  8    70 AE 49 72 2C 3A 63 85
   946)      8664.184 1  Rx        0332 -  8    DB 8E 19 24 1F D4 AC 13
   947)      8664.739 1  Rx        011A -  5    6C 27 63 F3 D0
   948)      8665.592 1  Rx        0331 -  8    4E F2 0D FD B6 CF FA FC
   949)      8666.062 1  Rx        011B -  7    9D B6 DF D3 5B 90 CE
   950)      8666.446 1  Rx        006E -  7    F8 F5 92 6C 53 E4 FF
   951)      8666.830 1  Rx        0106 -  7    2F D3 BB DA 33 28 9B
   952)      8667.128 1  Rx        0132 -  7    2C 2A 32 96 E6 B2 2A
   953)      8667.470 1  Rx        0308 -  8    48 5C F2 FC B7 32 71 DE
   954)      8667.726 1  Rx        0206 -  7    DF 8E 51 0C B3 CC 3F
   955)      8668.024 1  Rx        0212 -  7    C8 66 5F 6B E7 E1 A6
   956)      8668.280 1  Rx        0222 -  8    5D B0 09 2B A6 4D B5 01
   957)      8668.622 1  Rx        0459 -  8    A6 4C D4 86 B8 9E C9 99
   958)      8668.920 1  Rx        0451 -  8    4D 65 04 F5 94 0F CF 65
   959)      8669.176 1  Rx        0441 -  8    7D 9D B6 8E C8 FD 7B 59
   960)      8669.518 1  Rx    1AFB1C04 -  8    0A 88 65 20 20 45 F5 AC
   961)      8669.816 1  Rx    1AFB1C00 -  8    76 89 1C D4 1E 49 A2 DC
   962)      8670.243 1  Rx        0419 -  8    16 AE 83 72 2C 9C 63 21
   963)      8771.620 1  Rx        0332 -  8    DB 16 71 24 1F D4 AC 82
   964)      8772.174 1  Rx        011A -  5    35 4E A3 23 D0
   965)      8772.729 1  Rx        0331 -  8    4E F2 0D 2A BF CF FA 0D
   966)      8773.028 1  Rx        011B -  7    9D B6 6B 48 25 90 15
   967)      8773.326 1  Rx        006E -  7    F8 F1 04 6C 53 3C E8
   968)      8773.625 1  Rx        0106 -  7    2F 80 63 DA 32 E0 9B
   969)      8773.881 1  Rx        0132 -  7    1D 93 C3 27 F3 B2 A6
   970)      8774.180 1  Rx        0308 -  8    48 5C 30 FC B7 D4 BB DE
   971)      8774.436 1  Rx        0206 -  7    DF FB 51 0C AD D8 4E
   972)      8774.734 1  Rx        0212 -  7    91 98 DB 6B 62 C6 A6
   973)      8775.033 1  Rx        0222 -  8    59 B0 89 2B 4A 4D DB 55
   974)      8775.289 1  Rx        0459 -  8    B4 4C 66 DF B8 9E C9 85
   975)      8775.588 1  Rx        0451 -  8    E9 EC 41 F5 94 49 97 3F
   976)      8775.886 1  Rx        0441 -  8    9C 83 B6 63 C8 FD CD 42
   977)      8776.142 1  Rx    1AFB1C04 -  8    8D 88 65 20 20 EF F5 AC
   978)      8776.484 1  Rx    1AFB1C00 -  8    76 89 6D C2 1E 9C 63 22
   979)      8776.782 1  Rx        0419 -  8    8D AE 83 72 2C 9C 27 E9
   980)      8877.605 1  Rx        0332 -  8    DB 16 D1 7E 1F 07 AC 09
   981)      8878.031 1  Rx        011A -  5    35 33 A3 23 86
   982)      8878.586 1  Rx        0331 -  8    4E 57 0D 2A BF CF FA 88
   983)      8879.098 1  Rx        011B -  7    9D E9 E8 A0 25 90 15
   984)      8879.439 1  Rx        006E -  7    F8 A0 04 34 1E 3C E8
   985)      8879.695 1  Rx        0106 -  7    DF 80 63 DA 29 E0 76
   986)      8879.994 1  Rx        0132 -  7    1D 31 C3 8C 7B 14 A6
   987)      8880.293 1  Rx        0308 -  8    48 C1 30 FC B0 D4 3A DE
   988)      8880.677 1  Rx        0206 -  7    7A 63 51 0C 50 D8 6F
   989)      8881.061 1  Rx        0212 -  7    AA 49 68 B3 1C 8D FB
   990)      8881.487 1  Rx        0222 -  8    E5 2F 78 97 4A A2 DB C2
   991)      8881.914 1  Rx        0459 -  8    B4 4C 66 16 12 9E EC C6
   992)      8882.213 1  Rx        0451 -  8    E9 EC 41 F5 94 20 DB 3F
   993)      8882.511 1  Rx        0441 -  8    5C 83 B6 93 EF FD CD B6
   994)      8882.895 1  Rx    1AFB1C04 -  8    8D 88 C3 DD 35 EF DC AC
   995)      8883.151 1  Rx    1AFB1C00 -  8    76 3D 6D C2 FA 9C 63 70
   996)      8883.407 1  Rx        0419 -  8    8D 1E 83 72 A9 6D B5 A4
   997)      8918.864 1  Rx        033B -  8    BC 0F 52 2C 3F 26 03 11
   998)      8919.461 1  Rx        0339 -  8    0E 32 7B 06 FE FB 53 AD
   999)      8920.058 1  Rx        0337 -  7    6A D2 01 E9 9E 56 82
  1000)      8920.528 1  Rx        001F -  5    72 70 90 D9 D3
  1001)      8921.040 1  Rx        0333 -  4    F1 79 04 F0
  1002)      8921.850 1  Rx        0335 -  8    39 BA 48 FD 5F 56 5F CA
  1003)      8922.661 1  Rx        0121 -  4    4A A6 DB DD
  1004)      8923.344 1  Rx        067F -  8    2D 4E 17 E6 DD A9 0E 21
  1005)      8923.770 1  Rx        0681 -  8    5A B7 AE 0B F9 18 D9 61
  1006)      8924.197 1  Rx        0309 -  8    D9 E0 9D 5D 98 DF 64 A3
  1007)      8924.581 1  Rx        030A -  8    AA 3A BC 5B 24 4F 6F AE
  1008)      8924.837 1  Rx        0622 -  6    50 8B 06 B7 2E 8C
  1009)      8925.136 1  Rx        0413 -  6    F9 DA 2B E5 AC A7
  1010)      8925.477 1  Rx        0402 -  3    7A CC 7D
  1011)      8925.861 1  Rx        0739 -  8    F0 FD C3 F5 29 46 07 72
  1012)      8926.416 1  Rx        0411 -  8    58 FE 18 8E F7 5C BC 65
  1013)      8926.885 1  Rx        0729 -  8    BE 7A F9 A6 AE 6A 0D 0B
  1014)      8927.269 1  Rx        0728 -  8    52 16 9E B8 BE D6 A3 AF
  1015)      8927.653 1  Rx        0709 -  8    79 C9 DF 52 77 97 8E 14
  1016)      8927.909 1  Rx        0711 -  8    B2 93 0B 28 11 AE 3D 5D
  1017)      8983.803 1  Rx        0332 -  8    85 51 69 47 D9 1F 25 8A
  1018)      8984.400 1  Rx        011A -  5    9B 33 63 DF 86
  1019)      8984.997 1  Rx        0331 -  8    18 72 4A 2A 4C CF 3A E3
  1020)      8985.509 1  Rx        011B -  7    8E E9 28 A0 25 90 C9
  1021)      8986.064 1  Rx        006E -  7    90 A0 04 A2 1E 3C D3
  1022)      8986.576 1  Rx        0106 -  7    0D 80 63 DA 65 8E 76
  1023)      8987.216 1  Rx        0132 -  7    1D 31 C3 8C 69 AF A6
  1024)      8987.728 1  Rx        0308 -  8    48 D6 AD 81 DA CF 68 6E
  1025)      8988.197 1  Rx        0206 -  7    7A 2B 51 FE 50 D8 6F
  1026)      8988.752 1  Rx        0212 -  7    AA E6 FB B3 1C 8D 0A
  1027)      8989.221 1  Rx        0222 -  8    71 2F 44 97 4A 33 DB C2
  1028)      8989.776 1  Rx        0459 -  8    B4 4C 83 66 B5 46 24 C6
  1029)      8990.288 1  Rx        0451 -  8    E9 EC C1 D8 A8 20 DB A1
  1030)      8990.800 1  Rx        0441 -  8    54 83 70 93 EF A7 91 B6
  1031)      8991.355 1  Rx    1AFB1C04 -  8    8D 82 FB 73 08 FC D5 6A
  1032)      8991.782 1  Rx    1AFB1C00 -  8    62 3D 6D C2 1F 03 09 B2
  1033)      8992.123 1  Rx        0419 -  8    8D 6B 39 72 78 6D B5 A4
  1034)      9093.116 1  Rx        0332 -  8    85 13 69 89 00 1F A5 8A
  1035)      9093.628 1  Rx        011A -  5    A2 29 F8 DF 86
  1036)      9094.225 1  Rx        0331 -  8    18 72 36 2A 83 69 25 7B
  1037)      9094.694 1  Rx        011B -  7    9D E9 28 A0 CC 90 C9
  1038)      9095.036 1  Rx        006E -  7    35 C6 B8 55 1E 3C D3
  1039)      9095.334 1  Rx        0106 -  7    0D 80 63 36 05 97 C2
  1040)      9095.548 1  Rx        0132 -  7    1D 70 F7 8C 6F 20 22
  1041)      9095.846 1  Rx        0308 -  8    48 0B AD A1 4E AE 25 6E
  1042)      9096.145 1  Rx        0206 -  7    7A 2B DF 6E 6E B2 D8
  1043)      9096.401 1  Rx        0212 -  7    AA E6 FB 6A 1C 8D 70
  1044)      9096.657 1  Rx        0222 -  8    2B 2F AD DD 9D 33 E3 9F
  1045)      9096.956 1  Rx        0459 -  8    B4 48 83 16 80 46 EE C6
  1046)      9097.254 1  Rx        0451 -  8    0D EC D4 D8 35 CC 8B 27
  1047)      9097.596 1  Rx        0441 -  8    54 00 00 93 EF 60 91 7F
  1048)      9097.894 1  Rx    1AFB1C04 -  8    66 24 FB 73 08 FC 6E 6A
  1049)      9098.278 1  Rx    1AFB1C00 -  8    62 3D 97 1E 1F 34 6B B8
  1050)      9098.620 1  Rx        0419 -  8    D8 57 0C 72 78 6D 33 A4
  1051)      9145.041 1  Rx        033A -  8    11 59 D1 61 DB 98 12 AC
  1052)      9145.639 1  Rx        0336 -  8    2C BB E7 38 96 D9 86 03
  1053)      9146.279 1  Rx        0334 -  8    25 98 B3 27 40 A5 9E 07
  1054)      9146.833 1  Rx        06DD -  8    1E C3 FB 44 6F 1E A6 BA
  1055)      9147.175 1  Rx        0799 -  8    E4 48 AA 99 E2 60 84 01
  1056)      9200.252 1  Rx        0332 -  8    13 13 21 1F 36 1F 9A 8A
  1057)      9200.764 1  Rx        011A -  5    A2 E8 49 DF 8B
  1058)      9201.276 1  Rx        0331 -  8    18 FE AD 2A 83 69 25 2E
  1059)      9201.746 1  Rx        011B -  7    9D E9 28 CA CC 90 4D
  1060)      9202.130 1  Rx        006E -  7    E2 C6 91 B2 36 A2 D3
  1061)      9202.471 1  Rx        0106 -  7    24 80 9A 36 78 DD B7
  1062)      9202.983 1  Rx        0132 -  7    1C 27 F7 88 27 20 22
  1063)      9203.324 1  Rx        0308 -  8    48 0B 36 A1 A8 C0 25 00
  1064)      9203.709 1  Rx        0206 -  7    7A 3E DF 6E 6E D2 53
  1065)      9204.093 1  Rx        0212 -  7    AA E6 B0 6A 1C A8 41
  1066)      9204.434 1  Rx        0222 -  8    2B 6B AD C9 9D 33 2D 9F
  1067)      9205.159 1  Rx        0459 -  8    B4 48 83 16 F1 46 02 E6
  1068)      9205.586 1  Rx        0451 -  8    0D 76 C2 D8 77 F5 68 8F
  1069)      9206.226 1  Rx        0441 -  8    F9 FA 00 93 FF E7 19 7F
  1070)      9206.781 1  Rx    1AFB1C04 -  8    A4 B9 FB B2 D9 FC 6E 29
  1071)      9207.165 1  Rx    1AFB1C00 -  8    62 16 D8 9B FB 2E 47 B8
  1072)      9207.506 1  Rx        0419 -  8    47 57 0C 72 78 32 07 CD
  1073)      9309.011 1  Rx        0332 -  8    13 56 55 1F 36 1F 9A F1
  1074)      9309.096 1  Rx        011A -  5    4C 48 C9 C0 0E
  1075)      9309.224 1  Rx        0331 -  8    CA C3 C2 12 FC 61 CE 66
  1076)      9309.352 1  Rx        011B -  7    94 19 B3 66 7B 11 8B
  1077)      9309.480 1  Rx        006E -  7    60 2E 90 9A 36 6E 8C
  1078)      9309.608 1  Rx        0106 -  7    28 6D E8 84 9B ED 94
  1079)      9309.736 1  Rx        0132 -  7    2B 18 AA 34 5C 03 3C
  1080)      9309.864 1  Rx        0308 -  8    B6 21 C4 26 15 A0 88 84
  1081)      9309.992 1  Rx        0206 -  7    A2 DD 07 DA 70 49 1E
  1082)      9310.077 1  Rx        0212 -  7    A3 B3 A5 92 76 58 85
  1083)      9310.205 1  Rx        0222 -  8    A0 C5 3B 4C BB 44 C4 86
  1084)      9310.333 1  Rx        0459 -  8    9B BD C2 B4 D1 08 64 8E
  1085)      9310.504 1  Rx        0451 -  8    92 08 A1 7A 9A A0 7C 0F
  1086)      9310.632 1  Rx        0441 -  8    26 B2 94 BE 40 C0 3A 50
  1087)      9310.760 1  Rx    1AFB1C04 -  8    06 C4 60 F4 5B 87 7F ED
  1088)      9310.931 1  Rx    1AFB1C00 -  8    B7 58 D8 3D 2E 83 B2 C0
  1089)      9311.059 1  Rx        0419 -  8    47 57 2C CE 78 32 72 CD
  1090)      9412.179 1  Rx        0332 -  8    69 C3 55 1F 36 07 FA F1
  1091)      9412.649 1  Rx        011A -  5    4C 48 C9 C0 96
  1092)      9413.203 1  Rx        0331 -  8    CA E2 C2 92 FC 9E CE 66
  1093)      9413.673 1  Rx        011B -  7    A5 FB 6C 66 DD 11 B1
  1094)      9414.142 1  Rx        006E -  7    BD 2E 15 FF 0D 6E 8C
  1095)      9414.611 1  Rx        0106 -  7    4A 4A E8 E9 55 ED 94
  1096)      9415.038 1  Rx        0132 -  7    2B 18 C6 49 5C 15 3C
  1097)      9415.379 1  Rx        0308 -  8    B6 21 83 E4 58 2F 5C 84
  1098)      9415.763 1  Rx        0206 -  7    A2 1A 07 28 70 49 1E
  1099)      9416.105 1  Rx        0212 -  7    A3 B3 A5 AA 7F 41 98
  1100)      9416.489 1  Rx        0222 -  8    1F 06 3B AC BB 42 97 86
  1101)      9416.830 1  Rx        0459 -  8    9B BD 95 B4 D1 08 64 97
  1102)      9417.214 1  Rx        0451 -  8    92 08 A1 7A 76 73 7C 0F
  1103)      9417.684 1  Rx        0441 -  8    26 47 94 C3 40 A9 3A 50
  1104)      9418.068 1  Rx    1AFB1C04 -  8    06 C4 A0 F4 99 95 7F CA
  1105)      9418.238 1  Rx    1AFB1C00 -  8    4B 2C D5 65 9A 0A D7 7D
  1106)      9418.366 1  Rx        0419 -  8    C9 FA 02 FE 56 91 91 2C
  1107)      9429.017 1  Rx        033B -  8    29 0F 52 2C 3F 37 03 EA
  1108)      9429.145 1  Rx        0339 -  8    D1 61 9B 4B D0 F9 78 62
  1109)      9429.273 1  Rx        0337 -  7    B9 D8 90 AE CC 3B CD
  1110)      9429.401 1  Rx        001F -  5    18 ED 6C EE D7
  1111)      9429.487 1  Rx        0333 -  4    F6 0C D6 C4
  1112)      9429.615 1  Rx        0335 -  8    5B F9 AF DD 4E AF BF 18
  1113)      9429.743 1  Rx        0121 -  4    3D DC AC FD
  1114)      9429.871 1  Rx        067F -  8    7D 81 48 8A D2 DD FF 90
  1115)      9429.999 1  Rx        0681 -  8    6C 05 D8 38 B6 0A B6 34
  1116)      9430.127 1  Rx        0309 -  8    06 6A 8E F8 5E 2A DD 9A
  1117)      9430.255 1  Rx        030A -  8    AE 9C 81 8E 88 C4 72 F3
  1118)      9430.383 1  Rx        0622 -  6    DA 98 51 05 BF 17
  1119)      9430.511 1  Rx        0413 -  6    A4 19 83 D8 33 3B
  1120)      9430.596 1  Rx        0402 -  3    D8 49 0C
  1121)      9430.724 1  Rx        0739 -  8    91 62 6D 73 02 D5 24 38
  1122)      9430.852 1  Rx        0411 -  8    E0 55 63 4B 4B 15 83 6C
  1123)      9430.980 1  Rx        0729 -  8    B7 1F 7F 0C 5C 6A 53 EA
  1124)      9431.151 1  Rx        0728 -  8    DB EF 0A 8C 95 1B FB 14
  1125)      9431.279 1  Rx        0709 -  8    1D B4 F3 A4 F3 4C C8 E1
  1126)      9431.407 1  Rx        0711 -  8    30 53 21 9B 2A F5 A3 F8
