;$FILEVERSION=1.3
;$STARTTIME=45250.4937492578829
;
;   Start time: 20/11/2023 11:50:59.935.8
;   Generated by PCAN-Explorer v6.6.1.2744
;-------------------------------------------------------------------------------
;   Bus  Connection   Net Connection    Protocol  Bit rate
;   1    Connection1  CAN_USB@pcan_usb  CAN       1 Mbit/s
;-------------------------------------------------------------------------------
;   Message   Time    Bus  Type   ID    Reserved
;   Number    Offset  |    |      [hex] |   Data Length Code
;   |         [ms]    |    |      |     |   |    Data [hex] ...
;   |         |       |    |      |     |   |    |
;---+-- ------+------ +- --+-- ---+---- +- -+-- -+ -- -- -- -- -- -- --
     1)       191.129 1  Rx        0332 -  8    42 23 9D 3F E4 83 CE B9
     2)       191.769 1  Rx        011A -  5    70 27 23 82 59
     3)       192.323 1  Rx        0331 -  8    EA 50 D8 88 20 F3 37 4D
     4)       192.878 1  Rx        011B -  7    E7 B0 CC 15 04 F3 68
     5)       193.347 1  Rx        006E -  7    B8 10 55 CB CC 02 54
     6)       193.731 1  Rx        0106 -  7    DA A7 71 6C 74 51 54
     7)       194.329 1  Rx        0132 -  7    A4 DD 54 17 08 66 F5
     8)       194.670 1  Rx        0308 -  8    EE 42 B6 A7 EF 06 02 45
     9)       195.097 1  Rx        0206 -  7    2C 73 B6 E8 7C 68 4E
    10)       195.438 1  Rx        0212 -  7    F6 DF C5 1F 48 9C B8
    11)       195.779 1  Rx        0222 -  8    6B 4C 82 10 7E 22 06 29
    12)       196.121 1  Rx        0459 -  8    D2 77 06 DC D1 CB 98 BF
    13)       196.419 1  Rx        0451 -  8    5F D6 9C B7 FB A5 09 06
    14)       196.761 1  Rx        0441 -  8    25 0E 7B BB 61 50 79 CE
    15)       197.102 1  Rx    1AFB1C04 -  8    74 9D B2 EB 57 4A EE 81
    16)       197.443 1  Rx    1AFB1C00 -  8    4C A5 A2 6A 61 C0 22 C3
    17)       197.699 1  Rx        0419 -  8    84 AB 5D ED 50 EA DB DE
    18)       399.168 1  Rx        0332 -  8    74 23 9D 52 E4 83 CE B9
    19)       399.765 1  Rx        011A -  5    90 31 23 82 59
    20)       400.363 1  Rx        0331 -  8    F6 61 F9 D0 9C 29 37 4D
    21)       400.960 1  Rx        011B -  7    9D F1 CC 15 82 38 34
    22)       401.472 1  Rx        006E -  7    B8 72 40 6E CC 02 72
    23)       402.027 1  Rx        0106 -  7    68 A7 C4 6C 29 D7 D9
    24)       402.453 1  Rx        0132 -  7    A4 9F 54 C5 08 66 F5
    25)       402.923 1  Rx        0308 -  8    D8 30 B6 D3 24 06 02 09
    26)       403.264 1  Rx        0206 -  7    2C D9 B6 E8 AC 68 4E
    27)       403.861 1  Rx        0212 -  7    F6 DF C5 81 48 DD 10
    28)       404.459 1  Rx        0222 -  8    6A 4C 82 10 F8 48 57 29
    29)       404.843 1  Rx        0459 -  8    D2 77 6D DC D1 CB 0E BF
    30)       405.269 1  Rx        0451 -  8    5F A1 4F F6 FB A5 09 EF
    31)       405.696 1  Rx        0441 -  8    25 89 23 BB 21 0E 79 1B
    32)       406.080 1  Rx    1AFB1C04 -  8    DB C8 25 EB 57 4A EE 81
    33)       406.592 1  Rx    1AFB1C00 -  8    4C F4 4F 6A 61 46 22 AE
    34)       407.061 1  Rx        0419 -  8    37 AB 5D 81 50 EA E4 CF
    35)       608.901 1  Rx        0332 -  8    E9 B8 9D 52 E4 83 CE B9
    36)       608.987 1  Rx        011A -  5    78 FC 70 A5 D4
    37)       609.115 1  Rx        0331 -  8    34 5E 92 C3 E9 4D A5 A2
    38)       609.243 1  Rx        011B -  7    D7 2D 45 04 15 CA E7
    39)       609.371 1  Rx        006E -  7    88 71 6A 20 4A A6 4A
    40)       609.499 1  Rx        0106 -  7    44 74 FF F6 B2 83 10
    41)       609.627 1  Rx        0132 -  7    4B 79 96 86 EF 67 21
    42)       609.755 1  Rx        0308 -  8    F4 28 D8 1C F5 77 BF 78
    43)       609.883 1  Rx        0206 -  7    46 0F 29 E5 0B 69 7F
    44)       610.011 1  Rx        0212 -  7    20 6E 7A 32 B5 55 31
    45)       610.139 1  Rx        0222 -  8    80 B0 26 7A 43 AB 91 AF
    46)       610.267 1  Rx        0459 -  8    C1 5F 7F D1 E9 2F E8 DF
    47)       610.395 1  Rx        0451 -  8    72 DD 03 3F 9B BE 1B 51
    48)       610.523 1  Rx        0441 -  8    E1 E8 01 42 34 69 3B F7
    49)       610.693 1  Rx    1AFB1C04 -  8    26 AB A8 31 59 DD B0 CB
    50)       610.864 1  Rx    1AFB1C00 -  8    A4 E5 4F 6A 2E 46 C2 AE
    51)       610.992 1  Rx        0419 -  8    37 AB AC 33 6C EA BE 79
    52)       812.333 1  Rx        0332 -  8    D7 43 9D 52 E4 83 D8 B9
    53)       812.973 1  Rx        011A -  5    B3 63 70 A5 8A
    54)       813.570 1  Rx        0331 -  8    D6 32 92 C3 23 4D 0A 4B
    55)       814.040 1  Rx        011B -  7    D7 2D 45 64 CC CA E7
    56)       814.594 1  Rx        006E -  7    88 71 A8 20 8C D1 4A
    57)       814.978 1  Rx        0106 -  7    44 74 FF 59 18 27 10
    58)       815.362 1  Rx        0132 -  7    4B 79 96 0B C7 80 C8
    59)       815.789 1  Rx        0308 -  8    E9 98 C6 C7 1D F1 E2 7B
    60)       816.173 1  Rx        0206 -  7    FA 73 E0 E5 0B 69 7F
    61)       816.557 1  Rx        0212 -  7    20 6E 7A 28 77 45 43
    62)       816.941 1  Rx        0222 -  8    C9 C2 26 A8 43 72 91 AF
    63)       817.325 1  Rx        0459 -  8    C1 5F 0F D1 FD B0 E8 DF
    64)       817.624 1  Rx        0451 -  8    B9 DD 55 3F 37 BE 31 11
    65)       818.093 1  Rx        0441 -  8    CE E8 65 26 50 69 3B E5
    66)       818.434 1  Rx    1AFB1C04 -  8    20 AB 28 31 65 5D B6 49
    67)       818.562 1  Rx    1AFB1C00 -  8    12 C2 69 EC E9 FD 88 73
    68)       818.690 1  Rx        0419 -  8    73 80 0B 9D E6 49 D4 BB
    69)       871.681 1  Rx        033B -  8    D4 23 75 CA B7 85 CF 1C
    70)       872.236 1  Rx        0339 -  8    CB FC 2E 6F 39 40 1D 1E
    71)       872.748 1  Rx        0337 -  7    26 A0 BA 9E 5A 54 78
    72)       873.132 1  Rx        001F -  5    A0 8A AF 18 76
    73)       873.516 1  Rx        0333 -  4    B8 B7 EF BB
    74)       873.985 1  Rx        0335 -  8    32 33 60 4A BA 79 E2 B2
    75)       874.369 1  Rx        0121 -  4    CF 16 41 ED
    76)       874.839 1  Rx        067F -  8    CA 59 71 23 9E 03 86 A8
    77)       875.180 1  Rx        0681 -  8    D8 5D 07 1B 23 01 48 69
    78)       875.521 1  Rx        0309 -  8    56 11 45 BF A7 CE D1 F0
    79)       875.948 1  Rx        030A -  8    A3 5D 4F 4E 51 EB 2B 2F
    80)       876.204 1  Rx        0622 -  6    A9 7A 64 19 F3 10
    81)       876.460 1  Rx        0413 -  6    3C 29 41 6F 4E 9C
    82)       876.673 1  Rx        0402 -  3    82 89 08
    83)       876.972 1  Rx        0739 -  8    82 6C B4 24 1F CB FE 6E
    84)       877.313 1  Rx        0411 -  8    88 23 16 D0 58 4E C3 8A
    85)       877.527 1  Rx        0729 -  8    61 71 52 C7 3A CD 7D 40
    86)       877.825 1  Rx        0728 -  8    B5 8E 60 F6 6E CA 3F 0B
    87)       878.081 1  Rx        0709 -  8    07 0F BD 1B 6A 1A E5 30
    88)       878.380 1  Rx        0711 -  8    BD 21 DA 6C 36 C2 30 5D
    89)      1019.220 1  Rx        0332 -  8    B7 B1 90 E1 1E C9 59 EE
    90)      1019.775 1  Rx        011A -  5    B3 63 3F A5 8A
    91)      1020.415 1  Rx        0331 -  8    D6 F5 DE EB 84 4D 0A 4B
    92)      1020.842 1  Rx        011B -  7    D7 2D 45 64 CC CA E7
    93)      1021.354 1  Rx        006E -  7    88 71 C6 B1 65 90 96
    94)      1021.780 1  Rx        0106 -  7    D9 32 0E 42 18 5B 10
    95)      1022.164 1  Rx        0132 -  7    4B 87 ED 0B C7 05 C8
    96)      1022.463 1  Rx        0308 -  8    E9 98 C6 DE 03 F1 E2 7B
    97)      1022.719 1  Rx        0206 -  7    93 72 E0 E5 74 CF 10
    98)      1022.975 1  Rx        0212 -  7    20 73 7A 28 59 45 D3
    99)      1023.274 1  Rx        0222 -  8    C9 DB 26 D0 43 B9 21 F3
   100)      1023.530 1  Rx        0459 -  8    C1 15 3B 0D FD 53 E8 DF
   101)      1023.786 1  Rx        0451 -  8    B9 DD 70 3F 74 BE 31 1C
   102)      1024.084 1  Rx        0441 -  8    C7 E8 65 AB 38 69 36 E5
   103)      1024.383 1  Rx    1AFB1C04 -  8    20 06 28 BB 65 CA 95 16
   104)      1024.639 1  Rx    1AFB1C00 -  8    12 C2 B5 E9 E9 FD D7 13
   105)      1024.980 1  Rx        0419 -  8    A3 80 42 9D 52 49 5C 5B
   106)      1080.233 1  Rx        033A -  8    C0 6E E0 FB 0E 5A 78 01
   107)      1080.958 1  Rx        0336 -  8    B6 C9 5A 04 C6 18 AB 92
   108)      1081.427 1  Rx        0334 -  8    9A 4D BD 90 E4 6A 4D 9A
   109)      1081.939 1  Rx        06DD -  8    25 4D A8 76 1B 6D D7 C6
   110)      1082.281 1  Rx        0799 -  8    51 84 44 B7 B3 55 04 06
   111)      1225.894 1  Rx        0332 -  8    4A B1 90 E1 1E 76 59 6E
   112)      1226.449 1  Rx        011A -  5    B3 63 BB A5 57
   113)      1227.089 1  Rx        0331 -  8    D6 ED DE 6F 02 4D 81 EA
   114)      1227.601 1  Rx        011B -  7    DF 61 45 03 CC CA 96
   115)      1228.070 1  Rx        006E -  7    88 C6 22 B1 E6 C4 96
   116)      1228.540 1  Rx        0106 -  7    56 32 0E 42 90 48 66
   117)      1228.838 1  Rx        0132 -  7    47 87 ED 6F C7 05 C8
   118)      1229.265 1  Rx        0308 -  8    E9 98 C6 51 03 24 F6 61
   119)      1229.734 1  Rx        0206 -  7    B9 67 E0 B0 74 CF B4
   120)      1230.204 1  Rx        0212 -  7    20 45 7A 28 59 45 D3
   121)      1230.545 1  Rx        0222 -  8    CA 67 26 A4 57 86 21 F3
   122)      1230.886 1  Rx        0459 -  8    C1 4C 3B 0D 46 03 E8 B1
   123)      1231.228 1  Rx        0451 -  8    B9 DD 10 13 74 BE 7C 1C
   124)      1231.526 1  Rx        0441 -  8    C7 E8 65 AB 9A AD 24 D5
   125)      1231.825 1  Rx    1AFB1C04 -  8    20 06 2B BB 65 CA 95 3A
   126)      1232.081 1  Rx    1AFB1C00 -  8    E1 C2 B5 E9 E9 FD 03 85
   127)      1232.294 1  Rx        0419 -  8    2D 19 E9 F1 52 06 BF 5B
   128)      1433.678 1  Rx        0332 -  8    E1 41 3A E1 1E 76 59 6E
   129)      1434.275 1  Rx        011A -  5    10 5C BB A5 57
   130)      1434.915 1  Rx        0331 -  8    37 D1 DE 6F 8C 4D DD EA
   131)      1435.683 1  Rx        011B -  7    B1 61 45 87 53 CA 96
   132)      1436.323 1  Rx        006E -  7    88 C6 6F A4 EA 3A CA
   133)      1436.793 1  Rx        0106 -  7    ED 32 94 E6 90 C0 66
   134)      1437.262 1  Rx        0132 -  7    47 87 ED 6F C7 BB C8
   135)      1437.731 1  Rx        0308 -  8    76 98 C6 9F 03 A6 88 61
   136)      1438.328 1  Rx        0206 -  7    29 85 E0 39 CB 02 D5
   137)      1438.798 1  Rx        0212 -  7    EB A8 59 27 42 45 C9
   138)      1439.310 1  Rx        0222 -  8    CA 67 26 A4 C8 86 21 7E
   139)      1439.694 1  Rx        0459 -  8    C1 94 AF 0D 9C 21 33 B1
   140)      1440.035 1  Rx        0451 -  8    B9 77 44 13 74 BE 7C 1C
   141)      1440.462 1  Rx        0441 -  8    C7 E8 65 19 A2 AD 24 D5
   142)      1440.846 1  Rx    1AFB1C04 -  8    F1 39 2B 2F 65 44 95 3A
   143)      1441.230 1  Rx    1AFB1C00 -  8    45 32 8C 3B E9 FD 04 E8
   144)      1441.443 1  Rx        0419 -  8    2D 19 E9 89 C8 06 BF 3A
   145)      1643.051 1  Rx        0332 -  8    E1 41 3A FF 25 76 3D 6E
   146)      1643.648 1  Rx        011A -  5    30 15 BB A5 57
   147)      1644.118 1  Rx        0331 -  8    37 B0 DE 1D FC C2 DD EA
   148)      1644.715 1  Rx        011B -  7    3D 61 45 03 53 CA 6E
   149)      1645.184 1  Rx        006E -  7    88 C6 D2 71 73 3A CA
   150)      1645.568 1  Rx        0106 -  7    ED 48 94 1D 90 C0 A8
   151)      1645.910 1  Rx        0132 -  7    86 87 91 6F F3 BB C8
   152)      1646.166 1  Rx        0308 -  8    76 98 E9 A4 43 A6 0E E5
   153)      1646.422 1  Rx        0206 -  7    DC 03 E0 39 CB 02 D5
   154)      1646.720 1  Rx        0212 -  7    EB A8 D8 27 FE 74 5F
   155)      1647.019 1  Rx        0222 -  8    CA 67 26 18 C8 86 21 E0
   156)      1647.275 1  Rx        0459 -  8    DD C9 AF 0D 9C B6 69 B1
   157)      1647.531 1  Rx        0451 -  8    C3 77 44 13 74 81 D1 E3
   158)      1647.830 1  Rx        0441 -  8    C7 92 46 19 A2 9F 24 D5
   159)      1648.128 1  Rx    1AFB1C04 -  8    76 D9 2B 2F 3F 44 3E ED
   160)      1648.384 1  Rx    1AFB1C00 -  8    45 32 B2 3B E9 FD D4 E8
   161)      1648.598 1  Rx        0419 -  8    F1 19 E9 89 C8 06 16 3A
   162)      1850.408 1  Rx        0332 -  8    E1 41 10 FF 25 76 D3 6E
   163)      1851.048 1  Rx        011A -  5    30 70 BB A5 0C
   164)      1851.645 1  Rx        0331 -  8    C7 7A 19 1D BE C2 DD EA
   165)      1852.200 1  Rx        011B -  7    3D 63 02 7A C6 88 C6
   166)      1852.541 1  Rx        006E -  7    2E C6 D2 71 D0 3A B3
   167)      1852.882 1  Rx        0106 -  7    18 48 94 1D 07 C0 B1
   168)      1853.181 1  Rx        0132 -  7    86 F8 28 9D F3 BD F1
   169)      1853.522 1  Rx        0308 -  8    76 A0 E9 38 43 A6 0E 0C
   170)      1853.778 1  Rx        0206 -  7    CD 03 E0 E1 CB 02 03
   171)      1854.077 1  Rx        0212 -  7    73 D7 D8 27 FE 04 1C
   172)      1854.376 1  Rx        0222 -  8    CA 67 26 18 85 C0 21 E0
   173)      1854.632 1  Rx        0459 -  8    DD E2 AF 0D 9C 21 C0 B1
   174)      1854.930 1  Rx        0451 -  8    C3 01 44 13 23 86 50 09
   175)      1855.186 1  Rx        0441 -  8    96 92 58 68 98 9F 17 D5
   176)      1855.485 1  Rx    1AFB1C04 -  8    76 D9 2B AC 3F 44 4B ED
   177)      1855.741 1  Rx    1AFB1C00 -  8    45 32 B2 3B E9 FD D4 E8
   178)      1855.997 1  Rx        0419 -  8    A1 19 91 89 C8 0B 16 3A
   179)      1879.549 1  Rx        033B -  8    85 23 75 82 B7 85 CF 8D
   180)      1880.103 1  Rx        0339 -  8    D5 1A 2E A2 39 40 90 1E
   181)      1880.658 1  Rx        0337 -  7    26 A0 7E 9E 5A 54 B8
   182)      1881.085 1  Rx        001F -  5    A0 F7 DF A3 76
   183)      1881.383 1  Rx        0333 -  4    B8 10 EF 17
   184)      1881.682 1  Rx        0335 -  8    32 79 60 4A BA D1 F0 B2
   185)      1881.895 1  Rx        0121 -  4    CF 97 41 87
   186)      1882.279 1  Rx        067F -  8    CA 59 29 23 9E 03 86 A8
   187)      1882.535 1  Rx        0681 -  8    D8 C7 07 1B 23 01 48 E8
   188)      1882.791 1  Rx        0309 -  8    53 AA 45 BF BA 2D 90 38
   189)      1883.047 1  Rx        030A -  8    98 55 65 4E 76 EB 8D 2F
   190)      1883.346 1  Rx        0622 -  6    A5 3E 64 19 F3 10
   191)      1883.602 1  Rx        0413 -  6    3C 28 41 6F 4E 9C
   192)      1883.901 1  Rx        0402 -  3    36 89 08
   193)      1884.327 1  Rx        0739 -  8    82 24 2B 24 1F D1 56 6E
   194)      1884.669 1  Rx        0411 -  8    88 23 58 D0 D9 1B CF D3
   195)      1884.967 1  Rx        0729 -  8    61 71 52 C7 3A CD A9 BD
   196)      1885.309 1  Rx        0728 -  8    7C 8E 60 DB 3B 8E 3F 9C
   197)      1885.778 1  Rx        0709 -  8    CB 49 BD CF 6A 1A E5 66
   198)      1886.162 1  Rx        0711 -  8    BD 21 F0 51 36 F1 B7 5D
   199)      2057.082 1  Rx        0332 -  8    E1 4F C2 7E E9 76 28 6E
   200)      2057.636 1  Rx        011A -  5    30 86 7C A5 0C
   201)      2058.191 1  Rx        0331 -  8    B4 7A B9 22 BE 5C 2A 13
   202)      2058.746 1  Rx        011B -  7    F4 63 02 7A C6 88 C6
   203)      2059.258 1  Rx        006E -  7    2E 7C 6E 71 D0 83 F7
   204)      2059.642 1  Rx        0106 -  7    77 03 94 1D 07 C0 94
   205)      2060.026 1  Rx        0132 -  7    37 F8 B5 9D F3 55 F1
   206)      2060.324 1  Rx        0308 -  8    76 13 E9 38 43 A6 0E 0C
   207)      2060.794 1  Rx        0206 -  7    41 82 E0 E1 4F 50 67
   208)      2061.135 1  Rx        0212 -  7    1A CC B5 27 FE EF 0F
   209)      2061.434 1  Rx        0222 -  8    EF B6 26 18 C0 C0 21 E0
   210)      2061.732 1  Rx        0459 -  8    39 E2 83 0D 9C 21 1D B1
   211)      2062.031 1  Rx        0451 -  8    6D 01 D7 CD 2D F7 DD 09
   212)      2062.287 1  Rx        0441 -  8    F6 42 B0 68 98 A6 D3 D5
   213)      2062.586 1  Rx    1AFB1C04 -  8    76 D9 54 AC 5B 3F C6 FC
   214)      2062.884 1  Rx    1AFB1C00 -  8    AA 97 B2 EF CF F5 D4 E8
   215)      2063.098 1  Rx        0419 -  8    A1 7D 91 AB 3F E2 6E 6B
   216)      2264.481 1  Rx        0332 -  8    9A 4F EE 83 80 40 28 6E
   217)      2265.036 1  Rx        011A -  5    12 86 2F A5 EA
   218)      2265.676 1  Rx        0331 -  8    B4 F8 B9 32 47 5C 2A 0C
   219)      2266.103 1  Rx        011B -  7    0A 63 02 7A C6 88 C6
   220)      2266.615 1  Rx        006E -  7    15 7C 6E 6B D0 E5 BE
   221)      2267.127 1  Rx        0106 -  7    87 BE A9 12 82 C0 94
   222)      2267.681 1  Rx        0132 -  7    37 F8 B5 DC F3 55 70
   223)      2268.193 1  Rx        0308 -  8    76 46 E7 38 A5 D1 F0 0C
   224)      2268.535 1  Rx        0206 -  7    59 9E 2B E1 C0 0F C5
   225)      2268.961 1  Rx        0212 -  7    37 CC B5 27 3C EF 0F
   226)      2269.303 1  Rx        0222 -  8    EF 45 94 C0 0A A4 21 E0
   227)      2269.601 1  Rx        0459 -  8    39 20 83 0D 5D 06 15 B1
   228)      2269.900 1  Rx        0451 -  8    36 01 23 CC 2D F7 CC 09
   229)      2270.241 1  Rx        0441 -  8    F6 54 B0 E5 98 17 D3 D5
   230)      2270.582 1  Rx    1AFB1C04 -  8    76 D9 54 20 5B 90 C6 6B
   231)      2270.881 1  Rx    1AFB1C00 -  8    4F 4F B2 37 7B 3F 4A E8
   232)      2271.180 1  Rx        0419 -  8    F9 7D 2D AB E2 4D 60 6B
   233)      2472.179 1  Rx        0332 -  8    9A 4F EE CB 80 40 28 6E
   234)      2472.819 1  Rx        011A -  5    8E 86 F0 A5 9B
   235)      2473.417 1  Rx        0331 -  8    33 F8 CE 32 18 5C C6 60
   236)      2473.886 1  Rx        011B -  7    0A 8A 02 C2 C6 26 DB
   237)      2474.441 1  Rx        006E -  7    15 7C 6E C7 D0 1C D4
   238)      2474.867 1  Rx        0106 -  7    87 BE A9 23 82 C0 94
   239)      2475.251 1  Rx        0132 -  7    37 F1 B5 81 F3 55 70
   240)      2475.678 1  Rx        0308 -  8    76 D7 E7 27 6C D1 F0 6E
   241)      2476.019 1  Rx        0206 -  7    59 5D 2B E1 C0 0F 13
   242)      2476.446 1  Rx        0212 -  7    37 CC 8D 27 56 EF 6B
   243)      2476.787 1  Rx        0222 -  8    53 45 94 3E 0A A4 8B E9
   244)      2477.129 1  Rx        0459 -  8    39 20 D5 B3 5D 06 65 B1
   245)      2477.470 1  Rx        0451 -  8    24 01 FF CC E2 99 CC 09
   246)      2477.769 1  Rx        0441 -  8    6D A6 B0 22 98 17 E6 90
   247)      2478.025 1  Rx    1AFB1C04 -  8    58 D9 54 A5 5B 90 C6 6B
   248)      2478.366 1  Rx    1AFB1C00 -  8    13 3C B2 F7 7B 9B 20 E8
   249)      2478.622 1  Rx        0419 -  8    F9 7D A9 AB 55 4D 60 6B
   250)      2680.035 1  Rx        0332 -  8    9A 64 EE 25 80 01 28 AA
   251)      2680.163 1  Rx        011A -  5    84 CD 94 B0 67
   252)      2680.291 1  Rx        0331 -  8    39 E6 6F 5E EF 1F F8 90
   253)      2680.419 1  Rx        011B -  7    6F 6B 38 A7 AD 61 D6
   254)      2680.547 1  Rx        006E -  7    94 74 BD F1 46 18 B8
   255)      2680.675 1  Rx        0106 -  7    8D 0F 9A 10 7A 84 03
   256)      2680.803 1  Rx        0132 -  7    D2 EF 56 11 BD 40 09
   257)      2680.931 1  Rx        0308 -  8    E2 E5 B7 81 34 2D A5 9D
   258)      2681.059 1  Rx        0206 -  7    8F 93 BB 05 BD 46 AC
   259)      2681.187 1  Rx        0212 -  7    8B FE 7F 66 E4 36 94
   260)      2681.315 1  Rx        0222 -  8    E0 64 06 84 92 F3 97 E1
   261)      2681.443 1  Rx        0459 -  8    92 F1 E0 CA DB E8 B8 5A
   262)      2681.571 1  Rx        0451 -  8    F1 33 05 3C CE 43 B3 CD
   263)      2681.699 1  Rx        0441 -  8    F0 20 8E 23 F0 5B C6 F4
   264)      2681.827 1  Rx    1AFB1C04 -  8    62 4F 24 3F 86 4F 4F 3E
   265)      2681.998 1  Rx    1AFB1C00 -  8    AC 3C B2 F7 7B D3 DA E8
   266)      2682.126 1  Rx        0419 -  8    F9 1D E1 3A BC 4D 60 94
   267)      2883.552 1  Rx        0332 -  8    9A 2A E6 25 80 01 28 AA
   268)      2884.235 1  Rx        011A -  5    52 D3 94 B7 27
   269)      2884.790 1  Rx        0331 -  8    7B E6 6F 7B EF C6 F8 38
   270)      2885.302 1  Rx        011B -  7    6F 6B 38 15 AD 25 D6
   271)      2885.771 1  Rx        006E -  7    AC 56 CE DB 7B 48 4E
   272)      2886.240 1  Rx        0106 -  7    16 AF CA 10 40 84 15
   273)      2886.667 1  Rx        0132 -  7    6A C8 56 FE 40 40 09
   274)      2887.136 1  Rx        033B -  8    2A B2 13 29 B7 5A CF 8D
   275)      2887.350 1  Rx        0308 -  8    04 E5 B7 81 34 87 A5 9D
   276)      2887.734 1  Rx        0339 -  8    4A FD 70 33 98 BC 90 1E
   277)      2887.904 1  Rx        0206 -  7    60 DA BB 77 24 46 AC
   278)      2888.032 1  Rx        0337 -  7    BB A3 7E 9E 0F 41 B8
   279)      2888.288 1  Rx        0212 -  7    22 33 7F 66 2D 10 94
   280)      2888.416 1  Rx        001F -  5    A0 6C DF A3 76
   281)      2888.800 1  Rx        0222 -  8    19 EC 06 84 90 0A 97 D6
   282)      2888.885 1  Rx        0333 -  4    93 10 EF 07
   283)      2889.227 1  Rx        0459 -  8    42 F1 E0 E1 30 80 9D 1D
   284)      2889.355 1  Rx        0335 -  8    32 51 93 53 BA D1 F0 BB
   285)      2889.696 1  Rx        0451 -  8    2B 9F 05 9B CE 43 CF F4
   286)      2889.824 1  Rx        0121 -  4    CF 10 39 87
   287)      2890.123 1  Rx        0441 -  8    F0 20 D6 11 F8 5B C6 F4
   288)      2890.293 1  Rx        067F -  8    CA 59 42 3C 9E 03 BF A8
   289)      2890.592 1  Rx    1AFB1C04 -  8    62 46 24 3B 86 7D 4F 3E
   290)      2890.720 1  Rx        0681 -  8    A9 C7 07 AC 23 02 88 E8
   291)      2890.891 1  Rx    1AFB1C00 -  8    9C 05 04 3C A7 C0 99 54
   292)      2891.019 1  Rx        0419 -  8    4F 8A AB 04 EE 57 42 23
   293)      2891.147 1  Rx        0309 -  8    65 C3 1D C7 BA 2D 90 F4
   294)      2891.488 1  Rx        030A -  8    68 32 09 4E 66 A5 C9 70
   295)      2891.872 1  Rx        0622 -  6    A5 3E 64 E1 D1 54
   296)      2892.299 1  Rx        0413 -  6    05 28 39 6A 12 BE
   297)      2892.597 1  Rx        0402 -  3    AB 89 08
   298)      2892.981 1  Rx        0739 -  8    82 24 2B 12 1F D5 CB D4
   299)      2893.323 1  Rx        0411 -  8    88 23 58 D0 D9 1B 7B CD
   300)      2893.536 1  Rx        0729 -  8    61 C8 52 C7 78 CD A9 BD
   301)      2893.792 1  Rx        0728 -  8    06 8E FD DB 3B 8E 13 9C
   302)      2894.048 1  Rx        0709 -  8    CB BE BD 9C 75 E1 EF C7
   303)      2894.389 1  Rx        0711 -  8    FC B8 8D 71 A1 F1 B2 BF
   304)      3083.656 1  Rx        033A -  8    C0 6E 54 EF 64 4C 66 01
   305)      3084.381 1  Rx        0336 -  8    B6 BC FC 04 47 18 DD D0
   306)      3084.893 1  Rx        0334 -  8    9A B3 BD 90 24 6A 9F 9A
   307)      3085.448 1  Rx        06DD -  8    CC 8B EC 76 0C 33 2E 85
   308)      3085.917 1  Rx        0799 -  8    51 B6 44 06 B3 08 04 12
   309)      3091.720 1  Rx        0332 -  8    E3 13 98 F4 67 0E 12 1A
   310)      3092.232 1  Rx        011A -  5    52 D3 94 B7 9B
   311)      3092.744 1  Rx        0331 -  8    55 E6 9F 7B EF A4 F8 3E
   312)      3093.213 1  Rx        011B -  7    A0 F3 0A DC 79 38 D6
   313)      3093.554 1  Rx        006E -  7    A9 56 CE DB BE 48 4E
   314)      3093.938 1  Rx        0106 -  7    16 1F CA 10 BF 84 15
   315)      3094.322 1  Rx        0132 -  7    6A C8 9E 38 40 40 09
   316)      3094.664 1  Rx        0308 -  8    7B E9 B7 81 34 9E C6 9D
   317)      3095.005 1  Rx        0206 -  7    BA D1 72 77 3E 46 AC
   318)      3095.346 1  Rx        0212 -  7    22 45 7F 66 40 8D 94
   319)      3095.688 1  Rx        0222 -  8    CA CF 11 60 85 F4 16 48
   320)      3095.986 1  Rx        0459 -  8    42 F1 E0 E1 30 78 8C 1D
   321)      3096.242 1  Rx        0451 -  8    7E B5 AB 91 65 43 CF 1E
   322)      3096.626 1  Rx        0441 -  8    AA 20 D6 5B F8 5B C6 09
   323)      3096.968 1  Rx    1AFB1C04 -  8    62 DE 24 83 86 28 4F 42
   324)      3097.309 1  Rx    1AFB1C00 -  8    9C 05 AB 21 2A 82 99 B9
   325)      3097.565 1  Rx        0419 -  8    BA 8A AB C2 C2 57 42 E3
   326)      3299.076 1  Rx        0332 -  8    8E 13 98 CC 67 64 FA 1A
   327)      3299.716 1  Rx        011A -  5    52 29 94 36 9B
   328)      3300.399 1  Rx        0331 -  8    87 1F 82 7B EF 1D 22 62
   329)      3301.082 1  Rx        011B -  7    C0 F3 23 4A 92 B2 D6
   330)      3301.636 1  Rx        006E -  7    A9 3E 20 84 E3 43 4E
   331)      3302.319 1  Rx        0106 -  7    16 69 CA 10 BF 77 15
   332)      3302.788 1  Rx        0132 -  7    6A 81 D1 38 40 39 D3
   333)      3303.343 1  Rx        0308 -  8    7B E9 0F 81 34 9E C6 9D
   334)      3303.770 1  Rx        0206 -  7    BA 7C 72 77 23 2E AC
   335)      3304.068 1  Rx        0212 -  7    22 6A 6B 66 27 8E 31
   336)      3304.410 1  Rx        0222 -  8    BF 88 80 60 85 F4 F4 48
   337)      3304.751 1  Rx        0459 -  8    3F 56 9F C6 48 78 91 1D
   338)      3305.092 1  Rx        0451 -  8    7E B5 AB 91 65 7E 2A 1E
   339)      3305.348 1  Rx        0441 -  8    AA 3F D6 22 F8 5B C6 09
   340)      3305.647 1  Rx    1AFB1C04 -  8    62 DE 24 83 8F 28 6F 43
   341)      3305.988 1  Rx    1AFB1C00 -  8    9C A7 C8 49 2A AF DC 0F
   342)      3306.244 1  Rx        0419 -  8    51 08 72 C2 C2 57 9C A0
