;$FILEVERSION=1.3
;$STARTTIME=45293.5078865379546
;
;   Start time: 02/01/2024 12:11:21.396.8
;   Generated by PCAN-Explorer v6.6.1.2744
;-------------------------------------------------------------------------------
;   Bus  Connection   Net Connection        Protocol  Bit rate
;   1    Connection2  BoiteBouton@pcan_usb  CAN       1 Mbit/s
;-------------------------------------------------------------------------------
;   Message   Time    Bus  Type   ID    Reserved
;   Number    Offset  |    |      [hex] |   Data Length Code
;   |         [ms]    |    |      |     |   |    Data [hex] ...
;   |         |       |    |      |     |   |    |
;---+-- ------+------ +- --+-- ---+---- +- -+-- -+ -- -- -- -- -- -- --
     1)     10294.795 1  Rx        033B -  1    00
     2)     10395.815 1  Rx        033B -  1    2F
     3)     10496.805 1  Rx        033B -  1    80
     4)     10597.625 1  Rx        033B -  1    80
     5)     10698.189 1  Rx        033B -  1    30
     6)     10799.094 1  Rx        033B -  1    01
     7)     10899.658 1  Rx        033B -  1    40
     8)     11000.179 1  Rx        033B -  1    10
     9)     11100.657 1  Rx        033B -  1    00
    10)     11201.008 1  Rx        033B -  1    40
    11)     11301.700 1  Rx        033B -  1    FE
    12)     11402.251 1  Rx        033B -  1    31
    13)     11502.772 1  Rx        033B -  1    80
    14)     11603.677 1  Rx        033B -  1    80
    15)     11704.070 1  Rx        033B -  1    30
    16)     11804.250 1  Rx        033B -  1    02
    17)     11904.813 1  Rx        033B -  1    4A
    18)     12005.633 1  Rx        033B -  1    D0
    19)     12106.240 1  Rx        033B -  1    F0
    20)     12206.419 1  Rx        033B -  1    3E
    21)     12306.727 1  Rx        033B -  1    FC
    22)     12407.278 1  Rx        033B -  1    2D
    23)     12507.799 1  Rx        033B -  1    82
    24)     12608.278 1  Rx        033B -  1    7E
    25)     12709.439 1  Rx        033B -  1    2A
    26)     12810.899 1  Rx        033B -  1    03
    27)     12911.206 1  Rx        033B -  1    4E
    28)     13011.984 1  Rx        033B -  1    20
    29)     13112.505 1  Rx        033B -  1    F0
    30)     13213.324 1  Rx        033B -  1    6E
    31)     13314.357 1  Rx        033B -  1    F9
    32)     13414.695 1  Rx        033B -  1    2C
    33)     13515.472 1  Rx        033B -  1    7E
    34)     13615.993 1  Rx        033B -  1    81
    35)     13716.771 1  Rx        033B -  1    25
    36)     13818.230 1  Rx        033B -  1    04
    37)     13918.794 1  Rx        033B -  1    50
    38)     14019.443 1  Rx        033B -  1    30
    39)     14120.263 1  Rx        033B -  1    E0
    40)     14220.357 1  Rx        033B -  1    6A
    41)     14320.708 1  Rx        033B -  1    F7
    42)     14421.430 1  Rx        033B -  1    38
    43)     14521.823 1  Rx        033B -  1    7E
    44)     14622.429 1  Rx        033B -  1    81
    45)     14722.694 1  Rx        033B -  1    26
    46)     14823.685 1  Rx        033B -  1    05
    47)     14924.206 1  Rx        033B -  1    20
    48)     15024.727 1  Rx        033B -  1    40
    49)     15125.547 1  Rx        033B -  1    70
    50)     15226.153 1  Rx        033B -  1    66
    51)     15327.783 1  Rx        033B -  1    F5
    52)     15428.275 1  Rx        033B -  1    38
    53)     15528.839 1  Rx        033B -  1    7E
    54)     15629.360 1  Rx        033B -  1    7C
    55)     15729.839 1  Rx        033B -  1    34
    56)     15830.701 1  Rx        033B -  1    16
    57)     15930.753 1  Rx        033B -  1    58
    58)     16031.103 1  Rx        033B -  1    B0
    59)     16131.710 1  Rx        033B -  1    00
    60)     16232.274 1  Rx        033B -  1    62
    61)     16332.667 1  Rx        033B -  1    F3
    62)     16433.218 1  Rx        033B -  1    36
    63)     16533.824 1  Rx        033B -  1    7E
    64)     16634.431 1  Rx        033B -  1    7D
    65)     16734.952 1  Rx        033B -  1    34
    66)     16835.473 1  Rx        033B -  1    EE
    67)     16935.951 1  Rx        033B -  1    5C
    68)     17036.600 1  Rx        033B -  1    B0
    69)     17137.079 1  Rx        033B -  1    00
    70)     17238.496 1  Rx        033B -  1    60
    71)     17338.633 1  Rx        033B -  1    F1
    72)     17438.642 1  Rx        033B -  1    36
    73)     17538.694 1  Rx        033B -  1    7D
    74)     17639.172 1  Rx        033B -  1    7D
    75)     17739.565 1  Rx        033B -  1    36
    76)     17840.513 1  Rx        033B -  1    18
    77)     17941.504 1  Rx        033B -  1    60
    78)     18042.366 1  Rx        033B -  1    C0
    79)     18143.015 1  Rx        033B -  1    F0
    80)     18243.536 1  Rx        033B -  1    5C
    81)     18343.588 1  Rx        033B -  1    EE
    82)     18444.608 1  Rx        033B -  1    1B
    83)     18544.959 1  Rx        033B -  1    87
    84)     18645.906 1  Rx        033B -  1    7E
    85)     18746.684 1  Rx        033B -  1    36
    86)     18846.991 1  Rx        033B -  1    F3
    87)     18947.512 1  Rx        033B -  1    62
    88)     19048.076 1  Rx        033B -  1    D0
    89)     19148.896 1  Rx        033B -  1    E0
    90)     19249.588 1  Rx        033B -  1    58
    91)     19350.194 1  Rx        033B -  1    EC
    92)     19450.757 1  Rx        033B -  1    1A
    93)     19551.065 1  Rx        033B -  1    86
    94)     19651.842 1  Rx        033B -  1    7E
    95)     19752.363 1  Rx        033B -  1    38
    96)     19852.671 1  Rx        033B -  1    1A
    97)     19953.448 1  Rx        033B -  1    FE
    98)     20053.798 1  Rx        033B -  1    D0
    99)     20154.618 1  Rx        033B -  1    E0
   100)     20254.627 1  Rx        033B -  1    54
   101)     63049.208 1  Rx        033B -  1    00
   102)     63149.558 1  Rx        033B -  1    2F
   103)     63250.592 1  Rx        033B -  1    80
   104)     63351.113 1  Rx        033B -  1    80
   105)     63451.976 1  Rx        033B -  1    30
   106)     63552.497 1  Rx        033B -  1    01
   107)     63653.786 1  Rx        033B -  1    40
   108)     63754.478 1  Rx        033B -  1    10
   109)     63855.042 1  Rx        033B -  1    00
   110)     63955.563 1  Rx        033B -  1    40
   111)     64055.785 1  Rx        033B -  1    FE
   112)     64156.349 1  Rx        033B -  1    31
   113)     64256.870 1  Rx        033B -  1    80
   114)     64357.391 1  Rx        033B -  1    80
   115)     64457.772 1  Rx        033B -  1    30
   116)     64558.677 1  Rx        033B -  1    02
   117)     64659.582 1  Rx        033B -  1    4A
   118)     64760.146 1  Rx        033B -  1    D0
   119)     64860.709 1  Rx        033B -  1    F0
   120)     64961.657 1  Rx        033B -  1    3E
   121)     65062.178 1  Rx        033B -  1    FC
   122)     65163.083 1  Rx        033B -  1    2D
   123)     65263.135 1  Rx        033B -  1    82
   124)     65363.358 1  Rx        033B -  1    7E
   125)     65463.909 1  Rx        033B -  1    2A
   126)     65564.728 1  Rx        033B -  1    03
   127)     65665.249 1  Rx        033B -  1    4E
   128)     65766.027 1  Rx        033B -  1    20
   129)     65866.078 1  Rx        033B -  1    F0
   130)     65966.770 1  Rx        033B -  1    6E
   131)     66067.377 1  Rx        033B -  1    F9
   132)     66168.922 1  Rx        033B -  1    2C
   133)     66269.656 1  Rx        033B -  1    7E
   134)     66370.561 1  Rx        033B -  1    81
   135)     66471.752 1  Rx        033B -  1    25
   136)     66571.804 1  Rx        033B -  1    04
   137)     66672.922 1  Rx        033B -  1    50
   138)     66773.017 1  Rx        033B -  1    30
   139)     66873.751 1  Rx        033B -  1    E0
   140)     66974.187 1  Rx        033B -  1    6A
   141)     67074.623 1  Rx        033B -  1    F7
   142)     67175.656 1  Rx        033B -  1    38
   143)     67276.262 1  Rx        033B -  1    7E
   144)     67376.869 1  Rx        033B -  1    81
   145)     67477.719 1  Rx        033B -  1    26
   146)     67578.325 1  Rx        033B -  1    05
   147)     67679.358 1  Rx        033B -  1    20
   148)     67780.050 1  Rx        033B -  1    40
   149)     67880.614 1  Rx        033B -  1    70
   150)     67981.945 1  Rx        033B -  1    66
