;$FILEVERSION=1.3
;$STARTTIME=45252.6739917496088
;
;   Start time: 22/11/2023 16:10:32.887.1
;   Generated by PCAN-Explorer v6.6.1.2744
;-------------------------------------------------------------------------------
;   Bus  Connection   Net Connection    Protocol  Bit rate
;   1    Connection1  CAN_USB@pcan_usb  CAN       1 Mbit/s
;-------------------------------------------------------------------------------
;   Message   Time    Bus  Type   ID    Reserved
;   Number    Offset  |    |      [hex] |   Data Length Code
;   |         [ms]    |    |      |     |   |    Data [hex] ...
;   |         |       |    |      |     |   |    |
;---+-- ------+------ +- --+-- ---+---- +- -+-- -+ -- -- -- -- -- -- --
     1)         0.613 1  Rx        011A -  5    2C E0 D0 1B 37
     2)         1.210 1  Rx        0331 -  8    E2 70 5D BA F1 A5 85 27
     3)         1.722 1  Rx        011B -  7    AC 1C 93 A9 87 11 0E
     4)         2.234 1  Rx        006E -  7    33 D1 C7 64 0C DE 53
     5)         2.618 1  Rx        0106 -  7    EB D0 67 48 AD FC A7
     6)         3.087 1  Rx        0132 -  7    30 25 01 24 80 DB D5
     7)         3.514 1  Rx        0308 -  8    5D 82 84 0C CA 33 F2 44
     8)         3.813 1  Rx        0206 -  7    01 1B 82 4C 2C 2B 88
     9)         4.111 1  Rx        0212 -  7    EF 57 E2 E1 9E 16 E2
    10)         4.410 1  Rx        0222 -  8    2D D9 FE 64 BE A8 9D AD
    11)         4.709 1  Rx        0459 -  8    9F 68 BB 2D 9B 66 49 D2
    12)         5.007 1  Rx        0451 -  8    E9 B5 2A A5 A7 68 65 11
    13)         5.306 1  Rx        0441 -  8    1F B5 9D EB 15 7C 7C 66
    14)         5.690 1  Rx    1AFB1C04 -  8    69 98 D5 0F 3D CA 20 D8
    15)         5.946 1  Rx    1AFB1C00 -  8    0A 55 87 8F A4 24 69 3E
    16)         6.287 1  Rx        0419 -  8    E2 4F 06 B4 7E CC 20 0B
    17)       107.280 1  Rx        0332 -  8    4A 78 F3 BA 0C D1 A3 90
    18)       107.408 1  Rx        011A -  5    07 FD 4D 14 20
    19)       107.536 1  Rx        0331 -  8    79 C8 2F 65 C4 32 DD D3
    20)       107.664 1  Rx        011B -  7    4B 6E 1E 4F 44 CE B3
    21)       107.792 1  Rx        006E -  7    14 64 CB 8F 70 7E 25
    22)       107.877 1  Rx        0106 -  7    56 E7 22 CB 79 65 0D
    23)       108.005 1  Rx        0132 -  7    14 B1 C8 D4 FF A5 F7
    24)       108.133 1  Rx        0308 -  8    18 8D EE 64 48 1B 1A FC
    25)       108.261 1  Rx        0206 -  7    1A 08 4F 5A 64 E3 7C
    26)       108.389 1  Rx        0212 -  7    DC 37 AF 04 9F 01 A4
    27)       108.517 1  Rx        0222 -  8    D7 71 5B F1 AF 41 56 4B
    28)       108.688 1  Rx        0459 -  8    17 A7 2B D9 09 F6 8E 18
    29)       108.816 1  Rx        0451 -  8    CE FD 63 5B E3 62 FD 11
    30)       108.944 1  Rx        0441 -  8    C4 70 31 3C 64 F0 FF F8
    31)       109.072 1  Rx    1AFB1C04 -  8    88 8C 18 14 99 3B A2 53
    32)       109.243 1  Rx    1AFB1C00 -  8    0A 9F 87 34 B5 24 CA 3E
    33)       109.371 1  Rx        0419 -  8    7A A6 06 B4 F2 DF 20 0B
    34)       169.242 1  Rx        033B -  8    29 F9 8D F9 49 BD D7 4F
    35)       169.882 1  Rx        0339 -  8    D1 61 9B 65 19 CB E9 DB
    36)       170.480 1  Rx        0337 -  7    22 D8 90 44 0C B1 CD
    37)       170.907 1  Rx        001F -  5    18 10 82 EE BD
    38)       171.291 1  Rx        0333 -  4    10 0C D6 C4
    39)       171.717 1  Rx        0335 -  8    1C F9 B9 99 91 AF B5 B1
    40)       172.059 1  Rx        0121 -  4    54 CC AC FD
    41)       172.443 1  Rx        067F -  8    FA 81 D5 0D D2 C8 83 32
    42)       172.741 1  Rx        0681 -  8    73 05 91 38 C4 DE 72 E2
    43)       173.125 1  Rx        0309 -  8    E8 6A 8E 81 C3 2A DD 32
    44)       173.552 1  Rx        030A -  8    7B D6 81 E5 35 EF 72 F3
    45)       173.893 1  Rx        0622 -  6    C4 98 0A DE BA 52
    46)       174.235 1  Rx        0413 -  6    A4 F3 3D F9 2B 09
    47)       174.491 1  Rx        0402 -  3    AA 49 0C
    48)       175.045 1  Rx        0739 -  8    91 DC D0 AD AD 8A 24 53
    49)       175.387 1  Rx        0411 -  8    F3 55 1B 4B 4B D5 B7 B9
    50)       175.685 1  Rx        0729 -  8    BF 75 7F 91 5C FB 41 A1
    51)       175.984 1  Rx        0728 -  8    22 EF 0A B8 5F 45 47 65
    52)       176.240 1  Rx        0709 -  8    90 56 71 A4 39 DD E8 24
    53)       176.539 1  Rx        0711 -  8    CF 95 6D 96 5A 6B A3 CC
    54)       210.032 1  Rx        0332 -  8    25 78 F3 BA 0C 3C A3 35
    55)       210.587 1  Rx        011A -  5    34 B5 4D B9 EA
    56)       211.099 1  Rx        0331 -  8    AF 99 2F 3B C4 32 B6 A3
    57)       211.568 1  Rx        011B -  7    4B 6E 77 A5 44 CE A7
    58)       212.037 1  Rx        006E -  7    FE 3A 55 B2 70 58 25
    59)       212.336 1  Rx        0106 -  7    AD E7 22 AF A2 65 12
    60)       212.678 1  Rx        0132 -  7    C9 05 D6 3F C8 A5 24
    61)       213.019 1  Rx        0308 -  8    18 8D 2C 64 82 1B 1A FC
    62)       213.360 1  Rx        0206 -  7    1A 08 4F 86 64 0B 7C
    63)       213.659 1  Rx        0212 -  7    AA 79 FB E2 A6 01 A4
    64)       213.958 1  Rx        0222 -  8    1D 71 5B F1 AF 41 EF C3
    65)       214.214 1  Rx        0459 -  8    26 A7 2B D9 09 F6 8E 90
    66)       214.555 1  Rx        0451 -  8    76 1D 37 B9 AB 62 8D BC
    67)       214.854 1  Rx        0441 -  8    BE 70 31 3C F2 F0 FF 17
    68)       215.152 1  Rx    1AFB1C04 -  8    88 57 DF 14 99 3B A2 53
    69)       215.323 1  Rx    1AFB1C00 -  8    30 15 F7 E1 98 68 65 1B
    70)       215.451 1  Rx        0419 -  8    87 09 A8 ED B1 D8 74 9C
    71)       316.572 1  Rx        0332 -  8    25 78 09 C2 0C 3C A3 35
    72)       317.254 1  Rx        011A -  5    CD B5 4D B9 EA
    73)       317.852 1  Rx        0331 -  8    8F 99 02 3D 64 32 E6 5E
    74)       318.321 1  Rx        011B -  7    4B 79 77 77 44 64 A7
    75)       318.748 1  Rx        006E -  7    9E 4B 35 B2 70 58 25
    76)       319.089 1  Rx        0106 -  7    AD 45 22 AF 9F D2 24
    77)       319.345 1  Rx        0132 -  7    C9 05 D6 92 C8 F4 A4
    78)       319.686 1  Rx        0308 -  8    1B 8D 2C 64 C1 28 1A 3D
    79)       319.942 1  Rx        0206 -  7    1A 64 4F 86 34 59 7C
    80)       320.241 1  Rx        0212 -  7    B1 79 A7 16 A6 97 A4
    81)       320.497 1  Rx        0222 -  8    1D E4 5B B8 AF 41 EF C3
    82)       320.796 1  Rx        0459 -  8    59 EF 2B 19 09 31 7E 08
    83)       321.052 1  Rx        0451 -  8    24 1D 37 CA AB 62 BC B6
    84)       321.350 1  Rx        0441 -  8    BE 70 31 3C 61 F0 9A 17
    85)       321.692 1  Rx    1AFB1C04 -  8    76 57 DF 14 35 05 A2 53
    86)       321.990 1  Rx    1AFB1C00 -  8    9F 1D F7 E1 98 68 A1 82
    87)       322.204 1  Rx        0419 -  8    87 09 A8 ED 42 D8 74 54
    88)       423.324 1  Rx        0332 -  8    25 7A 09 C2 0C 1E BD 35
    89)       423.794 1  Rx        011A -  5    CD B5 04 B9 EA
    90)       424.434 1  Rx        0331 -  8    8F 99 02 53 67 32 E6 5E
    91)       424.946 1  Rx        011B -  7    2F 6C 77 77 44 64 A7
    92)       425.372 1  Rx        006E -  7    7C 4B 3D B2 70 58 04
    93)       425.714 1  Rx        0106 -  7    72 45 22 37 7F D2 24
    94)       426.055 1  Rx        0132 -  7    94 05 8A AC F2 D4 ED
    95)       426.311 1  Rx        0308 -  8    39 8D 2C 9D C1 28 39 B6
    96)       426.738 1  Rx        0206 -  7    AA 64 4F 09 34 FF F4
    97)       427.037 1  Rx        0212 -  7    6B 79 0B EA A6 A3 A4
    98)       427.378 1  Rx        0222 -  8    42 B9 5B B8 9A 71 05 17
    99)       427.719 1  Rx        0459 -  8    59 EF C0 19 09 31 00 E0
   100)       428.061 1  Rx        0451 -  8    D9 1D 37 C5 AB B4 BC B6
   101)       428.445 1  Rx        0441 -  8    BE 43 31 0E 5F 9D 9A C3
   102)       428.871 1  Rx    1AFB1C04 -  8    76 57 FD 14 35 ED A2 53
   103)       429.170 1  Rx    1AFB1C00 -  8    DF 1D 35 E1 98 68 A1 82
   104)       429.511 1  Rx        0419 -  8    87 09 A8 C1 42 D8 74 48
   105)       530.888 1  Rx        0332 -  8    25 38 7C C2 2F DD 27 66
   106)       531.485 1  Rx        011A -  5    CD 83 64 B9 46
   107)       532.040 1  Rx        0331 -  8    8F 14 9A 53 68 32 E6 5E
   108)       532.552 1  Rx        011B -  7    91 0F 93 77 0F 64 A7
   109)       533.021 1  Rx        006E -  7    0B 4B AC B2 B3 58 9A
   110)       533.405 1  Rx        0106 -  7    92 45 22 2D F9 A9 EA
   111)       533.789 1  Rx        0132 -  7    94 05 E8 FF B5 CE ED
   112)       534.131 1  Rx        0308 -  8    7D 8D 2C 9D 8D 28 4F 1E
   113)       534.472 1  Rx        0206 -  7    AA B3 9B 09 34 FF A1
   114)       534.813 1  Rx        0212 -  7    6B FE 0B EA 52 A3 A4
   115)       535.069 1  Rx        0222 -  8    4C B9 31 21 9A A9 B6 17
   116)       535.325 1  Rx        0459 -  8    DA 36 C0 19 0D 30 00 3E
   117)       535.667 1  Rx        0451 -  8    DA A8 37 70 AB B4 BC B6
   118)       535.965 1  Rx        0441 -  8    32 E6 4E A7 5B 9D C2 BC
   119)       536.264 1  Rx    1AFB1C04 -  8    98 2A FD D9 35 ED F4 F8
   120)       536.563 1  Rx    1AFB1C00 -  8    C6 1D 35 AE 98 AA 12 82
   121)       536.819 1  Rx        0419 -  8    59 09 8D C1 59 B9 74 48
   122)       638.238 1  Rx        0332 -  8    25 38 7C C2 77 66 27 66
   123)       638.750 1  Rx        011A -  5    19 83 64 B9 60
   124)       639.305 1  Rx        0331 -  8    8F 14 5E 37 ED 32 33 CF
   125)       639.860 1  Rx        011B -  7    49 AD A1 77 36 64 A7
   126)       640.244 1  Rx        006E -  7    1C 4B B3 B7 B3 28 EF
   127)       640.585 1  Rx        0106 -  7    92 45 9D E0 40 A9 99
   128)       640.969 1  Rx        0132 -  7    94 05 E8 14 B5 CE ED
   129)       641.396 1  Rx        0308 -  8    41 53 0B 9D 41 68 4F 71
   130)       641.694 1  Rx        0206 -  7    AA 3E 02 62 79 FF 92
   131)       642.036 1  Rx        0212 -  7    6B 56 7B D8 52 FD F2
   132)       642.334 1  Rx        0222 -  8    4C B9 9F 21 9A 65 B6 17
   133)       642.804 1  Rx        0459 -  8    52 D6 E7 19 AD 30 E9 FF
   134)       643.145 1  Rx        0451 -  8    DA A8 E9 70 CE 4B E0 E3
   135)       643.444 1  Rx        0441 -  8    32 BA 4E A7 81 C3 C2 69
   136)       643.785 1  Rx    1AFB1C04 -  8    98 9C FD 68 DA 0C F4 22
   137)       644.084 1  Rx    1AFB1C00 -  8    9F E6 35 AE 07 AA 60 38
   138)       644.382 1  Rx        0419 -  8    DC C2 8D C1 F8 B9 FA 48
   139)       677.705 1  Rx        033B -  8    04 A7 64 29 CD 66 38 78
   140)       678.345 1  Rx        0339 -  8    CD 61 09 65 19 5F E9 2C
   141)       678.900 1  Rx        0337 -  7    3C D8 0B 93 51 B1 8B
   142)       679.454 1  Rx        001F -  5    18 4A 0F 99 E0
   143)       679.710 1  Rx        0333 -  4    10 0C A5 C4
   144)       680.137 1  Rx        0335 -  8    1C 21 7F 99 91 B6 B5 B1
   145)       680.436 1  Rx        0121 -  4    93 C7 B8 CC
   146)       680.777 1  Rx        067F -  8    FA 4A 47 D8 0A 7A 37 5C
   147)       681.118 1  Rx        0681 -  8    73 05 91 38 59 DE 72 71
   148)       681.374 1  Rx        0309 -  8    08 23 8E 81 42 2A DD 32
   149)       681.673 1  Rx        030A -  8    7B D6 41 E5 73 EF 14 54
   150)       681.929 1  Rx        0622 -  6    C4 E9 2B 17 BA 52
   151)       682.356 1  Rx        0413 -  6    6A F3 3D F1 02 09
   152)       682.697 1  Rx        0402 -  3    7E 74 0C
   153)       683.081 1  Rx        0739 -  8    F4 FC C8 68 AD 11 AD A2
   154)       683.423 1  Rx        0411 -  8    44 22 1B 94 4B D5 7B B9
   155)       683.721 1  Rx        0729 -  8    E4 14 7F C0 32 30 41 D0
   156)       684.148 1  Rx        0728 -  8    22 EF 9E B8 43 8B 4D 65
   157)       684.617 1  Rx        0709 -  8    7D 56 71 13 12 DD BA 24
   158)       684.959 1  Rx        0711 -  8    61 85 A2 11 82 F2 A3 3C
   159)       745.588 1  Rx        0332 -  8    69 B1 BC 70 77 66 42 A1
   160)       746.100 1  Rx        011A -  5    19 83 64 B9 60
   161)       746.698 1  Rx        0331 -  8    DC B2 5E 01 ED 7C 33 CF
   162)       747.252 1  Rx        011B -  7    A8 54 3E 20 36 64 A7
   163)       747.636 1  Rx        006E -  7    BD 4B 30 3D B3 38 20
   164)       748.020 1  Rx        0106 -  7    92 DA 9D 20 40 C4 99
   165)       748.319 1  Rx        0132 -  7    6D 05 E8 C5 B5 CE ED
   166)       748.703 1  Rx        0308 -  8    41 BA F4 9D 41 21 4F 54
   167)       749.130 1  Rx        0206 -  7    54 A6 02 E3 50 BA BE
   168)       749.471 1  Rx        0212 -  7    B8 56 00 00 EA FD F2
   169)       749.770 1  Rx        0222 -  8    13 B9 5D 21 9A DC B6 17
   170)       750.026 1  Rx        0459 -  8    52 8F E7 19 AD 30 E9 FF
   171)       750.324 1  Rx        0451 -  8    A1 76 E9 70 CE D5 7C 22
   172)       750.623 1  Rx        0441 -  8    32 AC 06 C2 81 C3 62 D1
   173)       750.964 1  Rx    1AFB1C04 -  8    98 9B D1 93 E7 0C F4 DA
   174)       751.263 1  Rx    1AFB1C00 -  8    1E 67 5D AE 07 1E B9 C4
   175)       751.476 1  Rx        0419 -  8    9E 6B E4 58 25 84 FA FF
   176)       852.384 1  Rx        0332 -  8    04 C6 6B DE 0A A7 70 24
   177)       853.024 1  Rx        011A -  5    C6 6F A5 B9 60
   178)       853.621 1  Rx        0331 -  8    DC B2 8F AE ED 7C DB AF
   179)       854.176 1  Rx        011B -  7    A8 54 3E 13 36 64 A7
   180)       854.645 1  Rx        006E -  7    BD 4B 30 32 4E 38 4A
   181)       855.029 1  Rx        0106 -  7    E1 DA 86 20 2C FE 30
   182)       855.371 1  Rx        0132 -  7    C3 26 8F 78 EC CE ED
   183)       855.840 1  Rx        0308 -  8    41 52 F4 48 D5 21 F8 54
   184)       856.139 1  Rx        0206 -  7    54 E8 62 E3 8F 1F 05
   185)       856.437 1  Rx        0212 -  7    B8 56 00 00 F8 E1 F2
   186)       856.651 1  Rx        0222 -  8    13 B9 8C 21 9A 8E B6 0B
   187)       856.949 1  Rx        0459 -  8    6E 8F CC 5C AD 30 E9 FF
   188)       857.205 1  Rx        0451 -  8    A1 76 23 70 47 D5 7C 04
   189)       857.547 1  Rx        0441 -  8    32 10 8B AA 81 63 C8 D1
   190)       857.888 1  Rx    1AFB1C04 -  8    C3 9B D1 93 E7 A6 F4 DA
   191)       858.144 1  Rx    1AFB1C00 -  8    84 67 FA AE 07 1E 02 C4
   192)       858.400 1  Rx        0419 -  8    9E E9 C6 60 25 84 FA 7F
   193)       880.971 1  Rx        033A -  8    17 5E 1C 9D 0F 66 64 56
   194)       881.525 1  Rx        0336 -  8    FC 7F E7 5A 4F 29 27 C1
   195)       882.080 1  Rx        0334 -  8    17 02 0C DA C9 74 C3 03
   196)       882.507 1  Rx        06DD -  8    1E F3 E5 E9 6F 1E 1E BA
   197)       882.763 1  Rx        0799 -  8    BF B7 38 7C A8 60 EA 01
   198)       959.265 1  Rx        0332 -  8    10 C6 92 BE 99 50 70 24
   199)       959.777 1  Rx        011A -  5    BE 6F A5 99 60
   200)       960.289 1  Rx        0331 -  8    BE 32 E9 0A ED 86 DB 06
   201)       960.630 1  Rx        011B -  7    A8 89 2A 23 36 64 A7
   202)       961.099 1  Rx        006E -  7    49 4B 74 0B 4E 06 4A
   203)       961.441 1  Rx        0106 -  7    12 DA 86 26 2C 71 82
   204)       961.739 1  Rx        0132 -  7    D8 5D 8F EA 6E 23 1E
   205)       962.123 1  Rx        0308 -  8    41 48 D7 A0 D5 21 F8 54
   206)       962.422 1  Rx        0206 -  7    54 E8 62 E3 8F 32 05
   207)       962.721 1  Rx        0212 -  7    5E 56 00 C2 58 E1 33
   208)       963.062 1  Rx        0222 -  8    18 B9 1D 21 9A 8E B6 38
   209)       963.361 1  Rx        0459 -  8    6E 8F CC 5C 96 68 51 FF
   210)       963.787 1  Rx        0451 -  8    A1 F2 55 70 47 D5 C3 04
   211)       964.086 1  Rx        0441 -  8    8B 81 34 AA 81 96 C8 6B
   212)       964.342 1  Rx    1AFB1C04 -  8    F9 9B E9 93 E7 73 DC DA
   213)       964.641 1  Rx    1AFB1C00 -  8    F7 67 FA 4F 07 1E 02 4F
   214)       964.939 1  Rx        0419 -  8    64 3D CA 60 09 0D 0B 73
   215)      1065.761 1  Rx        0332 -  8    83 08 44 BE 99 50 70 AC
   216)      1066.444 1  Rx        011A -  5    BE 4A E2 41 48
   217)      1066.999 1  Rx        0331 -  8    EA 32 3E 0A ED 07 DB 06
   218)      1067.554 1  Rx        011B -  7    A8 89 2A 82 36 64 B9
   219)      1067.980 1  Rx        006E -  7    49 4B 24 09 F4 13 AF
   220)      1068.407 1  Rx        0106 -  7    2A 8F 86 26 2C 6E 57
   221)      1068.663 1  Rx        0132 -  7    D8 5D 8F 2C 6E 23 1E
   222)      1068.962 1  Rx        0308 -  8    3B 48 77 A0 D5 E7 E4 97
   223)      1069.303 1  Rx        0206 -  7    54 E8 B5 D8 8F 1E 05
   224)      1069.602 1  Rx        0212 -  7    E9 3F 00 C2 47 6A D3
   225)      1069.900 1  Rx        0222 -  8    26 78 18 4B 9A 8E E7 3A
   226)      1070.242 1  Rx        0459 -  8    6E 6F CC 5C 28 35 51 FF
   227)      1070.711 1  Rx        0451 -  8    D1 2E 55 70 2A D5 A4 F8
   228)      1070.967 1  Rx        0441 -  8    8B 26 34 AA 81 96 C8 6B
   229)      1071.266 1  Rx    1AFB1C04 -  8    F9 9B E9 93 CE 73 59 DA
   230)      1071.564 1  Rx    1AFB1C00 -  8    7C 67 D5 AC 07 1E 02 4F
   231)      1071.820 1  Rx        0419 -  8    C2 40 CA 69 D9 0D 16 73
   232)      1173.398 1  Rx        0332 -  8    FD 08 44 B1 99 50 70 44
   233)      1173.526 1  Rx        011A -  5    8B 31 71 AE 26
   234)      1173.654 1  Rx        0331 -  8    F9 9D E4 0F 48 0E 77 78
   235)      1173.782 1  Rx        011B -  7    65 09 F2 25 8A 11 90
   236)      1173.910 1  Rx        006E -  7    F2 50 3D 80 F5 D0 F9
   237)      1174.038 1  Rx        0106 -  7    A3 2F F9 A3 71 B2 0B
   238)      1174.166 1  Rx        0132 -  7    EB 65 08 93 A2 9D 77
   239)      1174.294 1  Rx        0308 -  8    F7 63 1B 50 96 BD 04 EA
   240)      1174.422 1  Rx        0206 -  7    68 11 0E 22 99 60 78
   241)      1174.550 1  Rx        0212 -  7    AD AC AB 5D 09 DF 41
   242)      1174.678 1  Rx        0222 -  8    85 76 8C 82 E5 CC A7 82
   243)      1174.806 1  Rx        0459 -  8    8A 0B 63 16 9D 63 0B DF
   244)      1174.934 1  Rx        0451 -  8    51 62 50 1B 43 A9 42 B9
   245)      1175.062 1  Rx        0441 -  8    DB 61 31 B2 3F 23 7D 93
   246)      1175.232 1  Rx    1AFB1C04 -  8    C1 FE 51 91 E9 F9 A6 FD
   247)      1175.403 1  Rx    1AFB1C00 -  8    7C 20 D5 AC 07 F4 02 55
   248)      1175.531 1  Rx        0419 -  8    0D F6 92 69 D9 0D B1 73
   249)      1185.856 1  Rx        033B -  8    A4 A7 64 29 CD 66 38 78
   250)      1186.411 1  Rx        0339 -  8    CD B9 F0 65 F4 4A 07 2C
   251)      1186.966 1  Rx        0337 -  7    3C D8 0B 93 51 00 8B
   252)      1187.307 1  Rx        001F -  5    18 E1 0F 99 61
   253)      1187.606 1  Rx        0333 -  4    10 A1 96 C4
   254)      1187.990 1  Rx        0335 -  8    91 21 7F 99 BA B6 B5 81
   255)      1188.203 1  Rx        0121 -  4    53 C7 B8 83
   256)      1188.630 1  Rx        067F -  8    FA F0 47 D8 A2 A5 37 5C
   257)      1189.014 1  Rx        0681 -  8    73 05 91 A4 C4 10 8C 94
   258)      1189.355 1  Rx        0309 -  8    84 42 8E 72 FF 3A DD D5
   259)      1189.696 1  Rx        030A -  8    4E 12 41 59 73 56 A1 54
   260)      1189.952 1  Rx        0622 -  6    C4 3D 02 17 BA C8
   261)      1190.208 1  Rx        0413 -  6    41 4D 3D F1 02 09
   262)      1190.422 1  Rx        0402 -  3    7E 74 0C
   263)      1190.763 1  Rx        0739 -  8    F4 59 C8 68 AD 11 AD 3A
   264)      1191.019 1  Rx        0411 -  8    44 22 68 C8 4B D5 7B 5F
   265)      1191.360 1  Rx        0729 -  8    E4 14 7F B1 32 30 41 D0
   266)      1191.702 1  Rx        0728 -  8    22 78 9E B8 27 FC 4D 5C
   267)      1192.000 1  Rx        0709 -  8    11 56 71 6C 12 DD BA 24
   268)      1192.342 1  Rx        0711 -  8    61 2B A2 3F DE 11 A3 4E
   269)      1276.865 1  Rx        0332 -  8    FD 19 44 B1 99 83 FC 0F
   270)      1277.462 1  Rx        011A -  5    8B 91 8E 64 41
   271)      1277.974 1  Rx        0331 -  8    5D 12 E4 0F 34 E0 77 05
   272)      1278.529 1  Rx        011B -  7    1B 0A 22 9E A9 4E 90
   273)      1278.828 1  Rx        006E -  7    F2 50 80 80 F5 78 F9
   274)      1279.169 1  Rx        0106 -  7    A3 2E F9 DD CD 61 1B
   275)      1279.468 1  Rx        0132 -  7    49 65 BD 93 8E 9D 03
   276)      1279.980 1  Rx        0308 -  8    F7 11 1B 1B 14 BD A1 EA
   277)      1280.236 1  Rx        0206 -  7    68 3E 0E DA 99 60 78
   278)      1280.535 1  Rx        0212 -  7    AD AC 56 5D 09 DF 55
   279)      1280.876 1  Rx        0222 -  8    08 76 8C A1 D4 EA A7 FB
   280)      1281.260 1  Rx        0459 -  8    8A 0B B8 63 6E 63 0B DF
   281)      1281.644 1  Rx        0451 -  8    1C 62 ED B8 E7 00 24 B9
   282)      1281.985 1  Rx        0441 -  8    E6 61 31 84 0F 12 7D 35
   283)      1282.284 1  Rx    1AFB1C04 -  8    3E FE 51 91 A2 84 28 5C
   284)      1282.455 1  Rx    1AFB1C00 -  8    EC EB 7D F2 C6 D5 05 16
   285)      1282.583 1  Rx        0419 -  8    5F CD D7 ED 75 D3 B7 F8
   286)      1383.703 1  Rx        0332 -  8    12 96 44 B1 5B 83 4B 0F
   287)      1384.258 1  Rx        011A -  5    88 8D 8E 60 B7
   288)      1384.855 1  Rx        0331 -  8    07 12 E4 0F 34 E0 77 42
   289)      1385.325 1  Rx        011B -  7    68 0A 22 9E A9 0D 90
   290)      1385.751 1  Rx        006E -  7    0C 26 80 B5 07 DB F9
   291)      1386.050 1  Rx        0106 -  7    A3 2E F9 DD CD 8B 07
   292)      1386.349 1  Rx        0132 -  7    E7 65 A6 E3 0A 44 8B
   293)      1386.690 1  Rx        0308 -  8    F7 36 1B 1B 4B 1A A2 EA
   294)      1387.031 1  Rx        0206 -  7    68 3E EA A9 C7 31 78
   295)      1387.330 1  Rx        0212 -  7    AD AC 56 5D 09 20 55
   296)      1387.629 1  Rx        0222 -  8    08 0C 8C FE D4 EA A7 CF
   297)      1387.885 1  Rx        0459 -  8    8A AB 8F 63 BB 63 DA 32
   298)      1388.183 1  Rx        0451 -  8    1C FC 29 5B E7 00 39 0D
   299)      1388.439 1  Rx        0441 -  8    E6 E7 31 CF 0F 12 7D 35
   300)      1388.781 1  Rx    1AFB1C04 -  8    3E FE 3B AF 5F 5F 28 5C
   301)      1389.037 1  Rx    1AFB1C00 -  8    EC EB 7D F2 C6 44 05 7B
   302)      1389.293 1  Rx        0419 -  8    5F 8A D7 ED 75 D3 B7 F8
   303)      1490.328 1  Rx        0332 -  8    12 60 44 B1 C9 C4 4B 65
   304)      1490.925 1  Rx        011A -  5    88 8D 8E 60 39
   305)      1491.523 1  Rx        0331 -  8    07 12 E4 0F 34 C7 D8 89
   306)      1492.077 1  Rx        011B -  7    7F 0A 45 22 A9 0D 90
   307)      1492.589 1  Rx        006E -  7    0C 2C 80 B5 0A DB F9
   308)      1493.102 1  Rx        0106 -  7    B9 EE 90 DD B6 CF DF
   309)      1493.571 1  Rx        0132 -  7    E7 50 9F E3 0A A9 8B
   310)      1494.083 1  Rx        0308 -  8    31 D7 1B 11 4B DC A2 EA
   311)      1494.339 1  Rx        0206 -  7    1A 70 DC A9 C7 29 78
   312)      1494.766 1  Rx        0212 -  7    81 AC F6 34 09 20 55
   313)      1495.107 1  Rx        0222 -  8    87 0C 8C ED D4 F2 A7 1E
   314)      1495.448 1  Rx        0459 -  8    8A 8F 8F 63 BB 63 DA 09
   315)      1495.918 1  Rx        0451 -  8    1C FC 20 5B 7D E3 39 0D
   316)      1496.344 1  Rx        0441 -  8    E6 C4 7B 26 E6 03 7D 3D
   317)      1496.728 1  Rx    1AFB1C04 -  8    3B 07 46 42 5F 5F 28 74
   318)      1497.070 1  Rx    1AFB1C00 -  8    38 C7 7D 7A 49 51 3D 3F
   319)      1497.368 1  Rx        0419 -  8    5F 8A D7 C0 C6 D3 2B F8
   320)      1598.617 1  Rx        0332 -  8    AD 08 C2 B1 C9 C4 4C E5
   321)      1599.300 1  Rx        011A -  5    88 57 93 60 66
   322)      1600.153 1  Rx        0331 -  8    07 4F E4 C0 34 A5 D8 89
   323)      1600.665 1  Rx        011B -  7    7F B2 98 8A 10 0D 90
   324)      1601.177 1  Rx        006E -  7    17 2C F4 B5 0A DB F9
   325)      1601.604 1  Rx        0106 -  7    F5 EE 90 1E B6 73 DF
   326)      1601.988 1  Rx        0132 -  7    B1 F0 9F E3 0A A9 8B
   327)      1602.286 1  Rx        0308 -  8    31 D7 1B 2F 0F DC A2 46
   328)      1602.628 1  Rx        0206 -  7    1A 5F DC 9D C7 6C AD
   329)      1602.926 1  Rx        0212 -  7    72 70 F6 34 F1 DF DC
   330)      1603.225 1  Rx        0222 -  8    34 CB 8C F7 12 C3 A7 1E
   331)      1603.652 1  Rx        0459 -  8    8A 8F 5E 63 BB 63 C8 09
   332)      1603.993 1  Rx        0451 -  8    05 35 67 1D 8D E3 C3 F5
   333)      1604.292 1  Rx        0441 -  8    E6 8C 7B 26 55 03 7D 9C
   334)      1604.633 1  Rx    1AFB1C04 -  8    DA B5 46 B8 8E 7E DB 74
   335)      1604.932 1  Rx    1AFB1C00 -  8    AE C7 3C 88 49 E0 3D 81
   336)      1605.230 1  Rx        0419 -  8    66 3A 27 62 84 47 2B A4
   337)      1693.380 1  Rx        033B -  8    7F 30 7C 29 CD 2C 38 9C
   338)      1694.063 1  Rx        0339 -  8    16 B9 8F F4 F4 4A FD B3
   339)      1694.618 1  Rx        0337 -  7    85 D3 5A 8A 51 00 27
   340)      1695.215 1  Rx        001F -  5    18 E1 0F 99 5A
   341)      1695.556 1  Rx        0333 -  4    10 A1 96 62
   342)      1695.940 1  Rx        0335 -  8    91 21 DA 59 6F B6 B5 81
   343)      1696.282 1  Rx        0121 -  4    53 0F D8 83
   344)      1696.708 1  Rx        067F -  8    FA A9 47 3A 05 66 37 5C
   345)      1697.092 1  Rx        0681 -  8    BA 05 85 B0 C4 AE B8 94
   346)      1697.391 1  Rx        0309 -  8    84 A1 03 9D FF 3A DD D8
   347)      1697.775 1  Rx        030A -  8    08 12 41 65 00 56 BE F0
   348)      1698.074 1  Rx        0622 -  6    C4 3D CA 17 BA F2
   349)      1698.372 1  Rx        0413 -  6    41 9D 3D F1 20 09
   350)      1698.628 1  Rx        0402 -  3    24 74 0E
   351)      1699.012 1  Rx        0739 -  8    B7 59 6C 68 35 BF 87 C2
   352)      1699.354 1  Rx        0411 -  8    2A 22 3B 3B 4B D5 6F 5F
   353)      1699.695 1  Rx        0729 -  8    DC 7F 7F B1 92 78 5B D6
   354)      1699.951 1  Rx        0728 -  8    22 88 B0 16 27 7F 4D 3B
   355)      1700.250 1  Rx        0709 -  8    DC 98 55 37 12 DD BA 24
   356)      1700.548 1  Rx        0711 -  8    61 D0 FD 58 DE 12 A3 27
   357)      1706.693 1  Rx        0332 -  8    38 08 4C B1 A8 C4 4C E5
   358)      1707.119 1  Rx        011A -  5    88 88 93 60 66
   359)      1707.589 1  Rx        0331 -  8    4B 2E 40 C0 34 A5 D8 89
   360)      1707.973 1  Rx        011B -  7    7F B2 98 44 CA 0D 90
   361)      1708.399 1  Rx        006E -  7    17 07 4B B5 64 DB ED
   362)      1708.869 1  Rx        0106 -  7    66 7A 90 9B 61 1D 48
   363)      1709.381 1  Rx        0132 -  7    73 F0 B0 E3 0A 26 F8
   364)      1709.893 1  Rx        0308 -  8    31 D7 70 2F 0F DC 53 F1
   365)      1710.618 1  Rx        0206 -  7    1A C6 8F C7 C7 03 96
   366)      1711.173 1  Rx        0212 -  7    C0 70 FE 34 F1 DF DC
   367)      1711.813 1  Rx        0222 -  8    34 CB 8C F7 12 C3 A7 1E
   368)      1712.239 1  Rx        0459 -  8    8A 8F 5E 63 BB 63 27 85
   369)      1712.709 1  Rx        0451 -  8    05 35 67 1D 8D 2B E5 18
   370)      1713.178 1  Rx        0441 -  8    E6 BE 09 EE 55 03 55 7A
   371)      1713.647 1  Rx    1AFB1C04 -  8    DA D8 46 B8 F7 C4 DB 74
   372)      1714.202 1  Rx    1AFB1C00 -  8    AE C7 3C 5F 49 53 3D ED
   373)      1714.799 1  Rx        0419 -  8    66 01 27 25 EB 47 ED A4
   374)      1815.963 1  Rx        0332 -  8    6C 08 BE B1 A8 E7 4A 81
   375)      1816.432 1  Rx        011A -  5    88 88 2F 56 2C
   376)      1817.029 1  Rx        0331 -  8    4B 2E 40 0F 34 A5 4F FF
   377)      1817.499 1  Rx        011B -  7    19 52 98 95 CA 0D 90
   378)      1817.925 1  Rx        006E -  7    17 20 4B 39 0F DB ED
   379)      1818.309 1  Rx        0106 -  7    98 7C FD 9B 08 24 48
   380)      1818.693 1  Rx        0132 -  7    73 E7 71 5C 85 EF F8
   381)      1819.035 1  Rx        0308 -  8    31 D7 66 2F 85 8F 70 27
   382)      1819.333 1  Rx        0206 -  7    56 C6 8F C7 C7 53 96
   383)      1819.589 1  Rx        0212 -  7    C0 98 9C 90 DD DF DC
   384)      1819.888 1  Rx        0222 -  8    34 5F 8C F7 DF C3 39 6C
   385)      1820.101 1  Rx        0459 -  8    8A 8F 3A 63 83 63 A1 85
   386)      1820.400 1  Rx        0451 -  8    05 A3 67 1D 1F E7 E5 18
   387)      1820.741 1  Rx        0441 -  8    C2 BE 09 B8 51 44 55 7A
   388)      1821.040 1  Rx    1AFB1C04 -  8    17 45 7C B8 F7 C4 B7 BC
   389)      1821.339 1  Rx    1AFB1C00 -  8    AE 9E 3C 5F 49 AD 3D A1
   390)      1821.595 1  Rx        0419 -  8    AB 01 F4 6D EB 47 ED 28
   391)      1884.571 1  Rx        033A -  8    17 9D 1C 9D FD DE 64 80
   392)      1885.169 1  Rx        0336 -  8    FC 7F E7 5A 4F 4C 5E C1
   393)      1885.723 1  Rx        0334 -  8    7F 02 AF DA C9 74 C3 21
   394)      1886.278 1  Rx        06DD -  8    9A F3 A4 E9 6F 16 B3 BA
   395)      1886.705 1  Rx        0799 -  8    69 B7 64 A2 DA 60 EA 01
   396)      1922.033 1  Rx        0332 -  8    D9 1D DC 79 AE 07 B0 72
   397)      1922.630 1  Rx        011A -  5    88 88 5A 33 94
   398)      1923.228 1  Rx        0331 -  8    76 2E 40 0F 34 C1 F6 E7
   399)      1923.782 1  Rx        011B -  7    26 6A D9 95 CA 92 90
   400)      1924.166 1  Rx        006E -  7    19 DA 4B 39 0F DB 9E
   401)      1924.465 1  Rx        0106 -  7    98 7C 3D 9B 94 3F 48
   402)      1924.764 1  Rx        0132 -  7    73 E7 71 5C 85 EF E3
   403)      1925.148 1  Rx        0308 -  8    E2 D7 98 CC F1 AA 70 B2
   404)      1925.489 1  Rx        0206 -  7    56 C0 8F FA BE 81 F5
   405)      1925.830 1  Rx        0212 -  7    C0 98 BA EF DD DF B5
   406)      1926.172 1  Rx        0222 -  8    2E 5F 13 EA DF C3 39 30
   407)      1926.513 1  Rx        0459 -  8    8A 8F 3A 59 75 41 A1 80
   408)      1926.769 1  Rx        0451 -  8    A8 77 67 6A A0 F6 E5 DA
   409)      1927.068 1  Rx        0441 -  8    A9 BE 09 B8 51 44 D1 4B
   410)      1927.324 1  Rx    1AFB1C04 -  8    17 45 7C B8 7E C4 8F BC
   411)      1927.622 1  Rx    1AFB1C00 -  8    FF 33 3C E6 49 AD 3D EB
   412)      1927.878 1  Rx        0419 -  8    AB BD 8C 6D EB CE DF 28
   413)      2029.084 1  Rx        0332 -  8    D9 1D DC 8D AE 74 D6 D6
   414)      2029.554 1  Rx        011A -  5    88 88 64 5A F3
   415)      2030.023 1  Rx        0331 -  8    F4 DB 40 0F 34 C1 28 E7
   416)      2030.578 1  Rx        011B -  7    C1 76 EC 95 77 6C 90
   417)      2030.919 1  Rx        006E -  7    19 DA 4B 39 0F DB 9E
   418)      2031.175 1  Rx        0106 -  7    E6 B4 BC 9B 94 3F A3
   419)      2031.559 1  Rx        0132 -  7    3A E7 77 5C 85 EF B4
   420)      2031.900 1  Rx        0308 -  8    69 01 98 08 38 4C A6 4E
   421)      2032.242 1  Rx        0206 -  7    8D C0 8F 79 91 7F 74
   422)      2032.626 1  Rx        0212 -  7    81 98 41 EF 5D 8C B5
   423)      2032.967 1  Rx        0222 -  8    BF 0B B8 EA B4 AA 39 30
   424)      2033.180 1  Rx        0459 -  8    EF 8F 3A 59 75 AB A1 80
   425)      2033.479 1  Rx        0451 -  8    A8 A5 67 81 A0 60 E5 DA
   426)      2033.863 1  Rx        0441 -  8    3A DA FA A1 51 3F D1 9E
   427)      2034.204 1  Rx    1AFB1C04 -  8    5F 45 7C 91 7E C4 8F BC
   428)      2034.503 1  Rx    1AFB1C00 -  8    FF E9 3C CF 41 AD 92 93
   429)      2034.802 1  Rx        0419 -  8    EA BD 5D 6D EB CE DF 7F
   430)      2135.667 1  Rx        0332 -  8    D9 E6 DC 8D AE 74 D6 02
   431)      2136.179 1  Rx        011A -  5    DB 88 56 5A F3
   432)      2136.819 1  Rx        0331 -  8    FE F5 4B 90 34 C1 FC E7
   433)      2137.245 1  Rx        011B -  7    A8 76 B5 09 77 6C 90
   434)      2137.715 1  Rx        006E -  7    7A DA 58 39 0F A3 B0
   435)      2138.141 1  Rx        0106 -  7    E6 B4 0A 33 DA 3F 20
   436)      2138.525 1  Rx        0132 -  7    3A E7 87 5C 12 EF B3
   437)      2138.909 1  Rx        0308 -  8    DB 6E CB 08 8F 4C A6 DA
   438)      2139.293 1  Rx        0206 -  7    8D C0 1F 86 03 7F 74
   439)      2139.592 1  Rx        0212 -  7    81 45 CB EF 5D 8C B5
   440)      2139.933 1  Rx        0222 -  8    3B E4 B8 EA 63 AA 3A 30
   441)      2140.275 1  Rx        0459 -  8    2E 63 3A A3 75 AB C9 3F
   442)      2140.616 1  Rx        0451 -  8    46 A5 6E 66 75 60 E5 DA
   443)      2140.957 1  Rx        0441 -  8    3A DA CC C6 51 3F 95 9E
   444)      2141.299 1  Rx    1AFB1C04 -  8    5F 45 3A 4D 7E 63 8F 6F
   445)      2141.597 1  Rx    1AFB1C00 -  8    FF 7C 31 CF 41 AD 92 2E
   446)      2141.853 1  Rx        0419 -  8    EA BD D7 6D EB CE BE 04
   447)      2202.072 1  Rx        033B -  8    7F 0F 7C 77 18 2C 38 9C
   448)      2202.712 1  Rx        0339 -  8    16 B9 6B F4 F4 48 FD 6C
   449)      2203.138 1  Rx        0337 -  7    85 D3 5A 57 77 00 B7
   450)      2203.437 1  Rx        001F -  5    18 E1 0F 34 26
   451)      2203.864 1  Rx        0333 -  4    10 73 96 0D
   452)      2204.290 1  Rx        0335 -  8    91 ED 37 DA 81 B6 CB BD
   453)      2204.632 1  Rx        0121 -  4    8F 0F 49 83
   454)      2205.016 1  Rx        067F -  8    FA A9 47 3A 3B A2 B4 5C
   455)      2205.442 1  Rx        0681 -  8    BA C8 85 88 A4 AE D9 9A
   456)      2205.656 1  Rx        0309 -  8    84 B7 03 46 82 42 DD 2E
   457)      2205.997 1  Rx        030A -  8    7B B1 4D B7 F3 56 7E F0
   458)      2206.253 1  Rx        0622 -  6    AD 3C C4 89 BA F2
   459)      2206.594 1  Rx        0413 -  6    41 EF 3D F1 20 7B
   460)      2206.936 1  Rx        0402 -  3    A1 5C 0A
   461)      2207.277 1  Rx        0739 -  8    B7 65 6C E5 35 29 87 4C
   462)      2207.533 1  Rx        0411 -  8    2A 22 BB 3B 4B D5 2D 5F
   463)      2207.832 1  Rx        0729 -  8    3F 7F 7F B7 90 47 30 6C
   464)      2208.088 1  Rx        0728 -  8    D0 88 B0 16 54 7F 8D 3B
   465)      2208.429 1  Rx        0709 -  8    C3 82 55 BD D6 D9 9C 9B
   466)      2208.770 1  Rx        0711 -  8    61 D0 8A 1C DE 12 2D 27
   467)      2243.032 1  Rx        0332 -  8    D9 14 7E F7 AE 74 D6 02
   468)      2243.117 1  Rx        011A -  5    EC 23 B5 AF E5
   469)      2243.245 1  Rx        0331 -  8    AD 43 87 45 70 6E 02 CD
   470)      2243.373 1  Rx        011B -  7    95 CE 9C 44 B9 C0 2E
   471)      2243.501 1  Rx        006E -  7    5B 54 B6 93 84 37 70
   472)      2243.629 1  Rx        0106 -  7    F2 D5 0F 17 04 DA 69
   473)      2243.757 1  Rx        0132 -  7    F7 76 48 73 BB 4E 96
   474)      2243.885 1  Rx        0308 -  8    59 38 88 23 2A 39 26 41
   475)      2244.013 1  Rx        0206 -  7    23 AE B9 42 EB F2 E9
   476)      2244.141 1  Rx        0212 -  7    D4 D3 04 C6 37 E2 4F
   477)      2244.269 1  Rx        0222 -  8    40 B7 DD 97 84 C6 96 46
   478)      2244.397 1  Rx        0459 -  8    55 9F 90 F1 C5 38 AC 14
   479)      2244.525 1  Rx        0451 -  8    11 F7 69 07 DA 9C 06 EF
   480)      2244.653 1  Rx        0441 -  8    DF 81 E5 08 BD 2E 3F CF
   481)      2244.824 1  Rx    1AFB1C04 -  8    8F 35 09 14 15 65 62 28
   482)      2244.995 1  Rx    1AFB1C00 -  8    35 C0 65 CF A5 A9 92 C6
   483)      2245.123 1  Rx        0419 -  8    21 BD A7 6D EB AC B4 04
   484)      2346.500 1  Rx        0332 -  8    60 14 EA FC AE 74 1B 02
   485)      2347.054 1  Rx        011A -  5    EC B4 B5 C5 E5
   486)      2347.609 1  Rx        0331 -  8    AD 1C 6F 45 43 C5 02 CD
   487)      2348.121 1  Rx        011B -  7    1C CE 5E 44 B9 C0 2E
   488)      2348.462 1  Rx        006E -  7    B8 54 B6 93 41 A3 70
   489)      2348.932 1  Rx        0106 -  7    E7 D5 0F 17 71 60 69
   490)      2349.529 1  Rx        0132 -  7    00 76 AB 73 0E 4E 96
   491)      2350.084 1  Rx        0308 -  8    59 5D 69 E7 0B 39 85 41
   492)      2350.510 1  Rx        0206 -  7    23 AE 53 6F 77 F2 E9
   493)      2350.852 1  Rx        0212 -  7    D4 D3 D6 54 40 E2 4F
   494)      2351.150 1  Rx        0222 -  8    40 B7 DD 36 43 C6 AB 46
   495)      2351.449 1  Rx        0459 -  8    55 A5 90 34 78 06 AC 08
   496)      2351.790 1  Rx        0451 -  8    11 99 08 07 68 9C 06 1A
   497)      2352.046 1  Rx        0441 -  8    BB 5D DD 33 73 2E B4 84
   498)      2352.345 1  Rx    1AFB1C04 -  8    BC A4 09 14 E5 E2 2C 6A
   499)      2352.473 1  Rx    1AFB1C00 -  8    29 FC A5 C7 A6 E7 EA 29
   500)      2352.601 1  Rx        0419 -  8    E0 FB E7 55 FC DB B8 EE
   501)      2453.295 1  Rx        0332 -  8    60 14 EC FC 21 9A 1B 02
   502)      2453.850 1  Rx        011A -  5    EC 50 1C 3A 0C
   503)      2454.447 1  Rx        0331 -  8    3F D3 41 66 84 C5 21 36
   504)      2455.002 1  Rx        011B -  7    D5 CE 5E 44 B9 C0 41
   505)      2455.471 1  Rx        006E -  7    E8 54 B6 D2 41 A3 70
   506)      2455.770 1  Rx        0106 -  7    E7 0B 0F 2A 71 6E 69
   507)      2456.196 1  Rx        0132 -  7    A9 76 68 73 0E E2 BB
   508)      2456.580 1  Rx        0308 -  8    59 3A 69 E7 0B 39 85 32
   509)      2456.879 1  Rx        0206 -  7    23 AE 53 B9 77 F2 E9
   510)      2457.220 1  Rx        0212 -  7    D4 D3 D6 39 2E 09 4F
   511)      2457.562 1  Rx        0222 -  8    40 B7 60 36 86 C6 AB 05
   512)      2457.946 1  Rx        0459 -  8    5F A5 90 34 78 33 AC 08
   513)      2458.244 1  Rx        0451 -  8    EC 99 15 07 68 9C 35 1A
   514)      2458.586 1  Rx        0441 -  8    BB 35 92 79 73 24 B4 84
   515)      2458.884 1  Rx    1AFB1C04 -  8    19 84 09 58 01 E2 5A EA
   516)      2459.226 1  Rx    1AFB1C00 -  8    29 33 A5 C7 99 AA EA 29
   517)      2459.482 1  Rx        0419 -  8    E0 FB E7 55 F8 36 B8 EE
   518)      2560.475 1  Rx        0332 -  8    24 18 86 FC 02 9A 00 B8
   519)      2561.029 1  Rx        011A -  5    EC 50 2A 3A 0C
   520)      2561.584 1  Rx        0331 -  8    EF CE 4D 66 84 C5 A1 36
   521)      2562.139 1  Rx        011B -  7    D5 14 5E 44 B9 C0 7D
   522)      2562.693 1  Rx        006E -  7    E8 54 C3 D2 41 A3 70
   523)      2563.077 1  Rx        0106 -  7    E7 0B 0F 9B A7 6E 5E
   524)      2563.461 1  Rx        0132 -  7    F3 38 68 73 0E 02 BB
   525)      2563.803 1  Rx        0308 -  8    59 C1 69 1F 0B 39 34 B7
   526)      2564.101 1  Rx        0206 -  7    23 9C 53 B9 29 E9 7A
   527)      2564.443 1  Rx        0212 -  7    E9 FB B5 39 08 09 4F
   528)      2564.827 1  Rx        0222 -  8    B7 B7 60 0F 3D C6 92 D7
   529)      2565.083 1  Rx        0459 -  8    5F A5 90 34 F7 33 45 2C
   530)      2565.381 1  Rx        0451 -  8    EC 48 E6 20 68 9C 35 1A
   531)      2565.765 1  Rx        0441 -  8    EB 35 C9 1E 73 F5 B4 61
   532)      2566.107 1  Rx    1AFB1C04 -  8    19 FE 09 58 01 E2 31 D6
   533)      2566.363 1  Rx    1AFB1C00 -  8    C8 BD A5 C7 0D AA 5C 29
   534)      2566.661 1  Rx        0419 -  8    E0 28 98 55 F8 36 66 55
   535)      2668.379 1  Rx        0332 -  8    24 18 E7 FC 02 27 04 B8
   536)      2668.849 1  Rx        011A -  5    EC 41 2A 92 74
   537)      2669.617 1  Rx        0331 -  8    EB CE 9A ED EF 4E 27 7B
   538)      2670.257 1  Rx        011B -  7    29 4D 5E 30 B9 C0 7D
   539)      2670.683 1  Rx        006E -  7    B9 D0 8E D2 8D 3B 70
   540)      2671.195 1  Rx        0106 -  7    1F 34 FC 95 A7 6E 5E
   541)      2671.665 1  Rx        0132 -  7    75 38 1F 19 B0 02 BB
   542)      2672.091 1  Rx        0308 -  8    ED C1 95 FD 0B 39 1D FF
   543)      2672.518 1  Rx        0206 -  7    D8 9C 53 B9 F9 F6 7A
   544)      2672.902 1  Rx        0212 -  7    1D FB B5 39 08 09 2D
   545)      2673.414 1  Rx        0222 -  8    9F 68 60 82 3D BD 92 D7
   546)      2674.054 1  Rx        0459 -  8    6C A5 47 9E F7 D9 F5 6E
   547)      2674.779 1  Rx        0451 -  8    EC 48 E6 20 68 9C 35 1A
   548)      2675.462 1  Rx        0441 -  8    90 8D C9 76 73 1E B4 BD
   549)      2676.059 1  Rx    1AFB1C04 -  8    19 E5 09 58 A3 E2 93 12
   550)      2676.785 1  Rx    1AFB1C00 -  8    84 29 A5 C7 46 3E 87 23
   551)      2677.339 1  Rx        0419 -  8    EB 14 84 55 F8 31 FE BE
   552)      2709.852 1  Rx        033B -  8    7F 0F D7 77 18 10 C6 DA
   553)      2710.534 1  Rx        0339 -  8    70 01 6B E4 F4 42 FD E4
   554)      2711.260 1  Rx        0337 -  7    29 D3 5A E2 77 A7 8E
   555)      2711.857 1  Rx        001F -  5    0D E1 07 34 38
   556)      2712.369 1  Rx        0333 -  4    10 FB 96 3A
   557)      2712.753 1  Rx        0335 -  8    9D ED 37 DA 08 B6 CB BD
   558)      2713.052 1  Rx        0121 -  4    F1 0F 15 9C
   559)      2713.393 1  Rx        067F -  8    FA A9 47 06 3B A2 B4 5C
   560)      2713.692 1  Rx        0681 -  8    B6 1A C2 E9 A4 AE D9 9A
   561)      2714.076 1  Rx        0309 -  8    84 B7 C9 6E 2C 42 DD 2E
   562)      2714.417 1  Rx        030A -  8    7B B1 4D B7 F3 56 39 39
   563)      2714.801 1  Rx        0622 -  6    AD 8C C4 59 BA F2
   564)      2715.185 1  Rx        0413 -  6    29 1D 3D F1 20 3B
   565)      2715.526 1  Rx        0402 -  3    A1 E9 A8
   566)      2715.996 1  Rx        0739 -  8    81 65 93 D4 8C 29 87 4C
   567)      2716.593 1  Rx        0411 -  8    F2 98 BB 3B FA 29 52 5F
   568)      2717.190 1  Rx        0729 -  8    4D 7F 7F B7 90 47 E8 B2
   569)      2717.788 1  Rx        0728 -  8    85 EE 71 EE 54 F9 77 3B
   570)      2718.257 1  Rx        0709 -  8    F1 82 55 BD D6 D9 D3 F7
   571)      2718.812 1  Rx        0711 -  8    A1 91 8A DE DE CD 97 54
   572)      2778.759 1  Rx        0332 -  8    FE FE E7 FC 1E D5 04 AC
   573)      2779.271 1  Rx        011A -  5    3F 41 2A 77 DB
   574)      2779.996 1  Rx        0331 -  8    EB 79 7F F9 89 B4 27 7B
   575)      2780.764 1  Rx        011B -  7    47 30 12 30 B9 C0 F2
   576)      2781.106 1  Rx        006E -  7    B9 EC 69 D2 7A 3B 70
   577)      2781.490 1  Rx        0106 -  7    1F 34 FC 95 A7 6E 5E
   578)      2781.874 1  Rx        0132 -  7    75 02 1F 69 6D 02 46
   579)      2782.428 1  Rx        0308 -  8    A7 31 95 FD 0B 39 A9 FF
   580)      2783.068 1  Rx        0206 -  7    8A 9C 10 66 1B F6 3D
   581)      2783.538 1  Rx        0212 -  7    17 FB B5 A2 D6 09 2D
   582)      2784.220 1  Rx        0222 -  8    C1 68 60 82 3D BD B5 79
   583)      2784.647 1  Rx        0459 -  8    2E AA 47 9E F7 4F 29 6E
   584)      2785.031 1  Rx        0451 -  8    F8 93 E6 1C 30 71 35 C6
   585)      2785.415 1  Rx        0441 -  8    E0 8D 16 C7 5C 2B 17 93
   586)      2785.799 1  Rx    1AFB1C04 -  8    3A 04 FF 58 5E E2 47 9B
   587)      2786.140 1  Rx    1AFB1C00 -  8    15 29 A5 C7 E6 72 87 07
   588)      2786.354 1  Rx        0419 -  8    DB 14 84 55 79 31 F0 BE
   589)      2888.029 1  Rx        033A -  8    E1 09 1C 32 36 B3 64 80
   590)      2888.157 1  Rx        0332 -  8    80 F4 E7 B6 1E C5 5F F6
   591)      2888.797 1  Rx        0336 -  8    FC 7F 6C 5A 4F 4C 48 1D
   592)      2888.925 1  Rx        011A -  5    3F CD A1 77 DB
   593)      2889.394 1  Rx        0334 -  8    7F DC AF 89 C9 74 C3 21
   594)      2889.650 1  Rx        0331 -  8    58 2D CC F9 02 22 03 D3
   595)      2889.992 1  Rx        06DD -  8    9A 6C 07 42 0F 87 B3 B5
   596)      2890.248 1  Rx        011B -  7    47 51 C1 2C B9 8D 72
   597)      2890.760 1  Rx        0799 -  8    69 79 64 FE 81 5E AB 01
   598)      2890.930 1  Rx        006E -  7    B9 31 69 D2 FF 98 70
   599)      2891.570 1  Rx        0106 -  7    1F 55 FC 95 D5 6E 5E
   600)      2892.210 1  Rx        0132 -  7    FD 02 C8 A6 6D 02 46
   601)      2892.637 1  Rx        0308 -  8    A7 56 95 BC 0B 39 2A 65
   602)      2893.106 1  Rx        0206 -  7    8A 79 10 66 1B F6 3D
   603)      2893.533 1  Rx        0212 -  7    FA 4B B5 A2 A7 E6 97
   604)      2894.002 1  Rx        0222 -  8    BE 68 27 6D 3D D0 07 79
   605)      2894.514 1  Rx        0459 -  8    97 AA 26 9E F7 4F 68 6E
   606)      2895.026 1  Rx        0451 -  8    F8 2D 20 21 D5 5C 35 03
   607)      2895.666 1  Rx        0441 -  8    1D 8D BC 54 5C 58 17 93
   608)      2896.264 1  Rx    1AFB1C04 -  8    B7 72 7D 58 9F E2 47 9B
   609)      2896.733 1  Rx    1AFB1C00 -  8    15 0E A5 B2 E6 72 87 07
   610)      2897.330 1  Rx        0419 -  8    C7 52 84 55 79 31 C2 9A
   611)      2997.769 1  Rx        0332 -  8    24 C0 C6 18 E1 9F 69 37
   612)      2998.409 1  Rx        011A -  5    56 CD A1 3F DB
   613)      2999.049 1  Rx        0331 -  8    58 6C 93 F9 0C 22 03 D3
   614)      2999.561 1  Rx        011B -  7    EC 51 EA EF B9 A2 73
   615)      3000.115 1  Rx        006E -  7    B9 31 69 D2 FF 98 27
   616)      3000.713 1  Rx        0106 -  7    21 20 FC 95 FB DA 4E
   617)      3001.267 1  Rx        0132 -  7    FD 02 C8 1A E8 52 E3
   618)      3001.694 1  Rx        0308 -  8    A7 56 EE BC 79 39 2A 65
   619)      3002.163 1  Rx        0206 -  7    8A 79 10 83 1B B4 53
   620)      3002.547 1  Rx        0212 -  7    85 4B 60 A2 48 E3 97
   621)      3002.931 1  Rx        0222 -  8    2B 4F A1 6D 3D D0 07 79
   622)      3003.401 1  Rx        0459 -  8    74 15 29 38 F7 B9 68 F1
   623)      3003.913 1  Rx        0451 -  8    19 2D 03 21 D5 5C 07 C4
   624)      3004.425 1  Rx        0441 -  8    1D 84 BC 54 5C 58 17 DC
   625)      3005.022 1  Rx    1AFB1C04 -  8    4B 72 45 58 9F E2 DB 9B
   626)      3005.534 1  Rx    1AFB1C00 -  8    4A 54 0E B2 E6 7C 87 C1
   627)      3005.961 1  Rx        0419 -  8    C9 52 9D 55 82 31 C2 9A
   628)      3107.465 1  Rx        0332 -  8    24 C0 C6 6E 69 73 78 09
   629)      3108.063 1  Rx        011A -  5    56 13 A1 3F EC
   630)      3108.788 1  Rx        0331 -  8    01 6C 93 F9 A8 22 61 75
   631)      3109.513 1  Rx        011B -  7    EC E5 EA 4E CB CC 15
   632)      3109.983 1  Rx        006E -  7    63 8C 73 3B 01 98 27
   633)      3110.367 1  Rx        0106 -  7    28 CB 05 F3 FB DA 14
   634)      3110.751 1  Rx        0132 -  7    FD F3 46 03 E8 8C E3
   635)      3111.092 1  Rx        0308 -  8    A8 5B EE BC 79 39 02 9A
   636)      3111.476 1  Rx        0206 -  7    8A 79 91 44 F3 34 53
   637)      3111.817 1  Rx        0212 -  7    F7 4B 8F A2 48 E3 C0
   638)      3112.287 1  Rx        0222 -  8    76 4F F7 46 3D 5B 85 79
   639)      3112.671 1  Rx        0459 -  8    88 15 29 38 B8 31 68 EB
   640)      3113.012 1  Rx        0451 -  8    19 2C D5 0B D5 5C 08 C4
   641)      3113.311 1  Rx        0441 -  8    1D 8E 9D 34 5C 58 17 DC
   642)      3113.652 1  Rx    1AFB1C04 -  8    7B 72 BD BA 70 E2 E1 E4
   643)      3113.994 1  Rx    1AFB1C00 -  8    4A 8D 60 11 C3 37 AC 1A
   644)      3114.292 1  Rx        0419 -  8    7E 2B 9D 55 82 31 41 9A
   645)      3215.557 1  Rx        0332 -  8    85 C0 C6 6E 69 73 78 09
   646)      3216.154 1  Rx        011A -  5    56 13 69 FB 56
   647)      3216.624 1  Rx        0331 -  8    AF 6C 93 F9 34 A4 61 30
   648)      3217.392 1  Rx        011B -  7    30 E5 EA C7 8A CC 15
   649)      3217.946 1  Rx        006E -  7    63 89 93 FE 01 98 D3
   650)      3218.586 1  Rx        0106 -  7    84 0D 05 F3 FB 64 EF
   651)      3219.482 1  Rx        0132 -  7    FD F3 46 03 6A 8C E3
   652)      3219.653 1  Rx        033B -  8    7F C7 D7 51 1E 10 C6 0A
   653)      3220.378 1  Rx        0339 -  8    70 F7 6B E4 F4 C0 21 E4
   654)      3220.506 1  Rx        0308 -  8    A8 DB EE BC 79 39 02 DA
   655)      3220.890 1  Rx        0337 -  7    20 D3 EA E2 77 A7 8E
   656)      3221.104 1  Rx        0206 -  7    FA DD 91 44 85 46 53
   657)      3221.616 1  Rx        001F -  5    0D 2E F6 34 72
   658)      3221.872 1  Rx        0212 -  7    83 4B 4F A2 48 E3 F1
   659)      3222.341 1  Rx        0333 -  4    7D 25 BA 3A
   660)      3222.512 1  Rx        0222 -  8    76 6F AF F3 D2 5B 85 79
   661)      3222.981 1  Rx        0335 -  8    9D 54 1C 08 19 B6 CB BD
   662)      3223.152 1  Rx        0459 -  8    F6 15 29 38 B8 31 3D 6F
   663)      3223.536 1  Rx        0121 -  4    32 0F 15 10
   664)      3224.346 1  Rx        0451 -  8    4D 2C 6F 36 26 5C 08 98
   665)      3224.560 1  Rx        067F -  8    5C EC 47 06 C3 CE B4 5C
   666)      3224.816 1  Rx        0441 -  8    1D 8E 9D 34 7A 58 17 A1
   667)      3225.029 1  Rx        0681 -  8    D2 B1 C2 83 E2 35 58 1E
   668)      3225.456 1  Rx    1AFB1C04 -  8    7B 72 BD 71 1E B9 E1 E4
   669)      3225.626 1  Rx        0309 -  8    30 B7 C9 6E E1 73 7E 52
   670)      3226.053 1  Rx    1AFB1C00 -  8    26 47 60 11 2D 37 AC 1A
   671)      3226.352 1  Rx        030A -  8    16 5C 8B BA 29 D0 39 68
   672)      3226.778 1  Rx        0419 -  8    7E 2B 9D 19 CF 31 68 88
   673)      3226.949 1  Rx        0622 -  6    AD 8C 5A 59 BA 38
   674)      3227.248 1  Rx        0413 -  6    29 1D 3D 04 20 3B
   675)      3227.589 1  Rx        0402 -  3    6C 78 58
   676)      3227.973 1  Rx        0739 -  8    ED DA 93 61 8C 29 46 4C
   677)      3228.272 1  Rx        0411 -  8    F2 98 18 A6 FA 29 B1 5F
   678)      3228.570 1  Rx        0729 -  8    2C 7F 7F B7 CF 54 E8 6B
   679)      3228.826 1  Rx        0728 -  8    85 BA AC C9 15 4B 77 E5
   680)      3229.168 1  Rx        0709 -  8    B1 82 4F BD F9 0A D3 F7
   681)      3229.466 1  Rx        0711 -  8    09 4D 8A 65 91 CD ED 54
   682)      3328.497 1  Rx        0332 -  8    EA C0 C6 E3 A9 73 2D 09
   683)      3328.582 1  Rx        011A -  5    E3 EF 64 8E E4
   684)      3328.753 1  Rx        0331 -  8    42 6D 2D 3E 54 EA 90 58
   685)      3328.838 1  Rx        011B -  7    A2 C6 58 04 57 28 8C
   686)      3328.966 1  Rx        006E -  7    24 F4 A9 B6 70 B2 A2
   687)      3329.094 1  Rx        0106 -  7    36 01 6C A6 6D F1 BD
   688)      3329.222 1  Rx        0132 -  7    93 75 A4 83 BF 8B F3
   689)      3329.350 1  Rx        0308 -  8    28 7E C7 8E 7C 5E D1 62
   690)      3329.478 1  Rx        0206 -  7    9B 7B 16 5E 23 31 2B
   691)      3329.606 1  Rx        0212 -  7    4F 02 72 43 8B C2 5D
   692)      3329.734 1  Rx        0222 -  8    54 A0 B0 A7 4E 0E 95 0B
   693)      3329.862 1  Rx        0459 -  8    3D 11 B8 2B 06 CF D1 DB
   694)      3330.033 1  Rx        0451 -  8    0F 57 FC 48 05 4E 97 DE
   695)      3330.161 1  Rx        0441 -  8    30 76 6B CB 0D 02 3D FA
   696)      3330.289 1  Rx    1AFB1C04 -  8    FA F9 BD 21 01 16 A3 EF
   697)      3330.459 1  Rx    1AFB1C00 -  8    26 A9 60 41 2D 5E AC 1A
   698)      3330.801 1  Rx        0419 -  8    7E 2B D7 6B 1C 31 EC 94
   699)      3432.177 1  Rx        0332 -  8    EF 1C EB D2 A9 D4 0B 09
   700)      3432.647 1  Rx        011A -  5    74 EF 7A 8E E4
   701)      3433.329 1  Rx        0331 -  8    00 6E 2D 62 54 EA 90 43
   702)      3433.927 1  Rx        011B -  7    A2 C6 58 7C 57 C2 8C
   703)      3434.439 1  Rx        006E -  7    D4 F4 A9 25 70 B2 69
   704)      3434.951 1  Rx        0106 -  7    36 01 6C A6 6D FF BD
   705)      3435.463 1  Rx        0132 -  7    3A 75 94 22 BF 65 49
   706)      3436.103 1  Rx        0308 -  8    28 7E C7 EC 4D 5E D1 07
   707)      3436.444 1  Rx        0206 -  7    4C 7B 16 6C A3 31 4B
   708)      3436.785 1  Rx        0212 -  7    4F 02 72 43 14 5B 5D
   709)      3437.084 1  Rx        0222 -  8    54 A0 B0 A7 4E 0E 54 0B
   710)      3437.425 1  Rx        0459 -  8    8A 5D 89 8C 06 DF D1 DB
   711)      3437.724 1  Rx        0451 -  8    0F 57 A4 C4 4C 4E EA 7D
   712)      3438.065 1  Rx        0441 -  8    33 89 6B 7D 6E 02 3D 9C
   713)      3438.492 1  Rx    1AFB1C04 -  8    5F F9 BD 58 01 BE F4 44
   714)      3438.663 1  Rx    1AFB1C00 -  8    C7 90 F7 B2 16 21 DA 76
   715)      3438.791 1  Rx        0419 -  8    E0 48 F3 4B C5 50 5D CC
   716)      3539.698 1  Rx        0332 -  8    F5 C2 34 26 98 D4 EA 09
   717)      3540.338 1  Rx        011A -  5    4D 00 9F 8E 3E
   718)      3540.893 1  Rx        0331 -  8    00 2A 56 62 C4 EA 90 43
   719)      3541.490 1  Rx        011B -  7    E0 A3 58 B9 B2 3C 8C
   720)      3541.874 1  Rx        006E -  7    D4 F4 A9 E6 35 B2 30
   721)      3542.386 1  Rx        0106 -  7    36 46 BF E3 6D FF C2
   722)      3542.813 1  Rx        0132 -  7    3A CC 94 69 DA 88 7B
   723)      3543.325 1  Rx        0308 -  8    8F 7E A5 EC 60 5E BE 07
   724)      3543.624 1  Rx        0206 -  7    12 7B 16 18 97 31 9A
   725)      3543.965 1  Rx        0212 -  7    52 02 5F 7B 14 8F 5D
   726)      3544.306 1  Rx        0222 -  8    54 9F 42 A7 4E 0E 54 DF
   727)      3544.690 1  Rx        0459 -  8    8A 5D 27 46 06 0A 7D DB
   728)      3545.117 1  Rx        0451 -  8    B8 57 6E 61 44 6B B4 18
   729)      3545.501 1  Rx        0441 -  8    33 BA 4B BA 6E 61 3D 9C
   730)      3545.885 1  Rx    1AFB1C04 -  8    B4 BE BD 58 9C 1E 09 5F
   731)      3546.184 1  Rx    1AFB1C00 -  8    C7 90 EC B2 16 EB DA 76
   732)      3546.610 1  Rx        0419 -  8    5D 48 E0 4B BF 50 A1 64
   733)      3647.944 1  Rx        0332 -  8    F5 F2 D5 3B 98 D4 BC 38
   734)      3648.414 1  Rx        011A -  5    4D C6 9F 8E 19
   735)      3649.096 1  Rx        0331 -  8    00 76 EC 62 C4 B0 83 74
   736)      3649.779 1  Rx        011B -  7    E0 E0 88 B9 4E 3C 8C
   737)      3650.334 1  Rx        006E -  7    ED FA A9 0C 13 2D C4
   738)      3650.760 1  Rx        0106 -  7    27 A7 95 E3 6D FF C2
   739)      3651.187 1  Rx        0132 -  7    3A CC 94 69 52 02 7B
   740)      3651.571 1  Rx        0308 -  8    1F 7E A5 C3 60 5E 64 07
   741)      3651.827 1  Rx        0206 -  7    CC 47 16 48 97 F8 F2
   742)      3652.126 1  Rx        0212 -  7    52 02 5F 7B 14 5F FA
   743)      3652.339 1  Rx        0222 -  8    54 9F 42 A7 4E 0E 54 DF
   744)      3652.723 1  Rx        0459 -  8    27 5D 27 7D 46 6D 7D C7
   745)      3652.979 1  Rx        0451 -  8    B8 EB B5 61 A9 6B B4 F8
   746)      3653.278 1  Rx        0441 -  8    33 BA 4B B9 6E 5A 3D 2D
   747)      3653.619 1  Rx    1AFB1C04 -  8    B4 BF BD D6 9C 74 45 D1
   748)      3653.918 1  Rx    1AFB1C00 -  8    C7 90 D7 B2 22 CC DA 4F
   749)      3654.259 1  Rx        0419 -  8    CF 9E B4 4B ED 50 CF F4
   750)      3731.145 1  Rx        033B -  8    7A C7 85 04 1E 10 D5 47
   751)      3731.870 1  Rx        0339 -  8    93 F7 3D F3 F4 C0 21 E4
   752)      3732.382 1  Rx        0337 -  7    61 D3 EA E2 77 A7 41
   753)      3732.894 1  Rx        001F -  5    5A 2E 38 BA B7
   754)      3733.321 1  Rx        0333 -  4    C5 ED 36 3A
   755)      3733.790 1  Rx        0335 -  8    75 54 20 08 19 9C 5A BD
   756)      3734.132 1  Rx        0121 -  4    32 0F 15 10
   757)      3734.558 1  Rx        067F -  8    DC CF 55 82 85 CD 36 5C
   758)      3734.857 1  Rx        0681 -  8    6C B1 C2 83 F9 D3 58 1E
   759)      3735.156 1  Rx        0309 -  8    24 B7 C9 6E E1 4F 7E A9
   760)      3735.540 1  Rx        030A -  8    16 B4 62 C0 0E D0 39 99
   761)      3735.924 1  Rx        0622 -  6    4C 8C 80 59 BA 97
   762)      3736.393 1  Rx        0413 -  6    29 1D AB 04 20 E4
   763)      3736.777 1  Rx        0402 -  3    6C 78 58
   764)      3737.161 1  Rx        0739 -  8    ED 79 A0 61 8C 29 46 4C
   765)      3737.502 1  Rx        0411 -  8    F2 7C 18 A6 FA 29 B1 5F
   766)      3737.844 1  Rx        0729 -  8    2C 31 7F B7 CF FC E8 6B
   767)      3738.142 1  Rx        0728 -  8    85 C2 AC 57 2B D6 0E 09
   768)      3738.398 1  Rx        0709 -  8    B1 A9 4F BD 97 0A 97 F7
   769)      3738.740 1  Rx        0711 -  8    05 4D 8A 65 93 CD ED 13
   770)      3755.295 1  Rx        0332 -  8    F5 79 D5 60 AC D4 BC 38
   771)      3755.849 1  Rx        011A -  5    4D 1A EC 74 7A
   772)      3756.489 1  Rx        0331 -  8    25 65 B2 62 C4 B0 5D AE
   773)      3757.001 1  Rx        011B -  7    06 E0 88 4C 4E 48 8C
   774)      3757.385 1  Rx        006E -  7    FE 1E 6B 4C 13 2D CD
   775)      3757.855 1  Rx        0106 -  7    27 27 95 E3 6D 32 CF
   776)      3758.281 1  Rx        0132 -  7    3A B7 94 69 52 69 7B
   777)      3758.793 1  Rx        0308 -  8    1F 73 6E 40 60 5E 64 07
   778)      3759.305 1  Rx        0206 -  7    34 22 16 48 E8 F8 F2
   779)      3759.775 1  Rx        0212 -  7    52 02 5F 3D 14 5F FA
   780)      3760.287 1  Rx        0222 -  8    D6 5C BF A7 4E 03 85 FD
   781)      3760.671 1  Rx        0459 -  8    27 5D 10 C3 DE 31 6B 94
   782)      3761.097 1  Rx        0451 -  8    B8 86 B5 61 C5 D6 B4 66
   783)      3761.353 1  Rx        0441 -  8    33 F6 4B B9 36 A5 3D 2D
   784)      3761.652 1  Rx    1AFB1C04 -  8    2F DB BD D6 E4 74 8E D1
   785)      3761.951 1  Rx    1AFB1C00 -  8    8E 15 D7 B2 50 ED 1A F5
   786)      3762.207 1  Rx        0419 -  8    CF 4C B4 8F ED 11 D1 F4
   787)      3863.669 1  Rx        0332 -  8    F5 90 97 60 AC D4 29 38
   788)      3864.138 1  Rx        011A -  5    9E B3 52 91 7A
   789)      3864.778 1  Rx        0331 -  8    41 65 FC 62 C4 5C 5D AE
   790)      3865.290 1  Rx        011B -  7    06 E0 DF 5A 4E 59 8C
   791)      3865.589 1  Rx        006E -  7    FE 5C 6B 4C 58 2D EB
   792)      3865.887 1  Rx        0106 -  7    27 27 70 8A ED 32 5A
   793)      3866.186 1  Rx        0132 -  7    45 B7 94 E3 54 F4 7B
   794)      3866.485 1  Rx        0308 -  8    1F EA 6E 40 61 DD 03 07
   795)      3866.826 1  Rx        0206 -  7    85 22 16 48 83 F8 0D
   796)      3867.125 1  Rx        0212 -  7    52 02 3F FC 14 5F B2
   797)      3867.381 1  Rx        0222 -  8    D6 5C B7 16 74 82 85 F3
   798)      3867.722 1  Rx        0459 -  8    27 6E 4D C3 DE 73 B0 56
   799)      3868.106 1  Rx        0451 -  8    B7 42 B5 61 C5 D6 B4 EF
   800)      3868.575 1  Rx        0441 -  8    33 F6 4B B9 36 A5 ED 01
   801)      3868.959 1  Rx    1AFB1C04 -  8    C0 DB A3 4C E4 8E 73 86
   802)      3869.301 1  Rx    1AFB1C00 -  8    2F 25 D7 8E 80 ED 6E D2
   803)      3869.599 1  Rx        0419 -  8    93 07 B4 8F ED A8 D1 F4
   804)      3892.256 1  Rx        033A -  8    88 CC 6D 44 15 67 45 80
   805)      3892.938 1  Rx        0336 -  8    13 7F 9E 29 4F B2 48 BE
   806)      3893.536 1  Rx        0334 -  8    7F DC AF 2C C9 74 C3 47
   807)      3893.877 1  Rx        06DD -  8    D8 6C 07 42 0F 07 B3 B5
   808)      3894.261 1  Rx        0799 -  8    69 79 94 FE EB 5E AB 8D
   809)      3971.019 1  Rx        0332 -  8    82 90 97 60 BA D4 09 54
   810)      3971.360 1  Rx        011A -  5    9E B3 52 BD 7A
   811)      3972.000 1  Rx        0331 -  8    41 65 FC 62 29 5C 5D AE
   812)      3972.384 1  Rx        011B -  7    06 D2 DF 5A CA 59 8C
   813)      3972.768 1  Rx        006E -  7    FE 5C 6B 4C 76 2D 9E
   814)      3973.110 1  Rx        0106 -  7    27 E0 07 8A D1 32 6A
   815)      3973.494 1  Rx        0132 -  7    E7 B7 94 E3 3A F4 56
   816)      3973.792 1  Rx        0308 -  8    1F 32 6E 60 61 DD 03 07
   817)      3974.048 1  Rx        0206 -  7    85 22 80 48 83 23 E6
   818)      3974.347 1  Rx        0212 -  7    62 02 5A FC 14 5F E5
   819)      3974.603 1  Rx        0222 -  8    0A 5C 6C D6 74 12 85 47
   820)      3974.902 1  Rx        0459 -  8    27 95 A0 82 8C B5 C4 56
   821)      3975.158 1  Rx        0451 -  8    FC 22 36 7B 2D D6 B4 EF
   822)      3975.456 1  Rx        0441 -  8    C3 F6 2F B9 E3 A5 ED 01
   823)      3975.798 1  Rx    1AFB1C04 -  8    F6 85 1D 4C E7 5C 73 13
   824)      3976.054 1  Rx    1AFB1C00 -  8    2F 25 D7 F5 80 32 6E D2
   825)      3976.267 1  Rx        0419 -  8    93 C3 B4 8F ED A8 D1 F4
   826)      4076.790 1  Rx        0332 -  8    E6 B2 77 B6 91 0F 1D A9
   827)      4077.345 1  Rx        011A -  5    DF B3 77 BD 69
   828)      4077.729 1  Rx        0331 -  8    2F 65 FC B2 1D 5C 5D AE
   829)      4078.028 1  Rx        011B -  7    06 D2 0B 29 CA CE 21
   830)      4078.412 1  Rx        006E -  7    E3 5C 96 4C 76 26 28
   831)      4078.796 1  Rx        0106 -  7    27 E0 EE 8A 32 C0 85
   832)      4079.137 1  Rx        0132 -  7    E7 B7 94 E3 3A F4 56
   833)      4079.436 1  Rx        0308 -  8    1F 32 8E 60 31 EC 03 09
   834)      4079.820 1  Rx        0206 -  7    C8 AE 5B 8D 3C 6B E6
   835)      4080.118 1  Rx        0212 -  7    CD 07 9E FC 14 79 E5
   836)      4080.332 1  Rx        0222 -  8    0A 5C 89 D6 74 91 85 57
   837)      4080.673 1  Rx        0459 -  8    01 95 A0 A7 8F 27 24 CA
   838)      4080.929 1  Rx        0451 -  8    FC 93 36 7B AC D6 B4 EF
   839)      4081.185 1  Rx        0441 -  8    48 F6 2F B9 E3 45 95 10
   840)      4081.526 1  Rx    1AFB1C04 -  8    28 85 1D 09 E2 3A 73 0E
   841)      4081.953 1  Rx    1AFB1C00 -  8    96 D6 CA 2E FF 32 6E 79
   842)      4082.337 1  Rx        0419 -  8    93 B4 55 D7 ED 62 17 5A
   843)      4183.328 1  Rx        0332 -  8    CF 3E 46 B6 91 0F 1D A9
   844)      4183.797 1  Rx        011A -  5    DF B3 77 C0 72
   845)      4184.395 1  Rx        0331 -  8    6A 65 FC 8A 1D 5C AB AE
   846)      4184.864 1  Rx        011B -  7    F2 43 52 29 25 CE 7B
   847)      4185.248 1  Rx        006E -  7    E3 3E 96 4C 76 26 27
   848)      4185.632 1  Rx        0106 -  7    84 E0 4C 0E E3 B4 85
   849)      4185.973 1  Rx        0132 -  7    E7 B7 18 EB 3A F4 EB
   850)      4186.357 1  Rx        0308 -  8    05 7A F5 60 EF B2 EE 09
   851)      4186.656 1  Rx        0206 -  7    C7 E3 5B 07 F5 39 E6
   852)      4186.997 1  Rx        0212 -  7    32 07 9E 57 38 79 E5
   853)      4187.296 1  Rx        0222 -  8    0A 6A 89 7A 45 A3 85 DA
   854)      4187.765 1  Rx        0459 -  8    01 4D 98 A7 70 38 24 51
   855)      4188.149 1  Rx        0451 -  8    FC 93 36 3E AC 33 A0 E6
   856)      4188.448 1  Rx        0441 -  8    15 F6 A7 7E F4 C8 6C 10
   857)      4188.747 1  Rx    1AFB1C04 -  8    28 15 1D 09 E2 3A F4 0E
   858)      4189.088 1  Rx    1AFB1C00 -  8    96 46 CA 2E FF 32 7B 81
   859)      4189.301 1  Rx        0419 -  8    93 AD 1F D7 D2 62 11 98
   860)      4240.118 1  Rx        033B -  8    7A 69 D8 04 1E 10 D5 AD
   861)      4240.246 1  Rx        0339 -  8    69 70 78 3B 48 B1 0E 40
   862)      4240.374 1  Rx        0337 -  7    3F 9D 18 46 24 8C 84
   863)      4240.502 1  Rx        001F -  5    71 82 20 2F 3C
   864)      4240.587 1  Rx        0333 -  4    EB 71 51 FA
   865)      4240.715 1  Rx        0335 -  8    B9 30 D2 EB F8 90 FF 69
   866)      4240.800 1  Rx        0121 -  4    7B 57 7E 85
   867)      4240.928 1  Rx        067F -  8    6E DE DE A6 02 16 1F 56
   868)      4241.099 1  Rx        0681 -  8    BD 01 CB F9 F7 5C BB 70
   869)      4241.227 1  Rx        0309 -  8    12 78 D3 2D DF 03 01 09
   870)      4241.355 1  Rx        030A -  8    17 9E 3F 24 A9 2F D3 5B
   871)      4241.483 1  Rx        0622 -  6    D2 C9 2F 3A 38 F5
   872)      4241.611 1  Rx        0413 -  6    DD 2E B3 40 4E 16
   873)      4241.696 1  Rx        0402 -  3    BA 99 21
   874)      4241.824 1  Rx        0739 -  8    D8 74 85 E8 7D 46 3E 07
   875)      4241.952 1  Rx        0411 -  8    89 22 4C 0B 3F 56 86 B5
   876)      4242.123 1  Rx        0729 -  8    3B 0E E3 58 0D D2 07 CE
   877)      4242.251 1  Rx        0728 -  8    96 26 BE 6C DC DB DE D1
   878)      4242.379 1  Rx        0709 -  8    7E 7A 4E 38 57 E3 EA 51
   879)      4242.507 1  Rx        0711 -  8    A8 5A D9 B0 AF F6 04 C8
   880)      4290.337 1  Rx        0332 -  8    CF F1 46 B6 F5 50 1D 15
   881)      4290.934 1  Rx        011A -  5    DF B3 8F C0 72
   882)      4291.489 1  Rx        0331 -  8    06 DC FC 5A F3 5C AB AE
   883)      4292.001 1  Rx        011B -  7    52 43 52 46 78 4C 7B
   884)      4292.470 1  Rx        006E -  7    D0 3E 96 F6 46 C5 A8
   885)      4292.811 1  Rx        0106 -  7    B3 73 4C 0E 61 B4 85
   886)      4293.153 1  Rx        0132 -  7    E7 51 86 EB 3A 57 EB
   887)      4293.579 1  Rx        0308 -  8    AD A9 23 23 DA A4 EE 09
   888)      4293.835 1  Rx        0206 -  7    C7 E3 45 07 F5 4E 55
   889)      4294.177 1  Rx        0212 -  7    32 07 F4 FB 38 98 D8
   890)      4294.433 1  Rx        0222 -  8    0A 9A 89 7A 45 A9 85 DA
   891)      4294.731 1  Rx        0459 -  8    4F 87 7C A7 E6 38 B0 AB
   892)      4294.987 1  Rx        0451 -  8    7B 93 36 3E 0F 33 CC E6
   893)      4295.329 1  Rx        0441 -  8    51 F6 A7 7E 23 66 3E 06
   894)      4295.627 1  Rx    1AFB1C04 -  8    8B 15 2D C4 E2 07 C5 5C
   895)      4295.841 1  Rx    1AFB1C00 -  8    6F 46 8A BD FF A0 7B 85
   896)      4296.097 1  Rx        0419 -  8    29 AD B7 24 D2 C2 11 98
   897)      4397.687 1  Rx        0332 -  8    CF F1 8E B6 F5 4E 1D 15
   898)      4397.772 1  Rx        011A -  5    F3 3C 1F F5 94
   899)      4397.943 1  Rx        0331 -  8    7B 49 05 33 92 0E 61 55
   900)      4398.028 1  Rx        011B -  7    36 BB FF B1 A5 37 B7
   901)      4398.156 1  Rx        006E -  7    F6 09 11 51 B1 37 55
   902)      4398.284 1  Rx        0106 -  7    27 F1 29 16 7E D2 42
   903)      4398.412 1  Rx        0132 -  7    FE C8 26 5B 32 25 7F
   904)      4398.540 1  Rx        0308 -  8    05 5B 5D 84 78 34 9D 89
   905)      4398.668 1  Rx        0206 -  7    E5 60 DC B2 3E 91 69
   906)      4398.796 1  Rx        0212 -  7    80 5B F3 66 91 16 10
   907)      4398.924 1  Rx        0222 -  8    10 AA 8F D3 8C 7C 66 56
   908)      4399.052 1  Rx        0459 -  8    8C 59 19 5D 7B 8E C0 55
   909)      4399.223 1  Rx        0451 -  8    BF F9 73 DD C3 05 3F 1B
   910)      4399.351 1  Rx        0441 -  8    8C 4A 09 93 65 D7 A6 57
   911)      4399.479 1  Rx    1AFB1C04 -  8    27 D0 A0 70 D6 4E 6E 28
   912)      4399.650 1  Rx    1AFB1C00 -  8    6F 46 8A B9 FF ED 7B 85
   913)      4399.778 1  Rx        0419 -  8    66 9F B7 24 D2 C2 20 8A
   914)      4500.941 1  Rx        0332 -  8    02 4D F0 71 F5 4E 01 15
   915)      4501.453 1  Rx        011A -  5    F3 3C 1F F5 1B
   916)      4502.008 1  Rx        0331 -  8    7A 33 05 2E 92 8C E3 55
   917)      4502.477 1  Rx        011B -  7    36 05 FF B1 7A A8 58
   918)      4502.861 1  Rx        006E -  7    F6 A3 8E 51 F8 37 EA
   919)      4503.160 1  Rx        0106 -  7    27 49 29 16 7E 26 9A
   920)      4503.501 1  Rx        0132 -  7    FE 21 26 5B 80 25 7F
   921)      4503.842 1  Rx        0308 -  8    05 E8 5D 49 D6 34 9D 44
   922)      4504.184 1  Rx        0206 -  7    E8 60 DC B2 3E 2E 69
   923)      4504.440 1  Rx        0212 -  7    13 87 F3 F1 B4 2E CE
   924)      4504.781 1  Rx        0222 -  8    10 3B 8F 60 A4 7C 3E A4
   925)      4505.037 1  Rx        0459 -  8    03 59 D1 5D 7B B6 C0 A0
   926)      4505.250 1  Rx        0451 -  8    BF F9 73 DD C3 C1 3F 34
   927)      4505.549 1  Rx        0441 -  8    8C 4A 09 93 65 D7 A6 57
   928)      4505.890 1  Rx    1AFB1C04 -  8    27 98 6A 70 D6 E3 6E 49
   929)      4506.061 1  Rx    1AFB1C00 -  8    BD 7A 78 EF AD C2 8F 86
   930)      4506.189 1  Rx        0419 -  8    FB D6 79 4E 05 6D 28 63
   931)      4607.310 1  Rx        0332 -  8    3B 4D F3 E9 FD 4E 46 15
   932)      4607.865 1  Rx        011A -  5    7F C7 1F F5 1B
   933)      4608.419 1  Rx        0331 -  8    7A D4 05 2E 56 E7 E3 22
   934)      4608.931 1  Rx        011B -  7    65 DC 09 B1 7A A8 47
   935)      4609.358 1  Rx        006E -  7    F6 28 DC 51 1E 04 EA
   936)      4609.785 1  Rx        0106 -  7    27 49 29 16 EB 16 45
   937)      4610.126 1  Rx        0132 -  7    FE AF 26 57 80 3F 97
   938)      4610.339 1  Rx        0308 -  8    05 BC 17 49 A4 35 58 44
   939)      4610.766 1  Rx        0206 -  7    97 60 9C 15 3E 6A 69
   940)      4611.022 1  Rx        0212 -  7    22 87 3B 0F C0 89 A5
   941)      4611.321 1  Rx        0222 -  8    10 C3 67 60 A4 76 3E A4
   942)      4611.705 1  Rx        0459 -  8    03 49 37 B2 A0 B6 C0 A0
   943)      4611.961 1  Rx        0451 -  8    33 F9 DE DD FD C1 3F 34
   944)      4612.259 1  Rx        0441 -  8    8C 20 99 93 F5 AA A6 57
   945)      4612.601 1  Rx    1AFB1C04 -  8    CD 98 6A 70 9A 55 6E 37
   946)      4612.942 1  Rx    1AFB1C00 -  8    08 7A 1B 64 DE 21 8F 86
   947)      4613.241 1  Rx        0419 -  8    FB C2 A8 B5 05 23 B3 48
   948)      4714.276 1  Rx        0332 -  8    03 E1 81 5E FD 4E 33 15
   949)      4714.831 1  Rx        011A -  5    8A 0F 44 B2 1B
   950)      4715.385 1  Rx        0331 -  8    7A D4 05 2E 56 E7 E3 22
   951)      4715.983 1  Rx        011B -  7    9F DC D0 6B 7A E2 47
   952)      4716.367 1  Rx        006E -  7    58 34 5F D5 A6 4C 09
   953)      4716.665 1  Rx        0106 -  7    AE 49 29 16 95 49 BC
   954)      4717.092 1  Rx        0132 -  7    FE 7B AF EC D3 56 E2
   955)      4717.391 1  Rx        0308 -  8    05 BC 21 D1 A4 35 7E 44
   956)      4717.775 1  Rx        0206 -  7    AF 65 9C 55 3E 5D 69
   957)      4718.073 1  Rx        0212 -  7    98 F0 B3 88 C0 07 07
   958)      4718.372 1  Rx        0222 -  8    10 C3 99 CC 6F 37 3E C1
   959)      4718.671 1  Rx        0459 -  8    46 11 37 B2 63 B6 C0 79
   960)      4719.012 1  Rx        0451 -  8    33 EE 08 58 FA 98 D2 40
   961)      4719.268 1  Rx        0441 -  8    6A 20 1F 52 F5 AA C4 57
   962)      4719.567 1  Rx    1AFB1C04 -  8    CD 4E 6A 70 6C 21 0D 37
   963)      4719.908 1  Rx    1AFB1C00 -  8    E4 7A 45 1F DE 21 8F 86
   964)      4720.121 1  Rx        0419 -  8    FB FD D9 B5 05 9F B3 48
   965)      4742.522 1  Rx        033B -  8    7A 69 9E 79 07 F9 D5 AD
   966)      4743.119 1  Rx        0339 -  8    69 70 78 76 17 E6 0E 40
   967)      4743.631 1  Rx        0337 -  7    3F 9D 6B 46 24 8C 8C
   968)      4744.143 1  Rx        001F -  5    71 CC 20 2F 3C
   969)      4744.484 1  Rx        0333 -  4    EB C2 51 FA
   970)      4744.911 1  Rx        0335 -  8    94 90 93 7E 92 90 FC 69
   971)      4745.210 1  Rx        0121 -  4    53 34 7E 85
   972)      4745.508 1  Rx        067F -  8    5A DE DE A6 86 35 1F 56
   973)      4745.764 1  Rx        0681 -  8    C7 B4 CB FB F7 5C 90 31
   974)      4746.063 1  Rx        0309 -  8    12 E3 D7 2D DF 6E 01 4F
   975)      4746.319 1  Rx        030A -  8    17 B6 0F 24 79 2F 2C 82
   976)      4746.575 1  Rx        0622 -  6    D2 E2 89 3A 38 F5
   977)      4746.788 1  Rx        0413 -  6    DD 2E B3 92 4E 1D
   978)      4747.002 1  Rx        0402 -  3    46 0C 21
   979)      4747.386 1  Rx        0739 -  8    B8 DD A5 8C 7D DE B9 07
   980)      4747.812 1  Rx        0411 -  8    89 22 A2 30 3F D4 B7 B5
   981)      4748.196 1  Rx        0729 -  8    3B 0E E3 85 69 ED 67 CE
   982)      4748.580 1  Rx        0728 -  8    96 26 67 6C DC DB DE D1
   983)      4749.007 1  Rx        0709 -  8    AB 7A 94 38 29 51 EA 85
   984)      4749.434 1  Rx        0711 -  8    A8 C2 B3 AF AF F6 A3 C8
   985)      4821.029 1  Rx        0332 -  8    FC 98 87 93 77 4E 33 15
   986)      4821.626 1  Rx        011A -  5    8A 49 44 B2 A0
   987)      4822.266 1  Rx        0331 -  8    4E 3D 0C 2E 56 3B 8B 22
   988)      4822.864 1  Rx        011B -  7    9F DC 05 5B FE E2 54
   989)      4823.248 1  Rx        006E -  7    21 34 5F 0D 9F 61 09
   990)      4823.589 1  Rx        0106 -  7    AE 7C 29 16 95 49 BB
   991)      4823.845 1  Rx        0132 -  7    FE 7B AF EC D3 FA 06
   992)      4824.272 1  Rx        0308 -  8    05 BC 21 D1 1B 51 7E 44
   993)      4824.613 1  Rx        0206 -  7    AF 65 F2 55 3E 5D F2
   994)      4824.869 1  Rx        0212 -  7    98 D0 B3 22 C0 07 CC
   995)      4825.168 1  Rx        0222 -  8    74 32 99 CC 6F 2E 7A C1
   996)      4825.594 1  Rx        0459 -  8    6E 11 37 9A 63 33 37 79
   997)      4826.106 1  Rx        0451 -  8    24 F4 CF 58 FA 98 93 40
   998)      4826.405 1  Rx        0441 -  8    6A 20 13 52 F5 1E C4 CD
   999)      4826.789 1  Rx    1AFB1C04 -  8    CD 4E 0B 6F 6C 22 0D BD
  1000)      4827.088 1  Rx    1AFB1C00 -  8    E4 26 67 1F 0C 21 36 86
  1001)      4827.386 1  Rx        0419 -  8    67 FD D0 B5 05 9F 8F 48
  1002)      4895.312 1  Rx        033A -  8    80 CC 6D 44 15 81 35 80
  1003)      4895.483 1  Rx        0336 -  8    CD CD FC 35 E5 DA E3 B2
  1004)      4895.611 1  Rx        0334 -  8    27 7E 85 15 7E F0 39 53
  1005)      4895.739 1  Rx        06DD -  8    B2 E9 2A D7 C4 6F C0 C1
  1006)      4895.867 1  Rx        0799 -  8    F8 1E 20 D6 66 84 D6 10
  1007)      4928.166 1  Rx        0332 -  8    FC 0A 87 09 F8 6C E1 15
  1008)      4928.678 1  Rx        011A -  5    89 A4 90 D7 A0
  1009)      4929.190 1  Rx        0331 -  8    DB 64 41 2E 1D 3B 8B 6A
  1010)      4929.574 1  Rx        011B -  7    9F DC B1 A1 FE 6C D0
  1011)      4930.000 1  Rx        006E -  7    21 09 5F 34 9F 61 EF
  1012)      4930.342 1  Rx        0106 -  7    AE 7C 29 5E 95 49 BB
  1013)      4930.640 1  Rx        0132 -  7    F8 5C AF EC D3 FA D2
  1014)      4931.067 1  Rx        0308 -  8    CA 4A 21 D1 94 51 7E 44
  1015)      4931.366 1  Rx        0206 -  7    BF 95 28 1A 28 30 B5
  1016)      4931.622 1  Rx        0212 -  7    98 5F EC 22 86 07 39
  1017)      4932.091 1  Rx        0222 -  8    74 32 DC CC 6F E4 57 CB
  1018)      4932.432 1  Rx        0459 -  8    04 11 37 9A 63 37 37 06
  1019)      4932.902 1  Rx        0451 -  8    73 9B CF 14 37 98 93 8B
  1020)      4933.200 1  Rx        0441 -  8    6A 20 1E 01 F5 1E C4 CD
  1021)      4933.499 1  Rx    1AFB1C04 -  8    74 4E 0B 6F DB B0 0D BD
  1022)      4933.798 1  Rx    1AFB1C00 -  8    E4 26 B9 1F 62 21 4E 86
  1023)      4934.139 1  Rx        0419 -  8    1A FD 9B 1F 05 E0 8F 49
  1024)      5035.175 1  Rx        0332 -  8    FC 0A 0F 50 F8 76 E1 15
  1025)      5035.687 1  Rx        011A -  5    1C A4 90 D7 94
  1026)      5036.241 1  Rx        0331 -  8    8B D2 88 6C 1D 3B 8B 6A
  1027)      5036.668 1  Rx        011B -  7    8D FF B1 A1 FE 12 D0
  1028)      5037.095 1  Rx        006E -  7    21 B5 5F DB 9F 03 4B
  1029)      5037.393 1  Rx        0106 -  7    65 7C 29 D3 95 F0 BB
  1030)      5037.735 1  Rx        0132 -  7    03 5C AF EC 3C A2 D2
  1031)      5038.033 1  Rx        0308 -  8    CA 4A 21 6C 94 51 F6 4F
  1032)      5038.417 1  Rx        0206 -  7    72 C3 28 1A B1 30 B5
  1033)      5038.759 1  Rx        0212 -  7    98 5F E9 22 86 7E C5
  1034)      5039.015 1  Rx        0222 -  8    3D 32 DC CC 6F E4 95 CB
  1035)      5039.313 1  Rx        0459 -  8    F0 11 37 57 AE 9B 37 06
  1036)      5039.740 1  Rx        0451 -  8    73 9B CF B5 7A 98 10 8B
  1037)      5040.039 1  Rx        0441 -  8    6A 19 F1 3A DB 1E C4 CD
  1038)      5040.337 1  Rx    1AFB1C04 -  8    C0 FD 0B 6F 8C B0 6C EF
  1039)      5040.721 1  Rx    1AFB1C00 -  8    6A 26 30 1F 62 21 96 B1
  1040)      5040.935 1  Rx        0419 -  8    C7 32 9B 39 05 E0 8F 1A
  1041)      5141.970 1  Rx        0332 -  8    8C A9 8F 37 81 D3 52 A2
  1042)      5142.610 1  Rx        011A -  5    3F C6 3B 11 94
  1043)      5143.207 1  Rx        0331 -  8    EB E3 08 00 9F 3B 8B 27
  1044)      5143.847 1  Rx        011B -  7    95 FF 88 9F C8 3B ED
  1045)      5144.274 1  Rx        006E -  7    E6 B5 5F AF 9F 03 4B
  1046)      5144.658 1  Rx        0106 -  7    65 F5 10 24 86 F0 BB
  1047)      5145.127 1  Rx        0132 -  7    03 2D AF 6C AB F4 D2
  1048)      5145.426 1  Rx        0308 -  8    04 4A 21 74 94 29 F6 53
  1049)      5145.725 1  Rx        0206 -  7    72 18 73 1A 1C 30 B5
  1050)      5146.066 1  Rx        0212 -  7    98 5F E9 FB 86 7E C5
  1051)      5146.365 1  Rx        0222 -  8    01 50 DC AC E3 E4 AE CB
  1052)      5146.706 1  Rx        0459 -  8    F0 F3 37 CC B5 9B 37 06
  1053)      5147.047 1  Rx        0451 -  8    73 62 CF AD 7A 98 5E 8B
  1054)      5147.303 1  Rx        0441 -  8    6A 19 F1 3A A4 49 56 CD
  1055)      5147.645 1  Rx    1AFB1C04 -  8    CA CC 42 6F E9 C4 6C EF
  1056)      5147.943 1  Rx    1AFB1C00 -  8    86 26 DF 1F 62 21 57 B1
  1057)      5148.285 1  Rx        0419 -  8    C7 D8 D8 39 05 E0 70 1A
  1058)      5249.776 1  Rx        0332 -  8    6C A9 8F 37 81 D3 52 DF
  1059)      5250.288 1  Rx        011A -  5    3F C6 3B 11 4A
  1060)      5250.800 1  Rx        033B -  8    92 69 65 A4 07 45 77 AD
  1061)      5251.227 1  Rx        0331 -  8    EB C4 08 27 58 4B F2 27
  1062)      5251.739 1  Rx        0339 -  8    51 91 51 76 F4 E6 0E 40
  1063)      5251.867 1  Rx        011B -  7    35 FF 8A 9F C8 3B ED
  1064)      5252.165 1  Rx        0337 -  7    A1 9D 7E 46 24 31 29
  1065)      5252.379 1  Rx        006E -  7    E6 41 5F 02 9F 4E 4B
  1066)      5252.763 1  Rx        001F -  5    71 B7 20 2F D3
  1067)      5252.933 1  Rx        0106 -  7    65 F5 10 D5 07 F0 BB
  1068)      5253.189 1  Rx        0333 -  4    EB C2 51 AB
  1069)      5253.317 1  Rx        0132 -  7    03 24 AF BC D3 F4 D2
  1070)      5253.616 1  Rx        0335 -  8    94 C9 93 7E 87 D9 41 5F
  1071)      5253.744 1  Rx        0308 -  8    60 8B EE 74 59 3B 89 18
  1072)      5253.915 1  Rx        0121 -  4    53 34 7E FC
  1073)      5254.085 1  Rx        0206 -  7    C8 18 73 9B 2F 6A 63
  1074)      5254.299 1  Rx        067F -  8    53 85 DE 43 86 C8 1F CE
  1075)      5254.512 1  Rx        0212 -  7    98 67 20 FB 86 CA BB
  1076)      5254.853 1  Rx        0681 -  8    24 02 23 FB F7 67 ED C5
  1077)      5254.981 1  Rx        0222 -  8    85 B7 2B 23 F1 F6 AE 80
  1078)      5255.280 1  Rx        0309 -  8    CE A1 15 2D DF 12 04 4F
  1079)      5255.451 1  Rx        0459 -  8    90 F3 37 39 26 75 01 6D
  1080)      5255.749 1  Rx        030A -  8    6D 9A 0F 17 79 60 0F 48
  1081)      5255.877 1  Rx        0451 -  8    00 8B CF 9E 7A 98 5E 8B
  1082)      5256.133 1  Rx        0622 -  6    D2 E2 3D 3A 38 92
  1083)      5256.261 1  Rx        0441 -  8    6A 19 F1 93 31 18 56 75
  1084)      5256.517 1  Rx        0413 -  6    DD 2E B3 92 8C 1D
  1085)      5256.645 1  Rx    1AFB1C04 -  8    72 55 4D 6C 30 13 E6 EF
  1086)      5256.901 1  Rx        0402 -  3    9F 0E 98
  1087)      5257.115 1  Rx    1AFB1C00 -  8    86 26 DF 1F 62 91 C2 B1
  1088)      5257.328 1  Rx        0739 -  8    B8 AE A5 8C EF DE 83 68
  1089)      5257.499 1  Rx        0419 -  8    58 D8 D8 8B 4D 1B 70 CC
  1090)      5257.669 1  Rx        0411 -  8    E5 22 A2 CE 81 80 B7 B5
  1091)      5257.883 1  Rx        0729 -  8    3B 0E 37 9F 69 ED 12 52
  1092)      5258.181 1  Rx        0728 -  8    96 26 03 E3 C0 72 84 32
  1093)      5258.437 1  Rx        0709 -  8    0A 7A 5C 38 41 51 EA 25
  1094)      5258.693 1  Rx        0711 -  8    A8 69 42 AF AF 30 A3 C8
  1095)      5358.705 1  Rx        0332 -  8    6C 59 E8 37 41 D3 78 DF
  1096)      5359.217 1  Rx        011A -  5    51 C6 3B 11 7B
  1097)      5359.771 1  Rx        0331 -  8    EB C4 A5 27 58 4B F2 27
  1098)      5360.326 1  Rx        011B -  7    35 14 8A E1 C8 71 AA
  1099)      5360.881 1  Rx        006E -  7    E6 41 5F C9 9F B8 4B
  1100)      5361.222 1  Rx        0106 -  7    65 F5 10 D5 0D D6 BB
  1101)      5361.563 1  Rx        0132 -  7    A1 D2 8B BC D3 F4 D2
  1102)      5361.990 1  Rx        0308 -  8    83 8B EE 78 59 3B EA 89
  1103)      5362.289 1  Rx        0206 -  7    24 18 73 71 2F D5 63
  1104)      5362.587 1  Rx        0212 -  7    84 67 1D FB 86 3A BB
  1105)      5362.929 1  Rx        0222 -  8    9B B7 5C 23 F1 85 AE 79
  1106)      5363.270 1  Rx        0459 -  8    90 B6 37 39 26 D0 01 AA
  1107)      5363.611 1  Rx        0451 -  8    00 8F CF 9E 7A 98 D5 8B
  1108)      5363.867 1  Rx        0441 -  8    6A 19 F1 93 31 18 69 86
  1109)      5364.123 1  Rx    1AFB1C04 -  8    45 55 C4 89 30 13 E6 EF
  1110)      5364.422 1  Rx    1AFB1C00 -  8    81 51 31 1F 86 91 70 B1
  1111)      5364.806 1  Rx        0419 -  8    E6 6E 84 8B 4D 1B 70 53
  1112)      5466.012 1  Rx        0332 -  8    83 59 E8 94 41 D3 AF B5
  1113)      5466.140 1  Rx        011A -  5    05 5C 71 4B A5
  1114)      5466.268 1  Rx        0331 -  8    73 74 87 B6 47 88 26 23
  1115)      5466.396 1  Rx        011B -  7    0E FE 86 A9 41 8B 44
  1116)      5466.524 1  Rx        006E -  7    3F BD 04 AD 3A DF 42
  1117)      5466.652 1  Rx        0106 -  7    10 DA F2 3B 6D 27 DB
  1118)      5466.738 1  Rx        0132 -  7    47 EF E8 45 48 9D 7B
  1119)      5466.908 1  Rx        0308 -  8    06 57 07 E4 4C 82 96 4B
  1120)      5467.036 1  Rx        0206 -  7    C8 57 FD D1 26 83 69
  1121)      5467.122 1  Rx        0212 -  7    C3 63 C8 CC E3 D3 8D
  1122)      5467.292 1  Rx        0222 -  8    3D 21 21 FA 10 6A AB CD
  1123)      5467.420 1  Rx        0459 -  8    93 42 8E 10 CD CB AF 57
  1124)      5467.548 1  Rx        0451 -  8    FE 5D 9D 28 70 A3 F2 4B
  1125)      5467.676 1  Rx        0441 -  8    41 91 A9 CB 62 95 E2 4F
  1126)      5467.847 1  Rx    1AFB1C04 -  8    10 1E 45 4B 92 D7 4B 05
  1127)      5467.975 1  Rx    1AFB1C00 -  8    D3 51 31 AE 48 91 AD B1
  1128)      5468.103 1  Rx        0419 -  8    B0 6E 84 AD 4D EA 62 53
  1129)      5569.522 1  Rx        0332 -  8    83 59 E8 94 41 D3 AF B5
  1130)      5570.162 1  Rx        011A -  5    05 54 60 4B B3
  1131)      5570.760 1  Rx        0331 -  8    EC DE 87 B6 DB 0D E5 23
  1132)      5571.314 1  Rx        011B -  7    0E FE 86 A9 41 8A EB
  1133)      5571.656 1  Rx        006E -  7    3F AC 04 7D B2 DF 45
  1134)      5571.954 1  Rx        0106 -  7    10 02 6D 3B 6D CE A9
  1135)      5572.253 1  Rx        0132 -  7    47 EF F3 56 BF 9D 7B
  1136)      5572.680 1  Rx        0308 -  8    F5 57 07 E4 4C AC 58 4B
  1137)      5573.064 1  Rx        0206 -  7    4C 4F FD A0 26 83 69
  1138)      5573.362 1  Rx        0212 -  7    DF 63 4B 42 E3 8C 8D
  1139)      5573.789 1  Rx        0222 -  8    3D D0 24 DC E3 04 AB CD
  1140)      5574.130 1  Rx        0459 -  8    67 42 A9 49 D3 52 60 0A
  1141)      5574.386 1  Rx        0451 -  8    0C 5D 9D 28 70 05 F2 D5
  1142)      5574.813 1  Rx        0441 -  8    41 91 A9 CB A4 95 75 4F
  1143)      5575.240 1  Rx    1AFB1C04 -  8    10 5E 45 FD EC 7C E8 05
  1144)      5575.410 1  Rx    1AFB1C00 -  8    D2 ED C2 9B E9 7C 72 4C
  1145)      5575.538 1  Rx        0419 -  8    42 01 EB 8F 5B AC 0F D8
  1146)      5676.787 1  Rx        0332 -  8    AA A9 E8 94 2F 09 AF B5
  1147)      5677.299 1  Rx        011A -  5    05 2F 60 4B B3
  1148)      5677.854 1  Rx        0331 -  8    A5 DE 87 0A FD 29 15 C7
  1149)      5678.323 1  Rx        011B -  7    0E D2 86 5C 54 8A EB
  1150)      5678.707 1  Rx        006E -  7    3F AC F3 7D 14 DF C3
  1151)      5679.049 1  Rx        0106 -  7    99 6C 6D F3 E5 C4 91
  1152)      5679.390 1  Rx        0132 -  7    29 9B E5 B9 BF 33 7B
  1153)      5679.689 1  Rx        0308 -  8    5D A1 07 06 4A AC 58 41
  1154)      5680.115 1  Rx        0206 -  7    4C 0F FD 03 7E 83 98
  1155)      5680.499 1  Rx        0212 -  7    2F A6 4B B7 E3 E9 F3
  1156)      5680.841 1  Rx        0222 -  8    3D D0 BA DC E3 0B E9 CD
  1157)      5681.139 1  Rx        0459 -  8    FE 9A A9 49 D3 8D 60 0A
  1158)      5681.395 1  Rx        0451 -  8    8E F1 23 28 60 05 9E 5F
  1159)      5681.779 1  Rx        0441 -  8    64 C4 77 1D EC 84 75 4F
  1160)      5682.121 1  Rx    1AFB1C04 -  8    2E 16 45 AA EC 7C EC E2
  1161)      5682.419 1  Rx    1AFB1C00 -  8    D5 ED C2 C4 E9 7C 8E 6B
  1162)      5682.718 1  Rx        0419 -  8    4D 01 EB 8F 5B 5E C5 D8
  1163)      5759.775 1  Rx        033B -  8    B6 04 12 F1 E2 29 83 73
  1164)      5760.415 1  Rx        0339 -  8    63 9E 51 E7 ED E6 61 D4
  1165)      5761.012 1  Rx        0337 -  7    05 A8 7E C9 24 44 8F
  1166)      5761.567 1  Rx        001F -  5    5F B7 52 2F 09
  1167)      5761.908 1  Rx        0333 -  4    EB A9 EA D8
  1168)      5762.249 1  Rx        0335 -  8    94 05 93 D9 87 D9 F7 5F
  1169)      5762.548 1  Rx        0121 -  4    6B 34 BD EA
  1170)      5762.889 1  Rx        067F -  8    53 CF 9A 9D 94 C8 A1 26
  1171)      5763.231 1  Rx        0681 -  8    23 08 23 FB 9D 35 ED 6F
  1172)      5763.487 1  Rx        0309 -  8    CE D9 15 69 2E 44 BA 4F
  1173)      5763.743 1  Rx        030A -  8    6D 04 0F 17 5E 60 97 48
  1174)      5764.084 1  Rx        0622 -  6    C6 7A 3D 80 94 76
  1175)      5764.383 1  Rx        0413 -  6    DD 2F B3 18 8C 1D
  1176)      5764.724 1  Rx        0402 -  3    4A 0E 56
  1177)      5765.193 1  Rx        0739 -  8    B8 6F A5 8C EF DE 02 68
  1178)      5765.577 1  Rx        0411 -  8    E5 22 A2 CE 81 80 B7 31
  1179)      5765.919 1  Rx        0729 -  8    A1 5E 37 9F 69 ED 12 52
  1180)      5766.303 1  Rx        0728 -  8    96 26 BF 59 C0 BE F7 04
  1181)      5766.644 1  Rx        0709 -  8    E7 7A F8 86 1C 51 EA A6
  1182)      5766.943 1  Rx        0711 -  8    A8 18 CD F4 AF 9C A3 F2
  1183)      5783.924 1  Rx        0332 -  8    A3 C6 25 53 C1 09 E9 D7
  1184)      5784.436 1  Rx        011A -  5    8D 2F CE A8 D0
  1185)      5784.863 1  Rx        0331 -  8    A5 61 87 0A A9 29 15 C7
  1186)      5785.161 1  Rx        011B -  7    FA D2 5B 5C EA 8C EB
  1187)      5785.716 1  Rx        006E -  7    3F 2E 38 E2 14 39 BC
  1188)      5786.057 1  Rx        0106 -  7    99 C4 6D F3 E5 C4 91
  1189)      5786.441 1  Rx        0132 -  7    29 9B E5 B9 BF BE 2A
  1190)      5786.868 1  Rx        0308 -  8    5C 18 FE 06 85 25 69 CE
  1191)      5787.039 1  Rx        0206 -  7    28 0F FD 03 05 83 CF
  1192)      5787.337 1  Rx        0212 -  7    2F A6 4B B7 6C EB F3
  1193)      5787.636 1  Rx        0222 -  8    98 78 BA DC E7 0B 92 CD
  1194)      5787.892 1  Rx        0459 -  8    60 9A 1E 7A D3 D3 98 0A
  1195)      5788.191 1  Rx        0451 -  8    8E F1 23 28 A1 05 32 5F
  1196)      5788.404 1  Rx        0441 -  8    72 C4 57 F5 EC 84 52 4F
  1197)      5788.788 1  Rx    1AFB1C04 -  8    0C 16 16 AA 7D EA EC 31
  1198)      5789.087 1  Rx    1AFB1C00 -  8    D5 ED 74 C4 E9 F8 A2 27
  1199)      5789.343 1  Rx        0419 -  8    80 A4 BA 8F EC AF C5 D8
  1200)      5890.933 1  Rx        0332 -  8    A3 CA B9 B7 C1 49 E9 D7
  1201)      5891.530 1  Rx        011A -  5    8D 1E CE E1 D0
  1202)      5892.085 1  Rx        0331 -  8    78 8B EF 0A A9 29 EC 3C
  1203)      5892.597 1  Rx        011B -  7    FA D2 5B BD EA 8C EB
  1204)      5892.938 1  Rx        006E -  7    6A 5A 38 E2 14 88 A7
  1205)      5893.237 1  Rx        0106 -  7    88 C4 85 F3 E5 C4 60
  1206)      5893.536 1  Rx        0132 -  7    5E 70 E5 51 BF BE 7E
  1207)      5893.792 1  Rx        0308 -  8    5C 81 62 30 85 B8 69 D7
  1208)      5894.048 1  Rx        0206 -  7    28 0F 3F 8F 05 83 4B
  1209)      5894.304 1  Rx        0212 -  7    85 A6 4B B7 5A EB F3
  1210)      5894.602 1  Rx        0222 -  8    98 30 BA DC A5 9F 92 DC
  1211)      5894.858 1  Rx        0459 -  8    BD 12 1E 7A 95 D3 98 0A
  1212)      5895.200 1  Rx        0451 -  8    8E 3E 58 28 6E B6 A6 5F
  1213)      5895.413 1  Rx        0441 -  8    72 90 6F F5 ED C4 A0 5C
  1214)      5895.797 1  Rx    1AFB1C04 -  8    A9 16 22 AA 2B 3E F6 31
  1215)      5896.181 1  Rx    1AFB1C00 -  8    D5 9E DF C4 E5 DF 43 58
  1216)      5896.437 1  Rx        033A -  8    37 BD 7C 61 08 DC 85 02
  1217)      5896.608 1  Rx        0419 -  8    30 55 BA 8F C4 6F C5 D8
  1218)      5896.736 1  Rx        0336 -  8    4A CD FC EC E5 F2 E3 B2
  1219)      5897.077 1  Rx        0334 -  8    15 5D CF 15 3E F0 38 53
  1220)      5897.333 1  Rx        06DD -  8    F2 E9 2A 21 C4 6F C0 63
  1221)      5897.589 1  Rx        0799 -  8    F8 1E 20 84 95 B8 C4 10
  1222)      5997.984 1  Rx        0332 -  8    A3 CA 5A B7 C1 49 E9 8C
  1223)      5998.582 1  Rx        011A -  5    E6 1E CE 44 98
  1224)      5999.179 1  Rx        0331 -  8    78 25 28 F2 EA C1 EC E6
  1225)      5999.648 1  Rx        011B -  7    61 D2 5B BD 0F 8C EB
  1226)      6000.032 1  Rx        006E -  7    6A 5A F3 E2 7D 38 A7
  1227)      6000.416 1  Rx        0106 -  7    49 39 CA 36 E5 3B 60
  1228)      6000.843 1  Rx        0132 -  7    FB 35 AA 75 BF 69 D8
  1229)      6001.184 1  Rx        0308 -  8    0F C3 E5 30 85 B8 69 D7
  1230)      6001.568 1  Rx        0206 -  7    28 BB A0 94 05 83 9A
  1231)      6001.867 1  Rx        0212 -  7    45 A6 29 B7 0D EB 8A
  1232)      6002.166 1  Rx        0222 -  8    98 3F C2 DC A5 9F 92 DC
  1233)      6002.379 1  Rx        0459 -  8    2E 01 1E E9 63 6C 98 0A
  1234)      6002.720 1  Rx        0451 -  8    F1 EA 15 F9 A7 46 31 5F
  1235)      6003.062 1  Rx        0441 -  8    43 01 6F F5 ED C4 A0 7C
  1236)      6003.318 1  Rx    1AFB1C04 -  8    A9 16 22 E4 5C 4A F6 6E
  1237)      6003.616 1  Rx    1AFB1C00 -  8    D5 9E DF 5B E2 DF E1 58
  1238)      6003.872 1  Rx        0419 -  8    30 CA BA 8F C4 B7 C5 D8
  1239)      6105.207 1  Rx        0332 -  8    A3 CA BF B7 C1 3B E9 8C
  1240)      6105.804 1  Rx        011A -  5    E5 CD CE 44 98
  1241)      6106.401 1  Rx        0331 -  8    EB 25 7B F2 15 C1 15 CA
  1242)      6106.913 1  Rx        011B -  7    61 E3 B5 C6 0F 8C E9
  1243)      6107.340 1  Rx        006E -  7    6A 6C 33 16 D9 81 DB
  1244)      6107.681 1  Rx        0106 -  7    85 99 CA 9F 0F 70 16
  1245)      6108.065 1  Rx        0132 -  7    2A 35 AA 75 BF 4D 04
  1246)      6108.407 1  Rx        0308 -  8    0F 59 64 14 15 B8 69 D7
  1247)      6108.791 1  Rx        0206 -  7    28 BB A0 94 05 30 9A
  1248)      6109.132 1  Rx        0212 -  7    05 A6 F2 8B 65 2B 8A
  1249)      6109.431 1  Rx        0222 -  8    D5 3F 87 3E A5 9F 92 DC
  1250)      6109.857 1  Rx        0459 -  8    2E 32 62 E0 94 6C 98 80
  1251)      6110.241 1  Rx        0451 -  8    87 B3 93 C9 C7 46 31 7B
  1252)      6110.540 1  Rx        0441 -  8    C6 53 6F F5 03 9B F2 C7
  1253)      6111.009 1  Rx    1AFB1C04 -  8    A9 16 A3 E4 5C A6 7D 21
  1254)      6111.265 1  Rx    1AFB1C00 -  8    D6 9E DF 5B E2 DF 6A 58
  1255)      6111.564 1  Rx        0419 -  8    A4 77 12 8F 8E B7 43 D8
  1256)      6212.245 1  Rx        0332 -  8    9B BF 5D 45 12 E0 2C 4D
  1257)      6212.885 1  Rx        011A -  5    E5 CD 46 44 D4
  1258)      6213.483 1  Rx        0331 -  8    C8 45 8F 36 15 C1 15 F1
  1259)      6214.080 1  Rx        011B -  7    98 E3 B5 C6 0F 8C 3A
  1260)      6214.464 1  Rx        006E -  7    6A 6C 41 A0 D9 81 6A
  1261)      6214.848 1  Rx        0106 -  7    46 89 CA 34 A2 70 EF
  1262)      6215.360 1  Rx        0132 -  7    2A FC AA 75 4F 4D 10
  1263)      6215.659 1  Rx        0308 -  8    0F 42 64 14 94 C4 69 3B
  1264)      6216.043 1  Rx        0206 -  7    28 BB A0 94 4C E4 8A
  1265)      6216.341 1  Rx        0212 -  7    FF DA F2 7F 8D 59 4F
  1266)      6216.640 1  Rx        0222 -  8    D5 3F 87 DD A5 9F DE DC
  1267)      6217.024 1  Rx        0459 -  8    32 A3 C2 E0 59 6C 98 80
  1268)      6217.323 1  Rx        0451 -  8    AB D7 93 C9 49 3A F7 0E
  1269)      6217.664 1  Rx        0441 -  8    C6 53 6F F5 77 E8 F2 C7
  1270)      6218.517 1  Rx    1AFB1C04 -  8    A9 1C 55 3C 9C A6 62 C7
  1271)      6219.797 1  Rx    1AFB1C00 -  8    81 2D DF D4 D2 DF 6A 58
  1272)      6220.309 1  Rx        0419 -  8    A4 77 0C BD EC B7 DB FB
  1273)      6268.310 1  Rx        033B -  8    2E 19 12 84 32 49 2D 73
  1274)      6268.950 1  Rx        0339 -  8    6A 43 51 D2 ED E6 61 D4
  1275)      6269.547 1  Rx        0337 -  7    79 3C F8 5E DE 44 DD
  1276)      6269.931 1  Rx        001F -  5    5F B7 52 2F 09
  1277)      6270.187 1  Rx        0333 -  4    65 02 EA 93
  1278)      6270.571 1  Rx        0335 -  8    28 74 44 98 92 C2 F7 5F
  1279)      6270.827 1  Rx        0121 -  4    92 40 94 EA
  1280)      6271.211 1  Rx        067F -  8    4C CF CD 9D 69 56 A1 8D
  1281)      6271.467 1  Rx        0681 -  8    23 38 23 4C 9D F4 57 6F
  1282)      6271.766 1  Rx        0309 -  8    CE D9 15 FF 2E 44 BA F5
  1283)      6272.065 1  Rx        030A -  8    46 04 B6 02 ED 2C 97 48
  1284)      6272.321 1  Rx        0622 -  6    C6 7A E4 80 8F 76
  1285)      6272.662 1  Rx        0413 -  6    DD 32 C7 18 8C 1D
  1286)      6272.961 1  Rx        0402 -  3    EF 48 59
  1287)      6273.345 1  Rx        0739 -  8    B8 6F A5 8C EF 9A E0 68
  1288)      6273.857 1  Rx        0411 -  8    51 22 5E CE 81 F3 0A 31
  1289)      6274.326 1  Rx        0729 -  8    A1 84 37 9F 9A ED 74 CB
  1290)      6274.923 1  Rx        0728 -  8    61 26 BF 5E AA BE 36 1E
  1291)      6275.435 1  Rx        0709 -  8    E7 7A 9A 86 9B 51 EA A6
  1292)      6275.777 1  Rx        0711 -  8    A8 18 CD D1 AF 9C A3 0F
  1293)      6321.174 1  Rx        0332 -  8    9B BF DD 45 DB E0 2C 5A
  1294)      6321.686 1  Rx        011A -  5    CF CD C0 9D D4
  1295)      6322.198 1  Rx        0331 -  8    C8 A7 5D 8C 15 ED 42 F1
  1296)      6322.582 1  Rx        011B -  7    98 DE B5 68 6F 4D 3A
  1297)      6322.966 1  Rx        006E -  7    9F 0F 41 03 A9 83 6A
  1298)      6323.222 1  Rx        0106 -  7    46 04 CA A5 97 70 EF
  1299)      6323.478 1  Rx        0132 -  7    2A FC 01 D8 97 4D 10
  1300)      6323.862 1  Rx        0308 -  8    73 42 35 B9 3B 98 D0 18
  1301)      6324.118 1  Rx        0206 -  7    A2 BB A0 35 BB E4 8A
  1302)      6324.460 1  Rx        0212 -  7    FF DA 3D 7F 30 4A 4F
  1303)      6324.801 1  Rx        0222 -  8    75 FD 87 DD A5 4E 6F BA
  1304)      6325.185 1  Rx        0459 -  8    C2 A3 84 E0 FC 6C 98 80
  1305)      6325.441 1  Rx        0451 -  8    AB 3A 93 5D 49 3A F7 E1
  1306)      6325.782 1  Rx        0441 -  8    A0 18 48 F9 77 88 2C D6
  1307)      6326.252 1  Rx    1AFB1C04 -  8    6E 1C 55 E6 30 27 62 15
  1308)      6326.593 1  Rx    1AFB1C00 -  8    89 3C 46 34 D2 D3 6A 36
  1309)      6326.849 1  Rx        0419 -  8    A4 77 0C BD EC B7 DB FB
  1310)      6428.610 1  Rx        0332 -  8    70 BF DD 45 DB DB F3 5A
  1311)      6429.122 1  Rx        011A -  5    CF 40 39 9D D4
  1312)      6429.591 1  Rx        0331 -  8    C8 A7 5D F6 15 ED 42 F1
  1313)      6430.103 1  Rx        011B -  7    50 DE B5 F9 6F 4D 3A
  1314)      6430.572 1  Rx        006E -  7    56 5B 41 04 A9 F5 F8
  1315)      6430.871 1  Rx        0106 -  7    76 04 5C C7 72 70 05
  1316)      6431.170 1  Rx        0132 -  7    2A FC A3 CA 97 D7 EB
  1317)      6431.468 1  Rx        0308 -  8    73 27 35 B9 AF 5C D0 8D
  1318)      6431.810 1  Rx        0206 -  7    03 8B 75 5E BB 79 8A
  1319)      6432.023 1  Rx        0212 -  7    FF DA 7A 7F 30 4A 4F
  1320)      6432.322 1  Rx        0222 -  8    75 D2 87 6F A5 4E 71 FC
  1321)      6432.620 1  Rx        0459 -  8    C2 73 84 E0 38 6C 98 80
  1322)      6432.919 1  Rx        0451 -  8    AB 4F 93 4F 49 3A 6E 21
  1323)      6433.218 1  Rx        0441 -  8    94 A0 03 4D EC C1 BB 5F
  1324)      6433.474 1  Rx    1AFB1C04 -  8    6E 4A 4F 83 99 27 62 15
  1325)      6433.815 1  Rx    1AFB1C00 -  8    89 3C 46 34 D2 03 E8 CB
  1326)      6434.114 1  Rx        0419 -  8    D5 CF 0C BD EC B7 DB F3
  1327)      6535.448 1  Rx        0332 -  8    AB BF 9A A9 DB 9E F3 49
  1328)      6535.576 1  Rx        011A -  5    CC 31 C2 F6 EE
  1329)      6535.704 1  Rx        0331 -  8    20 89 83 C7 37 B3 A4 91
  1330)      6535.832 1  Rx        011B -  7    DC C9 76 8A DD 56 EB
  1331)      6535.960 1  Rx        006E -  7    FC F9 46 6E 9F 0D 1C
  1332)      6536.088 1  Rx        0106 -  7    A0 1C 3A 7E 45 F7 58
  1333)      6536.173 1  Rx        0132 -  7    12 52 B4 59 10 D5 98
  1334)      6536.344 1  Rx        0308 -  8    8A C3 AB C4 67 27 BC D0
  1335)      6536.429 1  Rx        0206 -  7    68 F3 C7 BA 8C 40 45
  1336)      6536.557 1  Rx        0212 -  7    A6 61 33 A2 E4 86 07
  1337)      6536.685 1  Rx        0222 -  8    03 CF F3 2D 6B A1 37 BD
  1338)      6536.856 1  Rx        0459 -  8    03 E7 93 03 50 09 B3 3B
  1339)      6536.984 1  Rx        0451 -  8    22 AA DE 67 A7 4A F4 0C
  1340)      6537.112 1  Rx        0441 -  8    EC B6 BC B6 69 83 11 F7
  1341)      6537.240 1  Rx    1AFB1C04 -  8    DF DD DC BE 2B 0D BB E5
  1342)      6537.411 1  Rx    1AFB1C00 -  8    18 5C 46 34 98 03 E8 CB
  1343)      6537.539 1  Rx        0419 -  8    D5 88 0C 9D FA 03 E0 F3
  1344)      6638.531 1  Rx        0332 -  8    AB 31 4A A9 DB 9E 0B 49
  1345)      6639.171 1  Rx        011A -  5    CC 05 C2 F6 7A
  1346)      6639.769 1  Rx        0331 -  8    02 89 64 1A 18 66 3E F9
  1347)      6640.281 1  Rx        011B -  7    DC 85 76 1E DD 56 EB
  1348)      6640.665 1  Rx        006E -  7    8E F9 BF 0A 98 97 AC
  1349)      6641.006 1  Rx        0106 -  7    60 1C 4C 7E 11 F7 58
  1350)      6641.347 1  Rx        0132 -  7    1B 52 B4 59 10 93 98
  1351)      6641.731 1  Rx        0308 -  8    8A C3 98 C4 67 27 BC D0
  1352)      6642.115 1  Rx        0206 -  7    BD F3 5B BA FE 70 6A
  1353)      6642.457 1  Rx        0212 -  7    F8 61 43 0A E4 DF A5
  1354)      6642.798 1  Rx        0222 -  8    AA CF F3 94 6B A1 37 02
  1355)      6643.097 1  Rx        0459 -  8    03 54 88 5D E8 09 B3 74
  1356)      6643.353 1  Rx        0451 -  8    22 B3 DE 67 A7 D0 7F 0C
  1357)      6643.694 1  Rx        0441 -  8    EC 39 BC DE 5F 5E 11 F7
  1358)      6643.993 1  Rx    1AFB1C04 -  8    DF DD AE BE 2B 4D BF E5
  1359)      6644.121 1  Rx    1AFB1C00 -  8    A0 2C A3 1F 36 A0 AA 6E
  1360)      6644.249 1  Rx        0419 -  8    24 CE B7 5B 71 81 37 2C
  1361)      6744.986 1  Rx        0332 -  8    96 31 4A A9 DB 9E EA 1E
  1362)      6745.540 1  Rx        011A -  5    CC 1D C2 F6 7A
  1363)      6746.095 1  Rx        0331 -  8    02 89 64 1A CE 66 FA F9
  1364)      6746.564 1  Rx        011B -  7    DC 85 22 3C 18 56 EB
  1365)      6746.906 1  Rx        006E -  7    8E F9 BF 0A 98 97 17
  1366)      6747.375 1  Rx        0106 -  7    60 DF 4C 7E 32 9F 53
  1367)      6747.631 1  Rx        0132 -  7    1B 52 B4 59 8D 93 A3
  1368)      6747.972 1  Rx        0308 -  8    EC 57 9C 84 54 0E BC B3
  1369)      6748.271 1  Rx        0206 -  7    BD F3 5B ED 43 CD 6A
  1370)      6748.612 1  Rx        0212 -  7    F8 61 E1 20 E4 99 A5
  1371)      6748.954 1  Rx        0222 -  8    DB CF F3 FA 4F 14 37 2E
  1372)      6749.295 1  Rx        0459 -  8    D0 92 88 F0 30 09 BA 74
  1373)      6749.594 1  Rx        0451 -  8    22 44 01 D3 A7 C6 7F 96
  1374)      6750.063 1  Rx        0441 -  8    FB 81 54 DB 5F 2B 65 F7
  1375)      6750.404 1  Rx    1AFB1C04 -  8    DF DD AE 78 B6 4D BF E5
  1376)      6750.660 1  Rx    1AFB1C00 -  8    B5 49 72 1F 36 CB AA 6E
  1377)      6750.959 1  Rx        0419 -  8    08 CE 1A 5B 71 81 12 2C
  1378)      6776.943 1  Rx        033B -  8    2E 16 C6 84 32 49 2D 73
  1379)      6777.540 1  Rx        0339 -  8    44 60 04 D2 B3 E6 61 D4
  1380)      6778.052 1  Rx        0337 -  7    10 3C F8 A0 DE 44 DD
  1381)      6778.522 1  Rx        001F -  5    5F 67 52 2F 09
  1382)      6779.034 1  Rx        0333 -  4    65 09 EA 93
  1383)      6779.546 1  Rx        0335 -  8    A8 3E DF 98 92 C2 19 76
  1384)      6779.930 1  Rx        0121 -  4    92 40 F7 93
  1385)      6780.399 1  Rx        067F -  8    C5 C3 9F 9D 1C 98 A1 8D
  1386)      6780.783 1  Rx        0681 -  8    61 8F 23 4C 9D FE 57 3A
  1387)      6781.082 1  Rx        0309 -  8    AB D9 C7 93 2E 44 7D F5
  1388)      6781.423 1  Rx        030A -  8    56 04 B6 1F AF 8A 7A 64
  1389)      6781.892 1  Rx        0622 -  6    BB 7A 51 7E 8F 76
  1390)      6782.276 1  Rx        0413 -  6    AD 64 03 0E 99 1D
  1391)      6782.532 1  Rx        0402 -  3    EF 48 C6
  1392)      6782.959 1  Rx        0739 -  8    B8 6F A5 8C 3E 9A E0 37
  1393)      6783.343 1  Rx        0411 -  8    36 97 5E CE 81 F3 0A 31
  1394)      6783.813 1  Rx        0729 -  8    13 CC 37 9F 9A 5E 74 CB
  1395)      6784.154 1  Rx        0728 -  8    3D 71 BF 5E AA BE 81 1E
  1396)      6784.581 1  Rx        0709 -  8    E7 7A 9A 86 01 51 EA A6
  1397)      6785.050 1  Rx        0711 -  8    B2 18 FF D1 7A 5C 9F C3
  1398)      6852.378 1  Rx        0332 -  8    96 6C 02 A9 DB 0E EA 1E
  1399)      6852.976 1  Rx        011A -  5    CC E8 C2 F6 75
  1400)      6853.530 1  Rx        0331 -  8    02 89 35 70 50 66 FA F9
  1401)      6854.000 1  Rx        011B -  7    F9 85 26 3C F9 BA C6
  1402)      6854.426 1  Rx        006E -  7    8E 8F 4A F5 98 97 16
  1403)      6854.682 1  Rx        0106 -  7    93 5B 99 62 32 2E 53
  1404)      6854.981 1  Rx        0132 -  7    BD EC 1A 59 8D 93 C9
  1405)      6855.322 1  Rx        0308 -  8    EC 5F 7A 1E 54 0E D0 B3
  1406)      6855.536 1  Rx        0206 -  7    BD F3 5B ED 43 41 AC
  1407)      6855.749 1  Rx        0212 -  7    F8 91 E1 20 2F 99 CD
  1408)      6856.090 1  Rx        0222 -  8    05 CF F3 9A 4F AF 37 98
  1409)      6856.346 1  Rx        0459 -  8    54 29 88 F0 AB 09 BA 97
  1410)      6856.645 1  Rx        0451 -  8    3B 44 01 32 7E 1E AA 96
  1411)      6856.986 1  Rx        0441 -  8    FB 11 F5 DB 5F 4F 65 F7
  1412)      6857.285 1  Rx    1AFB1C04 -  8    4C A5 CE 04 B6 4D BF E5
  1413)      6857.541 1  Rx    1AFB1C00 -  8    B5 5E 72 1F DF 9B 5A 6E
  1414)      6857.797 1  Rx        0419 -  8    F9 CE 1F 5B 50 81 AA 3C
  1415)      6899.099 1  Rx        033A -  8    A9 BD 2F 61 08 25 85 02
